!CSV A.01.01
!Keysight Technologies,N5222B,MY58422327,A.13.60.06
!Date: Monday, March 28, 2022 16:38:53
!Source: Standard

BEGIN CH1_DATA
Freq(Hz),S11(DB),S11(DEG),S12(DB),S12(DEG),S13(DB),S13(DEG),S14(DB),S14(DEG),S21(DB),S21(DEG),S22(DB),S22(DEG),S23(DB),S23(DEG),S24(DB),S24(DEG),S31(DB),S31(DEG),S32(DB),S32(DEG),S33(DB),S33(DEG),S34(DB),S34(DEG),S41(DB),S41(DEG),S42(DB),S42(DEG),S43(DB),S43(DEG),S44(DB),S44(DEG)
2500000000,-16.575886,22.211926,-32.496094,25.169872,-30.951761,14.67318,-32.394474,28.526667,-32.562809,24.726749,-13.095025,-174.73373,-38.124577,30.821033,-38.157074,-97.53701,-30.91349,14.769914,-38.078884,30.668871,-15.63618,28.199163,-40.379192,-42.145912,-32.452374,28.371202,-38.170067,-97.343277,-40.475422,-42.103367,-16.618103,164.19661
2500500000,-16.56823,21.795347,-32.60017,23.923067,-30.934694,13.834697,-32.443668,27.481537,-32.673489,23.444765,-13.057701,-174.90686,-38.218754,29.213768,-38.079403,-99.49897,-30.894066,13.961645,-38.18536,29.121727,-15.586801,27.61208,-40.505085,-42.81686,-32.504105,27.351463,-38.085835,-99.268234,-40.60651,-42.789116,-16.611107,163.89288
2501000000,-16.558481,21.391342,-32.707233,22.753576,-30.917175,13.039042,-32.497749,26.502817,-32.788677,22.241611,-13.019318,-175.06313,-38.334442,27.57667,-38.010117,-101.54684,-30.875187,13.177649,-38.302086,27.551712,-15.537697,27.031332,-40.610439,-43.676815,-32.5592,26.375887,-38.00647,-101.30769,-40.717064,-43.627045,-16.601091,163.58084
2501500000,-16.545712,21.00388,-32.802959,21.679129,-30.899229,12.356856,-32.549377,25.632587,-32.89436,21.16968,-12.983307,-175.23015,-38.468292,26.056273,-37.958504,-103.62199,-30.85511,12.49136,-38.439869,26.10187,-15.491386,26.454546,-40.732052,-44.601181,-32.612316,25.526861,-37.948692,-103.39652,-40.841156,-44.513672,-16.586607,163.27
2502000000,-16.532921,20.594788,-32.891216,20.63501,-30.874586,11.719847,-32.597511,24.795794,-32.991207,20.148659,-12.948421,-175.39224,-38.621342,24.582642,-37.915577,-105.6519,-30.826136,11.84154,-38.590919,24.723619,-15.446651,25.883921,-40.85944,-45.681984,-32.659023,24.681536,-37.899963,-105.45004,-40.958862,-45.546959,-16.568411,162.93823
2502500000,-16.517164,20.188595,-32.969322,19.625282,-30.843525,11.09648,-32.644264,23.993954,-33.079304,19.1574,-12.913877,-175.55238,-38.778316,23.243454,-37.874092,-107.62467,-30.793013,11.201751,-38.740894,23.434507,-15.406006,25.330896,-41.031456,-46.881672,-32.705864,23.90097,-37.85244,-107.45419,-41.121758,-46.712299,-16.548218,162.57161
2503000000,-16.498634,19.780067,-33.033527,18.618687,-30.807554,10.514729,-32.688103,23.267744,-33.154827,18.21101,-12.882374,-175.72885,-38.948429,21.965652,-37.828053,-109.57011,-30.757265,10.594323,-38.89394,22.188107,-15.365572,24.796537,-41.250957,-47.985008,-32.748791,23.162386,-37.803364,-109.46255,-41.336258,-47.784607,-16.526173,162.1842
2503500000,-16.482019,19.351175,-33.087986,17.547379,-30.766277,9.9795008,-32.726986,22.585367,-33.214161,17.220898,-12.851731,-175.89983,-39.105862,20.683716,-37.765812,-111.48582,-30.71311,10.048004,-39.044796,20.923141,-15.328909,24.286814,-41.516331,-48.705418,-32.788036,22.480253,-37.747311,-111.43619,-41.598698,-48.487282,-16.503847,161.76982
2504000000,-16.461058,18.92156,-33.144962,16.436533,-30.708767,9.4872656,-32.760143,21.932858,-33.271542,16.203688,-12.820665,-176.06342,-39.279213,19.40707,-37.689533,-113.43323,-30.656481,9.5423479,-39.203518,19.577574,-15.29216,23.815283,-41.780308,-49.089798,-32.820827,21.818054,-37.676067,-113.40165,-41.855682,-48.846447,-16.482529,161.31137
2504500000,-16.438398,18.48562,-33.197063,15.27824,-30.630907,8.9906988,-32.788105,21.35166,-33.325031,15.154634,-12.792482,-176.23711,-39.473145,18.025126,-37.596058,-115.48363,-30.580229,9.0205469,-39.384178,18.112297,-15.253329,23.376057,-42.037853,-49.031967,-32.85067,21.232092,-37.586239,-115.50877,-42.10342,-48.797417,-16.459408,160.84486
2505000000,-16.410038,18.041821,-33.249794,14.049289,-30.540148,8.4091043,-32.804119,20.83238,-33.376652,14.03063,-12.766587,-176.41628,-39.70042,16.713881,-37.481903,-117.69357,-30.490469,8.4140396,-39.609531,16.710329,-15.212005,22.946001,-42.278809,-48.655014,-32.865421,20.688025,-37.480801,-117.75217,-42.334015,-48.471405,-16.439287,160.32726
2505500000,-16.380991,17.569401,-33.314735,12.849042,-30.435749,7.7153997,-32.809174,20.315695,-33.431469,12.901238,-12.741469,-176.5813,-39.960258,15.492447,-37.371284,-120.19424,-30.387146,7.7103891,-39.875809,15.377884,-15.167359,22.52951,-42.462284,-47.823582,-32.872231,20.176893,-37.377285,-120.27087,-42.501408,-47.773827,-16.419319,159.7935
2506000000,-16.352209,17.070944,-33.383804,11.603597,-30.32795,6.91185,-32.802715,19.80961,-33.485271,11.727526,-12.717908,-176.74544,-40.24696,14.423977,-37.26812,-122.92097,-30.281969,6.8955083,-40.169605,14.218058,-15.120452,22.123333,-42.582851,-46.887058,-32.864357,19.675785,-37.280746,-123.00478,-42.62228,-46.887367,-16.400705,159.22314
2506500000,-16.324186,16.557489,-33.463726,10.332289,-30.223917,6.0107942,-32.782063,19.32473,-33.55191,10.48959,-12.695999,-176.91422,-40.570168,13.560511,-37.188705,-125.87006,-30.17831,5.9827175,-40.505318,13.254882,-15.070668,21.719151,-42.628262,-45.93005,-32.843548,19.180529,-37.210197,-125.94933,-42.673557,-45.995564,-16.384605,158.62938
2507000000,-16.302076,16.027958,-33.555321,9.1580048,-30.121616,5.0160766,-32.74054,18.776253,-33.628929,9.3046427,-12.673697,-177.05777,-40.928516,13.032865,-37.139721,-128.99715,-30.075565,4.9944186,-40.881363,12.666622,-15.018132,21.319763,-42.618099,-45.099243,-32.799767,18.627378,-37.167358,-129.04301,-42.664314,-45.23555,-16.372578,158.00217
2507500000,-16.278276,15.520407,-33.65004,8.0384045,-30.0261,3.9145436,-32.688568,18.101467,-33.711643,8.1592255,-12.653136,-177.20679,-41.3013,12.923062,-37.12521,-132.2045,-29.979271,3.8976099,-41.280174,12.56674,-14.961626,20.919903,-42.561581,-44.51033,-32.749031,17.939005,-37.159618,-132.23807,-42.613369,-44.684517,-16.365414,157.36166
2508000000,-16.260885,14.9958,-33.748051,6.982965,-29.938374,2.7693448,-32.640598,17.309072,-33.795841,7.0634279,-12.631244,-177.33992,-41.671028,13.262639,-37.144592,-135.45985,-29.891066,2.7473953,-41.672535,13.010156,-14.904793,20.513988,-42.472542,-44.24102,-32.704487,17.148966,-37.184456,-135.45659,-42.535606,-44.457596,-16.362436,156.71072
2508500000,-16.246235,14.481391,-33.840973,6.0101519,-29.86088,1.5765122,-32.602142,16.492451,-33.882263,6.0235548,-12.607862,-177.45871,-42.027637,14.101748,-37.196472,-138.67635,-29.815119,1.5478554,-42.044403,13.982278,-14.842767,20.103668,-42.386169,-44.240574,-32.667133,16.328602,-37.242104,-138.63863,-42.453506,-44.459064,-16.364397,156.05542
2509000000,-16.239201,13.954409,-33.92786,5.0712385,-29.790752,0.35325792,-32.568542,15.683298,-33.961788,5.0141902,-12.585904,-177.59451,-42.340729,15.440949,-37.276455,-141.85751,-29.742678,0.3317422,-42.371765,15.514247,-14.77998,19.684525,-42.312393,-44.447212,-32.634007,15.525336,-37.324303,-141.74704,-42.389652,-44.688599,-16.369127,155.41714
2509500000,-16.236237,13.450007,-34.012062,4.1392064,-29.727911,-0.90303779,-32.532578,14.909953,-34.044064,4.0029135,-12.560775,-177.72252,-42.592754,17.135958,-37.372738,-144.96194,-29.679432,-0.91437954,-42.6119,17.479645,-14.713373,19.247377,-42.247791,-44.622814,-32.598503,14.742431,-37.421223,-144.80386,-42.335423,-44.87804,-16.376417,154.78772
2510000000,-16.240067,12.959159,-34.096733,3.1822636,-29.670385,-2.1967335,-32.487812,14.119772,-34.129154,2.9894288,-12.534047,-177.84448,-42.758492,19.186338,-37.484257,-147.96133,-29.621103,-2.1877029,-42.766754,19.655569,-14.645903,18.796284,-42.182335,-44.812599,-32.557751,13.977615,-37.531548,-147.79686,-42.27013,-45.077583,-16.386257,154.15791
2510500000,-16.254108,12.467747,-34.18631,2.2761078,-29.623219,-3.5252473,-32.43618,13.342219,-34.222836,2.0262818,-12.508265,-177.98691,-42.841984,21.333664,-37.604187,-150.96162,-29.570292,-3.506947,-42.818779,21.93461,-14.579351,18.311892,-42.110909,-44.973072,-32.507339,13.193851,-37.650383,-150.77567,-42.206234,-45.221905,-16.396076,153.56514
2511000000,-16.269602,12.019301,-34.280731,1.4582051,-29.58713,-4.8453412,-32.377926,12.509231,-34.322063,1.1568507,-12.482747,-178.12505,-42.80759,23.511147,-37.741371,-153.95921,-29.532732,-4.8410239,-42.758789,24.121012,-14.513267,17.802631,-42.020836,-45.145573,-32.45047,12.383207,-37.783398,-153.78015,-42.120468,-45.363522,-16.408314,152.96904
2511500000,-16.287973,11.600312,-34.362225,0.72815478,-29.566664,-6.1506791,-32.315578,11.623069,-34.410297,0.40400925,-12.456058,-178.25418,-42.68206,25.254782,-37.895546,-156.95377,-29.506969,-6.1636558,-42.602978,25.874228,-14.44979,17.267851,-41.903698,-45.429695,-32.389969,11.522819,-37.938812,-156.80595,-42.004475,-45.575333,-16.422382,152.38387
2512000000,-16.308668,11.199704,-34.433048,0.019779002,-29.547226,-7.4180832,-32.251431,10.692102,-34.489864,-0.32696164,-12.429936,-178.39909,-42.494591,26.600571,-38.072956,-159.87195,-29.484377,-7.4384279,-42.389133,27.042673,-14.39411,16.708622,-41.781857,-45.916012,-32.324409,10.625807,-38.121586,-159.7422,-41.880943,-46.054943,-16.438623,151.81683
2512500000,-16.327745,10.821576,-34.490025,-0.70183885,-29.537464,-8.6523724,-32.185711,9.718358,-34.55798,-1.0243691,-12.405041,-178.54613,-42.266106,27.508728,-38.274261,-162.6951,-29.472202,-8.7109632,-42.146111,27.85495,-14.340526,16.16106,-41.65498,-46.431927,-32.255226,9.6817389,-38.324047,-162.5497,-41.752769,-46.546761,-16.453745,151.27818
2513000000,-16.346539,10.44451,-34.541725,-1.406794,-29.526871,-9.8355455,-32.112225,8.69555,-34.61692,-1.7225237,-12.379837,-178.6824,-41.998188,27.84243,-38.485764,-165.3912,-29.459461,-9.9124393,-41.87302,28.024986,-14.291668,15.612023,-41.517559,-47.071476,-32.179272,8.6661186,-38.534351,-165.19301,-41.608055,-47.180126,-16.470119,150.74625
2513500000,-16.365957,10.06951,-34.587315,-2.1616998,-29.510141,-10.997564,-32.036777,7.5691919,-34.67025,-2.4612849,-12.3553,-178.82077,-41.731388,27.476389,-38.706791,-167.92996,-29.445147,-11.098568,-41.617634,27.563824,-14.248175,15.070207,-41.372231,-47.855545,-32.098885,7.5289221,-38.751396,-167.70612,-41.459789,-47.964569,-16.486816,150.22847
2514000000,-16.39134,9.6811399,-34.629578,-2.9403398,-29.489363,-12.188761,-31.968344,6.3554096,-34.716713,-3.1960518,-12.330239,-178.95862,-41.513653,26.56646,-38.925102,-170.35426,-29.423983,-12.31041,-41.409286,26.580994,-14.20516,14.546853,-41.228165,-48.776459,-32.026295,6.3031683,-38.965141,-170.136,-41.310368,-48.93285,-16.505089,149.70975
2514500000,-16.418955,9.3151636,-34.668697,-3.7777338,-29.471972,-13.428539,-31.905855,5.0711012,-34.760414,-3.9523423,-12.30577,-179.10022,-41.355358,25.344831,-39.140404,-172.69682,-29.408316,-13.562746,-41.258503,25.286283,-14.165236,14.031487,-41.075161,-49.869099,-31.962616,4.9876761,-39.17728,-172.50745,-41.158695,-50.07198,-16.523075,149.22591
2515000000,-16.451836,8.9700785,-34.716316,-4.6149907,-29.460405,-14.696943,-31.85615,3.7430069,-34.809475,-4.7283878,-12.282114,-179.23752,-41.260208,23.984159,-39.351589,-174.94081,-29.398325,-14.847112,-41.172523,23.848225,-14.125834,13.53256,-40.941517,-51.164993,-31.911064,3.6462035,-39.387794,-174.79877,-41.023785,-51.35685,-16.539961,148.76077
2515500000,-16.492939,8.6560831,-34.75996,-5.4760652,-29.458843,-15.976919,-31.813709,2.3815691,-34.851158,-5.5018635,-12.258853,-179.37401,-41.201775,22.482992,-39.550941,-177.17749,-29.397835,-16.144833,-41.128693,22.36265,-14.086165,13.046403,-40.821178,-52.482479,-31.869967,2.2759891,-39.590282,-177.08389,-40.905132,-52.720245,-16.554049,148.32085
2516000000,-16.542837,8.3866501,-34.813251,-6.3702731,-29.464888,-17.237328,-31.781414,1.0070738,-34.900555,-6.3539891,-12.233535,-179.49757,-41.206146,20.943865,-39.748344,-179.49075,-29.407021,-17.424932,-41.141876,20.797752,-14.046412,12.564428,-40.690983,-53.917309,-31.840015,0.89287442,-39.798779,-179.45049,-40.78756,-54.157875,-16.567505,147.86461
2516500000,-16.597328,8.2060061,-34.882172,-7.2190943,-29.478785,-18.472502,-31.757481,-0.3651633,-34.963676,-7.1656532,-12.208427,-179.62958,-41.262287,19.431284,-39.967564,178.23656,-29.42231,-18.665346,-41.20451,19.329006,-14.007757,12.07797,-40.578129,-55.538879,-31.818953,-0.4807204,-40.027855,178.21878,-40.673737,-55.776688,-16.577892,147.45767
2517000000,-16.654123,8.1080179,-34.950634,-7.9177346,-29.491919,-19.670639,-31.740959,-1.7062696,-35.028568,-7.8250198,-12.184504,-179.77458,-41.354862,17.999979,-40.189716,176.07042,-29.437904,-19.866505,-41.306736,17.920647,-13.971877,11.598334,-40.48864,-57.270657,-31.801598,-1.8178327,-40.257355,176.02762,-40.591774,-57.508671,-16.587116,147.04652
2517500000,-16.715294,8.0934963,-35.014275,-8.603363,-29.513126,-20.81567,-31.726032,-3.0909758,-35.083172,-8.447691,-12.158747,-179.90309,-41.525375,16.771355,-40.415108,173.97765,-29.462156,-21.008165,-41.481453,16.730194,-13.937366,11.144233,-40.422768,-59.020977,-31.786804,-3.1893361,-40.491737,173.88757,-40.52446,-59.288815,-16.593918,146.63715
2518000000,-16.772202,8.1766491,-35.064816,-9.1834459,-29.526852,-21.917906,-31.720211,-4.4653397,-35.125519,-8.9997015,-12.132993,179.95844,-41.725124,15.920338,-40.621948,171.95956,-29.478237,-22.10655,-41.680752,15.914075,-13.904834,10.714765,-40.377316,-60.796818,-31.78005,-4.5618014,-40.717033,171.84311,-40.479988,-61.063892,-16.597425,146.24146
2518500000,-16.823851,8.3541603,-35.109501,-9.787056,-29.535381,-23.013363,-31.725061,-5.8066726,-35.157082,-9.5808249,-12.106463,179.81548,-41.924076,15.438915,-40.818977,169.86288,-29.489506,-23.201384,-41.884212,15.442633,-13.871693,10.314536,-40.345936,-62.535225,-31.784262,-5.9037857,-40.936378,169.76563,-40.451157,-62.821056,-16.596603,145.82748
2519000000,-16.866228,8.6014977,-35.144394,-10.366234,-29.543526,-24.156424,-31.733065,-7.1083789,-35.184277,-10.166267,-12.078546,179.67506,-42.138779,15.127221,-41.021488,167.67751,-29.499891,-24.323324,-42.102695,15.193408,-13.836576,9.9374647,-40.317997,-64.226433,-31.791653,-7.2137275,-41.157791,167.65024,-40.430431,-64.524933,-16.592196,145.40269
2519500000,-16.895243,8.9066448,-35.173512,-10.959046,-29.552637,-25.310438,-31.739084,-8.3603945,-35.203835,-10.76475,-12.051064,179.51971,-42.365414,15.304,-41.242455,165.43184,-29.508858,-25.469873,-42.32703,15.387233,-13.797491,9.5777798,-40.293293,-65.936485,-31.796583,-8.4714308,-41.397682,165.53087,-40.40675,-66.197365,-16.584532,144.96875
2520000000,-16.913092,9.2362852,-35.202332,-11.584737,-29.56777,-26.470934,-31.737749,-9.5915651,-35.222286,-11.401734,-12.024463,179.35297,-42.556664,15.841775,-41.494278,163.21831,-29.525848,-26.607924,-42.522587,15.923306,-13.755789,9.228898,-40.264668,-67.711769,-31.795727,-9.7166357,-41.662727,163.43901,-40.381542,-67.961189,-16.575823,144.51596
2520500000,-16.917196,9.5792646,-35.228806,-12.165074,-29.585032,-27.599632,-31.73432,-10.893358,-35.240551,-12.018629,-11.996001,179.18973,-42.708023,16.620758,-41.760166,161.17422,-29.543806,-27.717543,-42.673336,16.774536,-13.710818,8.8758211,-40.257813,-69.580925,-31.792538,-11.017548,-41.933491,161.54343,-40.375347,-69.775497,-16.565283,144.04579
2521000000,-16.91168,9.9130259,-35.252499,-12.674299,-29.602589,-28.702408,-31.73671,-12.226521,-35.255913,-12.619554,-11.971382,178.99655,-42.814369,17.497353,-42.032299,159.31775,-29.559248,-28.803137,-42.779324,17.780821,-13.662238,8.5107851,-40.26862,-71.418449,-31.795982,-12.349785,-42.205215,159.85712,-40.383144,-71.584892,-16.553394,143.55804
2521500000,-16.892481,10.238893,-35.26289,-13.185204,-29.615702,-29.764633,-31.742643,-13.570371,-35.266525,-13.209908,-11.945299,178.80083,-42.891953,18.449665,-42.292236,157.66861,-29.571081,-29.864824,-42.846977,18.71843,-13.61251,8.117507,-40.273312,-73.214134,-31.804363,-13.680276,-42.466316,158.39679,-40.392624,-73.375168,-16.543463,143.03986
2522000000,-16.864027,10.546638,-35.264496,-13.622666,-29.621891,-30.85817,-31.755489,-14.956603,-35.268936,-13.717149,-11.920339,178.59337,-42.9342,19.556238,-42.528393,156.12654,-29.576668,-30.953184,-42.880116,19.840431,-13.56256,7.710237,-40.291233,-75.127312,-31.817577,-15.050182,-42.687801,157.01579,-40.402081,-75.221596,-16.536577,142.49858
2522500000,-16.825485,10.836308,-35.232758,-14.123231,-29.62475,-31.980839,-31.774796,-16.347092,-35.241177,-14.258383,-11.897915,178.37296,-42.911144,20.613964,-42.732742,154.67064,-29.577635,-32.053349,-42.846619,20.8906,-13.515947,7.285121,-40.317684,-76.997345,-31.83493,-16.434277,-42.880615,155.67793,-40.429844,-77.12104,-16.531601,141.94424
2523000000,-16.775518,11.097109,-35.193119,-14.784172,-29.624519,-33.125416,-31.805399,-17.765762,-35.205597,-14.947364,-11.877192,178.14178,-42.858738,21.398819,-42.903496,153.07278,-29.576559,-33.201096,-42.789425,21.61688,-13.469212,6.8580656,-40.353573,-79.023796,-31.863625,-17.846748,-43.035427,154.22832,-40.46373,-79.098953,-16.528971,141.3855
2523500000,-16.715975,11.332594,-35.155689,-15.543986,-29.622498,-34.330616,-31.848358,-19.152479,-35.174179,-15.731326,-11.857354,177.9196,-42.796425,22.054794,-43.069733,151.31105,-29.573265,-34.407314,-42.719894,22.252035,-13.423907,6.4215112,-40.416302,-81.083138,-31.905008,-19.241756,-43.172626,152.56903,-40.518867,-81.169365,-16.529745,140.8374
2524000000,-16.64983,11.533953,-35.124233,-16.356052,-29.624165,-35.579685,-31.902506,-20.51083,-35.147278,-16.545826,-11.841573,177.68456,-42.718979,22.522055,-43.241108,149.38492,-29.571259,-35.666119,-42.640331,22.683475,-13.381797,5.9818888,-40.509415,-83.174271,-31.957314,-20.617985,-43.31842,150.73218,-40.609997,-83.212044,-16.533358,140.28036
2524500000,-16.577209,11.68203,-35.090923,-17.17161,-29.628788,-36.880066,-31.962997,-21.82062,-35.114964,-17.371498,-11.825843,177.45003,-42.633675,22.8293,-43.425652,147.47375,-29.572403,-36.98666,-42.559025,22.95274,-13.338215,5.5465255,-40.628906,-85.196266,-32.018856,-21.928631,-43.471409,148.87309,-40.723003,-85.242035,-16.539503,139.74631
2525000000,-16.491098,11.78784,-35.052292,-18.073353,-29.634232,-38.245567,-32.030193,-23.11727,-35.07613,-18.292662,-11.811958,177.21297,-42.561924,22.8416,-43.599274,145.55807,-29.577959,-38.364357,-42.491016,22.925001,-13.295372,5.1103611,-40.775734,-87.091911,-32.085533,-23.234129,-43.613094,146.91833,-40.867699,-87.164848,-16.548693,139.21619
2525500000,-16.402702,11.806171,-35.025433,-19.068619,-29.645586,-39.659607,-32.110523,-24.363039,-35.051743,-19.315042,-11.800466,176.98329,-42.542992,22.991444,-43.779243,143.50407,-29.590446,-39.793461,-42.469952,23.082617,-13.251695,4.6611362,-40.950363,-88.819313,-32.166885,-24.510267,-43.768093,144.81776,-41.034405,-88.927742,-16.559494,138.70262
2526000000,-16.311405,11.73523,-35.001648,-20.027271,-29.668182,-41.172134,-32.206066,-25.526182,-35.02776,-20.322721,-11.791353,176.74174,-42.514435,23.056837,-43.985916,141.46167,-29.614931,-41.323158,-42.441677,23.156776,-13.213182,4.1999621,-41.146507,-90.295639,-32.263298,-25.700663,-43.942833,142.69685,-41.229797,-90.447327,-16.571722,138.21222
2526500000,-16.215879,11.595479,-34.972462,-21.070906,-29.706581,-42.705429,-32.31279,-26.591965,-35.005676,-21.398243,-11.78425,176.50534,-42.529175,23.178539,-44.200974,139.57852,-29.656,-42.863678,-42.445152,23.282164,-13.177423,3.7515054,-41.338169,-91.484268,-32.37355,-26.768089,-44.130497,140.62506,-41.41481,-91.640625,-16.585508,137.71695
2527000000,-16.120539,11.368428,-34.956989,-22.143425,-29.759459,-44.235142,-32.427036,-27.489544,-34.997311,-22.529856,-11.779172,176.26945,-42.569168,23.541151,-44.395836,137.78098,-29.712309,-44.410419,-42.479191,23.62771,-13.14361,3.316921,-41.499783,-92.484322,-32.492111,-27.679806,-44.314316,138.60179,-41.583241,-92.657784,-16.599049,137.24925
