!CSV A.01.01
!Keysight Technologies,N5222B,MY58422327,A.13.60.06
!Date: Monday, March 28, 2022 16:39:52
!Source: Standard

BEGIN CH1_DATA
Freq(Hz),S11(DB),S11(DEG),S12(DB),S12(DEG),S13(DB),S13(DEG),S14(DB),S14(DEG),S21(DB),S21(DEG),S22(DB),S22(DEG),S23(DB),S23(DEG),S24(DB),S24(DEG),S31(DB),S31(DEG),S32(DB),S32(DEG),S33(DB),S33(DEG),S34(DB),S34(DEG),S41(DB),S41(DEG),S42(DB),S42(DEG),S43(DB),S43(DEG),S44(DB),S44(DEG)
2500000000,-16.509968,22.61096,-32.496147,26.000244,-31.213352,17.146284,-32.579872,27.095543,-32.598629,25.826569,-13.122225,-175.00479,-37.998711,31.793447,-38.144993,-104.20755,-31.202906,17.139982,-37.930553,31.704229,-15.675689,28.394886,-41.236561,-40.387535,-32.611748,27.039057,-38.155624,-104.54749,-41.291496,-40.871922,-16.683107,164.44586
2500500000,-16.504322,22.18663,-32.607201,24.812164,-31.191973,16.399561,-32.636391,26.141432,-32.704361,24.647333,-13.085255,-175.17235,-38.075073,30.28705,-38.077339,-105.88468,-31.187332,16.402145,-38.00943,30.190308,-15.625936,27.815115,-41.313145,-40.871006,-32.667648,26.033655,-38.087574,-106.23149,-41.384121,-41.382954,-16.677309,164.10962
2501000000,-16.496254,21.775995,-32.719597,23.703447,-31.170105,15.675382,-32.693817,25.254738,-32.811947,23.516949,-13.047011,-175.32632,-38.166023,28.764221,-38.009872,-107.65495,-31.168167,15.701277,-38.104317,28.643139,-15.576152,27.243105,-41.38343,-41.584885,-32.729576,25.084913,-38.022381,-108.00296,-41.456947,-42.123852,-16.670929,163.76953
2501500000,-16.484692,21.380798,-32.820946,22.690847,-31.142191,15.039698,-32.749458,24.455626,-32.90675,22.522852,-13.011947,-175.49567,-38.272232,27.317051,-37.951084,-109.46296,-31.14352,15.087125,-38.219166,27.199406,-15.528131,26.676962,-41.463158,-42.443287,-32.792858,24.25272,-37.968487,-109.82994,-41.549347,-42.984104,-16.661366,163.43266
2502000000,-16.473633,20.961725,-32.910557,21.70977,-31.108238,14.418282,-32.799553,23.672415,-32.990093,21.553503,-12.979239,-175.6546,-38.394054,25.925217,-37.892204,-111.23334,-31.112219,14.508159,-38.344437,25.80225,-15.482132,26.119871,-41.555092,-43.478069,-32.851246,23.45414,-37.912064,-111.62202,-41.657013,-44.004425,-16.649935,163.0843
2502500000,-16.459549,20.543009,-32.989491,20.746052,-31.066986,13.807073,-32.851051,22.936773,-33.064316,20.596756,-12.946512,-175.81206,-38.512367,24.584347,-37.828541,-112.99741,-31.072577,13.930469,-38.473633,24.507498,-15.43936,25.58305,-41.683861,-44.680157,-32.907036,22.730234,-37.851654,-113.35464,-41.805553,-45.150749,-16.637745,162.71599
2503000000,-16.444281,20.124464,-33.054523,19.807266,-31.025421,13.227458,-32.894497,22.25231,-33.122379,19.655678,-12.917209,-175.98392,-38.636967,23.247091,-37.758232,-114.80681,-31.028574,13.370414,-38.601078,23.223787,-15.396666,25.059832,-41.871643,-45.755276,-32.957539,22.060354,-37.785004,-115.12975,-42.003193,-46.203926,-16.623428,162.3428
2503500000,-16.432476,19.694206,-33.111012,18.80324,-30.977236,12.693249,-32.936604,21.60771,-33.166649,18.632658,-12.888924,-176.1496,-38.758381,21.841978,-37.67635,-116.606,-30.977772,12.861675,-38.722878,21.895319,-15.356779,24.564674,-42.105339,-46.512909,-33.003296,21.434504,-37.706139,-116.88416,-42.238636,-46.92804,-16.607943,161.95688
2504000000,-16.416609,19.272181,-33.163818,17.770424,-30.91214,12.196198,-32.974716,20.999701,-33.209831,17.554611,-12.860415,-176.30759,-38.894798,20.399599,-37.582352,-118.46342,-30.910295,12.3943,-38.849316,20.458263,-15.31527,24.090412,-42.337711,-46.939304,-33.040695,20.843855,-37.610977,-118.69616,-42.480049,-47.414158,-16.591984,161.5412
2504500000,-16.398167,18.858223,-33.21468,16.707338,-30.828447,11.674082,-33.010471,20.463896,-33.252617,16.437828,-12.834794,-176.47307,-39.05537,18.837872,-37.467861,-120.40788,-30.822544,11.881367,-39.004635,18.899069,-15.272035,23.646143,-42.575813,-47.14378,-33.077309,20.322514,-37.498859,-120.63427,-42.728783,-47.508049,-16.57238,161.11377
2505000000,-16.373495,18.448723,-33.264042,15.597754,-30.729557,11.084936,-33.033421,20.002426,-33.29422,15.231957,-12.812017,-176.6386,-39.247551,17.342978,-37.341713,-122.51228,-30.722494,11.29377,-39.194633,17.38682,-15.226559,23.203537,-42.816238,-46.961227,-33.099251,19.856766,-37.367317,-122.7513,-42.978432,-47.260849,-16.554413,160.64255
2505500000,-16.345577,18.012386,-33.318501,14.471486,-30.618122,10.366799,-33.043823,19.566734,-33.350365,14.026267,-12.789361,-176.78831,-39.483097,15.85286,-37.209309,-124.88668,-30.607239,10.579978,-39.425167,15.932885,-15.177821,22.7691,-43.009232,-46.374275,-33.112423,19.404112,-37.234829,-125.12219,-43.172394,-46.56744,-16.535089,160.15157
2506000000,-16.316233,17.55792,-33.378052,13.335425,-30.504841,9.5384407,-33.039219,19.15201,-33.411804,12.787376,-12.768719,-176.93076,-39.748035,14.525083,-37.080585,-127.46694,-30.490265,9.7638884,-39.688953,14.606293,-15.128747,22.337049,-43.156731,-45.516571,-33.111485,19.000978,-37.1054,-127.71309,-43.325802,-45.626324,-16.515835,159.61771
2506500000,-16.285933,17.085894,-33.443634,12.174204,-30.395353,8.5866604,-33.015804,18.75042,-33.483536,11.5338,-12.749088,-177.07675,-40.046535,13.335126,-36.972206,-130.29565,-30.377781,8.8086796,-39.985672,13.39914,-15.077703,21.90641,-43.233654,-44.558529,-33.09235,18.631239,-36.992607,-130.5338,-43.407436,-44.587662,-16.498621,159.0567
2507000000,-16.258698,16.593809,-33.514656,11.060151,-30.287462,7.5376749,-32.970329,18.266678,-33.565121,10.349753,-12.728083,-177.19469,-40.386608,12.41733,-36.889191,-133.29781,-30.268143,7.778872,-40.325867,12.45963,-15.023886,21.48035,-43.250912,-43.675247,-33.050369,18.205105,-36.917294,-133.56247,-43.425594,-43.575836,-16.485382,158.4545
2507500000,-16.227859,16.106541,-33.586861,9.9880514,-30.189442,6.3968492,-32.917984,17.637756,-33.651752,9.2190485,-12.708023,-177.31401,-40.757931,11.917737,-36.839821,-136.43726,-30.167669,6.6534424,-40.693794,11.890843,-14.96746,21.053141,-43.216827,-42.934078,-32.994942,17.632256,-36.867161,-136.71147,-43.391773,-42.719166,-16.476568,157.83151
2508000000,-16.20336,15.590611,-33.659309,8.937356,-30.099548,5.1956286,-32.869263,16.908504,-33.742626,8.1535406,-12.685957,-177.41861,-41.131454,11.84115,-36.823265,-139.66441,-30.075848,5.4661632,-41.077835,11.793267,-14.91046,20.621477,-43.141365,-42.47953,-32.943657,16.9366,-36.853447,-139.91388,-43.312168,-42.068066,-16.473431,157.20001
2508500000,-16.180935,15.065492,-33.728336,7.9267488,-30.021263,3.938875,-32.830963,16.137426,-33.827591,7.1600819,-12.661902,-177.51106,-41.500187,12.225019,-36.837795,-142.89297,-29.990486,4.2324333,-41.450047,12.173377,-14.848827,20.189589,-43.059814,-42.327641,-32.898285,16.186304,-36.869061,-143.13045,-43.210094,-41.785156,-16.475721,156.5643
2509000000,-16.167452,14.516949,-33.794075,6.9176316,-29.950346,2.6652722,-32.796078,15.392777,-33.909912,6.2083139,-12.638841,-177.62411,-41.841923,13.124399,-36.878738,-146.10916,-29.913218,2.9700131,-41.802223,13.043114,-14.787308,19.740681,-42.992191,-42.318794,-32.858566,15.456641,-36.913734,-146.3416,-43.12011,-41.740471,-16.48032,155.94518
2509500000,-16.158918,13.982954,-33.860096,5.9169402,-29.889963,1.3648891,-32.76025,14.693728,-33.987152,5.2695861,-12.612329,-177.73233,-42.1437,14.447041,-36.940151,-149.30243,-29.842999,1.6619331,-42.099796,14.436815,-14.723661,19.279251,-42.93161,-42.276134,-32.815598,14.739482,-36.977818,-149.49704,-43.039783,-41.720051,-16.487574,155.34047
2510000000,-16.160004,13.454782,-33.927456,4.8867621,-29.833672,0.031615824,-32.712715,14.00001,-34.063953,4.3485546,-12.583964,-177.83606,-42.382259,16.129316,-37.018494,-152.42725,-29.781298,0.29876709,-42.341679,16.204908,-14.65938,18.805939,-42.855789,-42.290676,-32.764774,14.038834,-37.057102,-152.58781,-42.949173,-41.740845,-16.497587,154.73343
2510500000,-16.17194,12.931682,-34.003811,3.8854809,-29.790134,-1.3541764,-32.650925,13.280457,-34.144695,3.4675026,-12.556826,-177.96161,-42.542431,18.119734,-37.115616,-155.54567,-29.730886,-1.1124524,-42.50964,18.26453,-14.597589,18.309231,-42.77417,-42.272919,-32.700397,13.312183,-37.151497,-155.70683,-42.846798,-41.74654,-16.506895,154.17026
2511000000,-16.186342,12.449121,-34.08474,2.9557226,-29.761055,-2.7413907,-32.582523,12.473589,-34.223923,2.6445801,-12.529919,-178.08383,-42.595745,20.290274,-37.229652,-158.6756,-29.696239,-2.5461283,-42.560566,20.472975,-14.536361,17.799988,-42.656216,-42.287926,-32.627537,12.481936,-37.267998,-158.80072,-42.717804,-41.846619,-16.518057,153.59789
2511500000,-16.204165,12.001406,-34.159122,2.1106737,-29.746788,-4.1021886,-32.511383,11.596793,-34.291363,1.8994001,-12.502349,-178.19705,-42.549633,22.1623,-37.364513,-161.78279,-29.680376,-3.9537554,-42.50008,22.416155,-14.477901,17.276669,-42.51355,-42.405384,-32.552235,11.590276,-37.401981,-161.91301,-42.568157,-42.097858,-16.531086,153.04109
2512000000,-16.225655,11.580897,-34.22641,1.2948451,-29.735609,-5.4116292,-32.441677,10.647889,-34.346775,1.176675,-12.475047,-178.32359,-42.422684,23.698219,-37.527546,-164.85457,-29.669588,-5.3107543,-42.371468,24.056332,-14.426262,16.738403,-42.366673,-42.837627,-32.478687,10.619557,-37.558857,-164.95026,-42.417774,-42.601906,-16.546143,152.50139
2512500000,-16.244791,11.178625,-34.286354,0.48028177,-29.736809,-6.6791525,-32.37122,9.6902618,-34.392597,0.40002596,-12.448617,-178.45216,-42.236866,24.936407,-37.711098,-167.81638,-29.676126,-6.6247125,-42.184456,25.306734,-14.375476,16.209747,-42.224033,-43.258247,-32.404716,9.6176157,-37.742828,-167.88013,-42.265484,-43.160389,-16.560022,151.99107
2513000000,-16.264023,10.781636,-34.338657,-0.31810132,-29.739758,-7.8805666,-32.295673,8.6697559,-34.430859,-0.36281067,-12.421626,-178.57053,-42.002026,25.556288,-37.915524,-170.64151,-29.683594,-7.824791,-41.940075,25.964666,-14.328635,15.684136,-42.064297,-43.808109,-32.328419,8.5583725,-37.947021,-170.68036,-42.117764,-43.864597,-16.574472,151.48904
2513500000,-16.284422,10.382228,-34.38884,-1.1280377,-29.736261,-9.0092955,-32.217861,7.5461783,-34.464127,-1.188548,-12.394902,-178.69328,-41.760563,25.507397,-38.127178,-173.26982,-29.686571,-8.961422,-41.684219,25.859871,-14.284801,15.170963,-41.905132,-44.501621,-32.250553,7.3987665,-38.170048,-173.30585,-41.95681,-44.726868,-16.588762,150.99878
2514000000,-16.311827,9.9730892,-34.434055,-1.9522576,-29.727812,-10.163569,-32.145126,6.3199697,-34.494892,-2.0500357,-12.367212,-178.8176,-41.542454,24.974321,-38.341991,-175.77179,-29.682333,-10.099313,-41.464802,25.172827,-14.241146,14.671151,-41.73875,-45.431999,-32.180737,6.1238275,-38.389729,-175.7552,-41.79916,-45.706665,-16.603662,150.50993
2514500000,-16.341372,9.5921412,-34.472496,-2.7886937,-29.720201,-11.336202,-32.083164,5.0102997,-34.523067,-2.9736376,-12.339651,-178.94798,-41.37569,23.996143,-38.55722,-178.11951,-29.675055,-11.257599,-41.295307,24.116962,-14.199599,14.175081,-41.571747,-46.513718,-32.122398,4.7887497,-38.598892,-178.06973,-41.64859,-46.858307,-16.618031,150.05231
2515000000,-16.376049,9.2339306,-34.514111,-3.6578519,-29.715899,-12.535805,-32.032417,3.6445804,-34.558556,-3.925483,-12.31318,-179.07532,-41.265892,22.819063,-38.766853,179.6165,-29.670456,-12.443331,-41.192532,22.900291,-14.158067,13.69216,-41.411293,-47.79525,-32.077293,3.4092765,-38.802101,179.7,-41.507381,-48.189831,-16.631174,149.61194
2515500000,-16.419544,8.9089327,-34.555904,-4.549448,-29.715689,-13.759687,-31.994133,2.2677188,-34.596588,-4.8906779,-12.286266,-179.20354,-41.196251,21.4571,-38.963497,177.40269,-29.670744,-13.62473,-41.132126,21.542046,-14.116431,13.214004,-41.266037,-49.189098,-32.043873,2.0249383,-38.984776,177.48169,-41.381298,-49.582428,-16.641523,149.19229
2516000000,-16.470804,8.6316385,-34.601799,-5.504704,-29.723116,-14.957126,-31.966167,0.86499393,-34.643204,-5.9285164,-12.257606,-179.32095,-41.192284,20.01536,-39.158398,175.10957,-29.675411,-14.801129,-41.134659,20.101677,-14.074322,12.732296,-41.131931,-50.769291,-32.022556,0.63152975,-39.165722,175.13168,-41.257328,-51.083214,-16.650764,148.75612
2516500000,-16.528301,8.4390287,-34.663567,-6.433394,-29.732914,-16.090204,-31.949179,-0.51525569,-34.710979,-6.9274325,-12.228367,-179.44888,-41.241299,18.685486,-39.363407,172.86447,-29.684685,-15.947246,-41.187195,18.772739,-14.033752,12.244907,-41.009651,-52.50531,-32.01136,-0.72049248,-39.362701,172.81323,-41.144772,-52.729656,-16.657089,148.36504
2517000000,-16.587788,8.3358793,-34.729744,-7.2043991,-29.738739,-17.239735,-31.940168,-1.8598125,-34.785873,-7.756988,-12.19976,-179.59348,-41.334682,17.412529,-39.560196,170.71309,-29.690708,-17.086592,-41.278183,17.601974,-13.995684,11.764998,-40.925575,-54.333824,-32.004486,-2.0513732,-39.55677,170.57654,-41.069283,-54.501671,-16.661985,147.96516
2517500000,-16.651903,8.3186941,-34.789513,-7.925025,-29.750841,-18.327888,-31.93292,-3.2395179,-34.858261,-8.5108051,-12.169679,-179.72823,-41.501171,16.402246,-39.758709,168.56627,-29.703913,-18.166428,-41.432934,16.705633,-13.959479,11.30827,-40.860779,-56.172676,-31.998186,-3.4027798,-39.754044,168.38457,-41.013077,-56.230541,-16.664293,147.56535
2518000000,-16.710857,8.4072037,-34.836216,-8.5669937,-29.754051,-19.398283,-31.937237,-4.6022625,-34.914322,-9.1741066,-12.140459,-179.87787,-41.681671,15.885674,-39.951279,166.46831,-29.708073,-19.244501,-41.602882,16.169004,-13.925424,10.870066,-40.824959,-58.024651,-32.001415,-4.7358413,-39.940571,166.27005,-40.976788,-57.980774,-16.664124,147.17725
2518500000,-16.765659,8.5901947,-34.873657,-9.239027,-29.750639,-20.50948,-31.95318,-5.9231009,-34.964169,-9.8413067,-12.111152,179.9648,-41.847492,15.665737,-40.13467,164.31534,-29.708811,-20.335199,-41.761982,15.867269,-13.891218,10.455456,-40.819244,-59.752312,-32.017452,-6.0565743,-40.127762,164.08232,-40.956585,-59.660076,-16.659592,146.76613
2519000000,-16.809416,8.8519545,-34.905926,-9.907464,-29.747274,-21.670635,-31.97398,-7.1732082,-35.002373,-10.467963,-12.081115,179.8045,-42.004688,15.628228,-40.327717,162.056,-29.707481,-21.453041,-41.927792,15.699021,-13.856758,10.065919,-40.814781,-61.365467,-32.037106,-7.3034267,-40.330502,161.81238,-40.941376,-61.305668,-16.652027,146.34641
2519500000,-16.839447,9.1716442,-34.928219,-10.589167,-29.748442,-22.851263,-31.993494,-8.3540735,-35.032612,-11.151792,-12.052032,179.63194,-42.151974,15.840413,-40.54166,159.7843,-29.709743,-22.598173,-42.0849,15.895607,-13.818725,9.6969967,-40.802906,-62.958355,-32.057068,-8.4698877,-40.543221,159.52643,-40.924355,-62.890724,-16.640814,145.91934
2520000000,-16.85639,9.5160542,-34.949192,-11.328188,-29.757948,-24.049629,-32.001598,-9.5116158,-35.061935,-11.846403,-12.024509,179.44606,-42.272587,16.307993,-40.779404,157.54205,-29.71542,-23.753584,-42.199013,16.308321,-13.77867,9.3455667,-40.789337,-64.565277,-32.066364,-9.6226568,-40.787445,157.26189,-40.89764,-64.508224,-16.628948,145.47203
2520500000,-16.860155,9.8714066,-34.97533,-12.050416,-29.772469,-25.231251,-32.007648,-10.691427,-35.090706,-12.530046,-11.995752,179.2675,-42.34901,16.79027,-41.027367,155.46402,-29.724869,-24.88722,-42.289772,16.797184,-13.7353,8.9968882,-40.787182,-66.24234,-32.073715,-10.78778,-41.046822,155.19762,-40.904415,-66.202042,-16.615362,145.002
2521000000,-16.853735,10.212995,-34.998985,-12.726831,-29.788254,-26.377987,-32.01693,-11.891355,-35.115807,-13.187265,-11.970538,179.06032,-42.404175,17.315145,-41.284271,153.54956,-29.73173,-26.020334,-42.341026,17.357584,-13.688047,8.6407833,-40.802845,-67.865654,-32.082375,-11.968386,-41.303555,153.27243,-40.909534,-67.85701,-16.600742,144.51752
2521500000,-16.835609,10.544811,-35.01902,-13.397715,-29.800043,-27.500446,-32.026234,-13.089117,-35.139133,-13.849808,-11.944654,178.85168,-42.444546,17.821581,-41.535664,151.85416,-29.734846,-27.143826,-42.375191,17.896952,-13.639166,8.2580357,-40.817772,-69.474075,-32.086803,-13.145125,-41.561974,151.54807,-40.920219,-69.441154,-16.588446,144.00659
2522000000,-16.806969,10.867878,-35.034603,-13.974465,-29.805443,-28.648737,-32.03476,-14.337609,-35.159863,-14.423333,-11.919536,178.63097,-42.466255,18.440926,-41.760963,150.26236,-29.732555,-28.303642,-42.400082,18.50844,-13.589613,7.8636684,-40.825634,-71.086945,-32.092522,-14.392632,-41.79855,150.00125,-40.925858,-71.150208,-16.578173,143.47258
2522500000,-16.76755,11.173038,-35.02256,-14.570602,-29.813505,-29.823761,-32.04871,-15.615495,-35.153839,-14.99838,-11.896955,178.39742,-42.445072,18.974117,-41.969421,148.68445,-29.732912,-29.500751,-42.383438,19.01939,-13.542205,7.4521327,-40.851559,-72.693146,-32.10429,-15.687569,-42.00388,148.54042,-40.949341,-72.813133,-16.570004,142.92989
2523000000,-16.715256,11.454992,-35.002502,-15.299325,-29.817173,-30.995245,-32.075111,-16.928728,-35.139782,-15.679471,-11.876835,178.15393,-42.413925,19.387655,-42.153378,147.06157,-29.732489,-30.721533,-42.355206,19.367393,-13.49437,7.0368509,-40.866756,-74.356544,-32.125599,-17.014311,-42.181629,146.95171,-40.961224,-74.552216,-16.563271,142.38177
2523500000,-16.65333,11.706678,-34.985233,-16.082571,-29.818474,-32.22538,-32.111286,-18.225958,-35.125507,-16.421944,-11.857546,177.91872,-42.375332,19.638416,-42.333359,145.26733,-29.734238,-31.989838,-42.317051,19.662504,-13.447163,6.61097,-40.899677,-76.085251,-32.159767,-18.347012,-42.356438,145.22215,-41.004097,-76.320122,-16.559052,141.83894
2524000000,-16.582367,11.921456,-34.969742,-16.885975,-29.823774,-33.500679,-32.158398,-19.475115,-35.113422,-17.198463,-11.842499,177.6689,-42.337139,19.75049,-42.518341,143.45973,-29.738276,-33.293663,-42.277939,19.823425,-13.403934,6.1783819,-40.949097,-77.838745,-32.208633,-19.642124,-42.537239,143.38846,-41.06757,-78.079109,-16.557552,141.27689
2524500000,-16.505671,12.077094,-34.947205,-17.714422,-29.828617,-34.838642,-32.210487,-20.715719,-35.093384,-17.943148,-11.8283,177.4232,-42.307758,19.774515,-42.731758,141.72943,-29.745972,-34.653065,-42.24913,19.839979,-13.358779,5.7459593,-41.020264,-79.585228,-32.265564,-20.865829,-42.726383,141.67047,-41.144592,-79.781868,-16.558855,140.73491
2525000000,-16.413862,12.184845,-34.921513,-18.604933,-29.840296,-36.218693,-32.270298,-21.906185,-35.060947,-18.784834,-11.816102,177.17734,-42.296177,19.599764,-42.925526,140.04678,-29.757246,-36.059814,-42.244999,19.699543,-13.313813,5.3148441,-41.111027,-81.299248,-32.32877,-22.08465,-42.907021,139.93283,-41.240646,-81.381401,-16.563683,140.19069
2525500000,-16.31951,12.194995,-34.905518,-19.591293,-29.854733,-37.668983,-32.344486,-23.088207,-35.038982,-19.760906,-11.806416,176.9433,-42.335289,19.617512,-43.114861,138.33839,-29.771307,-37.512249,-42.28495,19.795431,-13.267834,4.867147,-41.217728,-82.87664,-32.405319,-23.256849,-43.088379,138.16383,-41.347538,-82.891685,-16.571178,139.65863
2526000000,-16.222315,12.104817,-34.883446,-20.535149,-29.885319,-39.2146,-32.433834,-24.177223,-35.018375,-20.70636,-11.79886,176.69859,-42.363144,19.703043,-43.312843,136.6606,-29.799112,-39.077736,-42.306683,19.896666,-13.226988,4.4018826,-41.343834,-84.339745,-32.494171,-24.315716,-43.2855,136.48584,-41.469112,-84.271164,-16.581457,139.14799
2526500000,-16.1222,11.928546,-34.858723,-21.599533,-29.928493,-40.781578,-32.533432,-25.13402,-34.996056,-21.75396,-11.792596,176.46164,-42.418987,19.88592,-43.504326,135.11986,-29.84341,-40.656616,-42.357143,20.122673,-13.189075,3.9450805,-41.461647,-85.512634,-32.593712,-25.252617,-43.471058,134.88475,-41.574104,-85.44854,-16.594154,138.63667
2527000000,-16.024124,11.655708,-34.844929,-22.726288,-29.990744,-42.356449,-32.63755,-25.902958,-34.983624,-22.876041,-11.788532,176.22211,-42.51236,20.321392,-43.685196,133.65549,-29.901812,-42.25518,-42.43185,20.593739,-13.153343,3.4999378,-41.550228,-86.646042,-32.700233,-26.038862,-43.64233,133.42401,-41.674053,-86.64328,-16.607986,138.15858
