!CSV A.01.01
!Keysight Technologies,N5222B,MY58422327,A.13.60.06
!Date: Monday, March 28, 2022 16:41:35
!Source: Standard

BEGIN CH1_DATA
Freq(Hz),S11(DB),S11(DEG),S12(DB),S12(DEG),S13(DB),S13(DEG),S14(DB),S14(DEG),S21(DB),S21(DEG),S22(DB),S22(DEG),S23(DB),S23(DEG),S24(DB),S24(DEG),S31(DB),S31(DEG),S32(DB),S32(DEG),S33(DB),S33(DEG),S34(DB),S34(DEG),S41(DB),S41(DEG),S42(DB),S42(DEG),S43(DB),S43(DEG),S44(DB),S44(DEG)
2500000000,-16.528883,22.731667,-32.682171,26.777721,-30.999378,16.717384,-32.536522,27.9259,-32.740761,26.470297,-13.081714,-174.69336,-38.241673,29.089254,-37.688004,-100.96178,-30.948709,16.364239,-38.207298,28.619297,-15.654729,28.294044,-41.085472,-42.105026,-32.57658,27.759726,-37.573574,-100.89944,-41.177143,-42.332703,-16.686335,164.29733
2500500000,-16.520779,22.301378,-32.776905,25.576527,-30.987051,15.935266,-32.58506,26.884485,-32.836906,25.259909,-13.042391,-174.8671,-38.307358,27.376902,-37.637344,-102.91486,-30.935032,15.606254,-38.286072,27.021673,-15.605978,27.700266,-41.158516,-42.322926,-32.623909,26.736435,-37.520638,-102.84822,-41.26046,-42.557499,-16.681173,163.95021
2501000000,-16.511503,21.887297,-32.876404,24.412775,-30.972227,15.182355,-32.63752,25.923422,-32.937798,24.117838,-13.002028,-175.02876,-38.394886,25.664061,-37.597603,-104.91726,-30.91765,14.85791,-38.376453,25.385889,-15.55711,27.111616,-41.222145,-42.751198,-32.676277,25.777119,-37.480202,-104.87764,-41.318176,-42.962284,-16.674969,163.59296
2501500000,-16.497316,21.488556,-32.960003,23.350708,-30.95397,14.507575,-32.689671,25.057396,-33.025116,23.047167,-12.965314,-175.2045,-38.502224,23.989414,-37.575832,-106.92027,-30.899574,14.189289,-38.482922,23.820702,-15.510737,26.529055,-41.294762,-43.275642,-32.724373,24.908955,-37.454327,-106.91275,-41.390694,-43.50404,-16.66609,163.24556
2502000000,-16.484495,21.064682,-33.037003,22.311697,-30.928789,13.883064,-32.738388,24.215023,-33.10498,22.015087,-12.931015,-175.37646,-38.632504,22.336445,-37.563641,-108.84399,-30.878035,13.559324,-38.595585,22.275951,-15.466236,25.964857,-41.364086,-43.941238,-32.770515,24.030552,-37.433689,-108.91936,-41.462482,-44.162994,-16.65579,162.88794
2502500000,-16.468369,20.638655,-33.104195,21.276995,-30.897984,13.256423,-32.78294,23.406279,-33.176884,21.007914,-12.89685,-175.54056,-38.763947,20.770374,-37.552883,-110.65459,-30.846106,12.950632,-38.714268,20.754362,-15.425243,25.412752,-41.460915,-44.728138,-32.81855,23.203176,-37.417965,-110.83237,-41.564709,-44.90855,-16.643969,162.50778
2503000000,-16.451178,20.206635,-33.161812,20.246735,-30.866713,12.683941,-32.829659,22.640966,-33.236954,20.012045,-12.866092,-175.71887,-38.90831,19.223122,-37.527451,-112.4379,-30.814016,12.365886,-38.838142,19.230238,-15.383695,24.882633,-41.598778,-45.441704,-32.863052,22.403769,-37.394127,-112.72626,-41.701408,-45.598545,-16.6315,162.12029
2503500000,-16.438742,19.756767,-33.20998,19.157328,-30.828156,12.182308,-32.87532,21.906731,-33.289043,18.963167,-12.83657,-175.88939,-39.052803,17.620699,-37.481544,-114.15623,-30.775242,11.849031,-38.961926,17.649731,-15.34527,24.376051,-41.757015,-45.88517,-32.911572,21.645815,-37.358006,-114.58472,-41.853752,-46.005981,-16.618219,161.72467
2504000000,-16.42321,19.318039,-33.261131,18.037878,-30.771124,11.733541,-32.915497,21.245214,-33.339973,17.897528,-12.806478,-176.05037,-39.214729,16.004698,-37.415985,-115.86975,-30.718916,11.389859,-39.103817,15.950516,-15.306136,23.895908,-41.905254,-46.107693,-32.956226,20.96097,-37.3055,-116.4099,-41.992954,-46.215618,-16.604771,161.2988
2504500000,-16.406006,18.893805,-33.312271,16.903484,-30.692488,11.282144,-32.955357,20.638554,-33.388332,16.813925,-12.779031,-176.22174,-39.403133,14.254377,-37.329266,-117.70636,-30.640837,10.912125,-39.274857,14.110428,-15.264658,23.445372,-42.046474,-46.155354,-32.999313,20.358492,-37.230339,-118.32757,-42.123638,-46.266705,-16.587629,160.87225
2505000000,-16.383486,18.47934,-33.365372,15.708397,-30.598011,10.756681,-32.98365,20.101889,-33.436691,15.6566,-12.753616,-176.39651,-39.626709,12.563383,-37.214222,-119.74533,-30.548824,10.373737,-39.491421,12.300268,-15.221683,22.99761,-42.175518,-46.025146,-33.031712,19.811852,-37.135918,-120.40965,-42.247089,-46.145054,-16.571342,160.40164
2505500000,-16.356829,18.043287,-33.424751,14.543276,-30.487661,10.127253,-33.005836,19.609005,-33.485535,14.521134,-12.728452,-176.55496,-39.890247,10.933502,-37.099503,-122.0607,-30.438473,9.7315779,-39.755051,10.529892,-15.176029,22.562136,-42.26527,-45.663181,-33.054913,19.327757,-37.038086,-122.72477,-42.326126,-45.810165,-16.553694,159.91089
2506000000,-16.329367,17.589832,-33.48756,13.360303,-30.371532,9.3516474,-33.01289,19.158617,-33.533676,13.317365,-12.70538,-176.71288,-40.190487,9.3600092,-36.988949,-124.61643,-30.324987,8.9735565,-40.048698,8.8469334,-15.128459,22.129349,-42.313015,-45.240685,-33.065521,18.864975,-36.942055,-125.26949,-42.371693,-45.392715,-16.536224,159.38063
2506500000,-16.300421,17.129286,-33.554661,12.136938,-30.255333,8.4729176,-33.003735,18.738855,-33.590626,12.089873,-12.683773,-176.87259,-40.538166,7.9259853,-36.894897,-127.43117,-30.212278,8.1065454,-40.38995,7.3248477,-15.079308,21.699331,-42.312477,-44.840397,-33.056862,18.458902,-36.865166,-128.07021,-42.365757,-45.02618,-16.520279,158.81873
2507000000,-16.274868,16.652082,-33.628765,10.959661,-30.139277,7.4823537,-32.969028,18.266285,-33.657238,10.877559,-12.660889,-177.00665,-40.936134,6.7471833,-36.832115,-130.41948,-30.096243,7.1251903,-40.784561,6.0445852,-15.027864,21.272856,-42.272949,-44.532379,-33.025475,17.988718,-36.812416,-131.06981,-42.327236,-44.791489,-16.50771,158.2189
2507500000,-16.24444,16.184036,-33.706249,9.8422756,-30.030624,6.3962369,-32.92149,17.667425,-33.729481,9.7018032,-12.63925,-177.14664,-41.369865,5.9547195,-36.800934,-133.55635,-29.988375,6.0517259,-41.222652,5.168314,-14.973556,20.84782,-42.206993,-44.378372,-32.981808,17.387194,-36.794025,-134.15936,-42.258251,-44.715897,-16.49988,157.59694
2508000000,-16.219646,15.69114,-33.785007,8.755043,-29.929108,5.2053638,-32.88084,16.938044,-33.80851,8.5592918,-12.616158,-177.27232,-41.831776,5.6252904,-36.808018,-136.76132,-29.891579,4.8854122,-41.69331,4.6630445,-14.919964,20.417019,-42.120956,-44.554363,-32.938751,16.669279,-36.811291,-137.32654,-42.171452,-44.891792,-16.497618,156.96378
2508500000,-16.196238,15.183984,-33.86129,7.7122264,-29.837479,3.9700739,-32.850128,16.165487,-33.885933,7.43294,-12.59152,-177.38681,-42.314114,5.786531,-36.848827,-139.96812,-29.799776,3.6678817,-42.191933,4.7705455,-14.861839,19.989878,-42.038822,-44.92802,-32.902531,15.923982,-36.85931,-140.481,-42.091244,-45.320553,-16.500584,156.32574
2509000000,-16.181107,14.655411,-33.93528,6.6465802,-29.753111,2.6746891,-32.821369,15.429458,-33.968067,6.2920127,-12.568269,-177.51732,-42.800938,6.5985241,-36.920921,-143.1273,-29.715618,2.403194,-42.699215,5.5084629,-14.803945,19.55201,-41.965977,-45.442524,-32.875149,15.186895,-36.935925,-143.57637,-42.028221,-45.888256,-16.50596,155.69958
2509500000,-16.170834,14.138379,-34.012257,5.5996585,-29.679373,1.3483007,-32.792778,14.728682,-34.056149,5.1979642,-12.541912,-177.64175,-43.258568,8.0649681,-37.014954,-146.21802,-29.637203,1.1043987,-43.184872,6.964354,-14.743812,19.110399,-41.917404,-45.9627,-32.845379,14.499775,-37.036488,-146.61005,-41.981178,-46.444504,-16.514954,155.08586
2510000000,-16.168917,13.626657,-34.097248,4.5579038,-29.612247,-0.030664848,-32.754284,14.060006,-34.150715,4.1424665,-12.513103,-177.76006,-43.659283,10.21288,-37.126884,-149.2278,-29.568157,-0.2673333,-43.610821,9.1805429,-14.682744,18.658411,-41.8689,-46.455666,-32.806702,13.828821,-37.149734,-149.54575,-41.9422,-46.948734,-16.527185,154.46776
2510500000,-16.176958,13.118068,-34.18969,3.5807447,-29.559765,-1.4760747,-32.70126,13.370544,-34.252357,3.1710923,-12.485787,-177.89859,-43.976284,12.989163,-37.246777,-152.20271,-29.509291,-1.7045066,-43.936382,12.106936,-14.62279,18.188072,-41.820442,-46.889717,-32.752754,13.125718,-37.278362,-152.48027,-41.898415,-47.317219,-16.539217,153.89641
2511000000,-16.187412,12.64811,-34.284496,2.6870675,-29.524351,-2.9258516,-32.642216,12.610188,-34.352165,2.2972043,-12.457707,-178.03328,-44.141281,16.231577,-37.382725,-155.16747,-29.469992,-3.1631515,-44.097641,15.465734,-14.562468,17.704861,-41.758472,-47.264713,-32.693642,12.367364,-37.41869,-155.3876,-41.826092,-47.713696,-16.554161,153.32225
2511500000,-16.200207,12.204638,-34.369392,1.9156036,-29.504492,-4.3394799,-32.578957,11.788637,-34.443985,1.5479803,-12.429226,-178.1622,-44.150211,19.35603,-37.537739,-158.16335,-29.445219,-4.6014833,-44.088512,18.698936,-14.503782,17.21081,-41.66,-47.740562,-32.629303,11.553457,-37.579308,-158.28281,-41.732254,-48.17614,-16.571051,152.76874
2512000000,-16.216223,11.778387,-34.44241,1.1828009,-29.489662,-5.7023292,-32.51379,10.918015,-34.52248,0.83700418,-12.400557,-178.30806,-44.034916,22.10799,-37.722961,-161.05275,-29.430233,-5.9778919,-43.966179,21.368982,-14.451004,16.700788,-41.556232,-48.420853,-32.564442,10.671081,-37.755707,-161.0733,-41.634186,-48.861996,-16.589806,152.23657
2512500000,-16.231304,11.368701,-34.50156,0.43437409,-29.489098,-7.0298376,-32.445797,10.011672,-34.591545,0.11932532,-12.372862,-178.46114,-43.835716,24.495958,-37.928646,-163.86134,-29.428507,-7.3185954,-43.754959,23.668697,-14.39795,16.200787,-41.460335,-49.122681,-32.498386,9.7677689,-37.950623,-163.7981,-41.53648,-49.611076,-16.606792,151.73541
2513000000,-16.246138,10.956031,-34.553314,-0.29014155,-29.487984,-8.2761345,-32.372032,9.0705385,-34.652718,-0.57152033,-12.345274,-178.60678,-43.536289,26.124485,-38.152981,-166.56447,-29.426868,-8.5705099,-43.461033,25.198523,-14.348204,15.693985,-41.365234,-49.953136,-32.423771,8.8137083,-38.157246,-166.39587,-41.440823,-50.437134,-16.62472,151.2429
2513500000,-16.263565,10.535169,-34.597408,-1.0569326,-29.482712,-9.4843225,-32.295528,8.0411386,-34.705589,-1.2798817,-12.318808,-178.75575,-43.213062,26.848312,-38.387753,-169.09453,-29.424059,-9.7843561,-43.146881,25.886803,-14.301137,15.191278,-41.272915,-50.822262,-32.348137,7.7707438,-38.371239,-168.87097,-41.346806,-51.310589,-16.642956,150.76874
2514000000,-16.288364,10.108958,-34.631493,-1.8469406,-29.474693,-10.691581,-32.221348,6.8971438,-34.750546,-1.9684819,-12.292111,-178.90257,-42.908237,26.879274,-38.624191,-171.45622,-29.413712,-10.989864,-42.858295,25.911886,-14.253767,14.693723,-41.175552,-51.728531,-32.275913,6.6350684,-38.586166,-171.21136,-41.250225,-52.262383,-16.662594,150.29347
2514500000,-16.316637,9.710803,-34.665794,-2.6817367,-29.468199,-11.92074,-32.153442,5.6713719,-34.783207,-2.7106211,-12.26594,-179.05272,-42.660389,26.301546,-38.860302,-173.67581,-29.405094,-12.231372,-42.62096,25.344597,-14.209071,14.197405,-41.069042,-52.691021,-32.208015,5.4184847,-38.800999,-173.49974,-41.149235,-53.239567,-16.680504,149.86014
2515000000,-16.349886,9.3431139,-34.699532,-3.5615342,-29.465727,-13.15988,-32.095112,4.3760905,-34.818108,-3.4772592,-12.240109,-179.20181,-42.463448,25.479122,-39.080746,-175.7618,-29.400871,-13.473179,-42.440128,24.516676,-14.165292,13.704135,-40.956341,-53.767303,-32.150738,4.1409507,-39.00769,-175.67012,-41.042767,-54.333065,-16.697023,149.44717
2515500000,-16.391138,9.0084629,-34.729553,-4.4729028,-29.467678,-14.38758,-32.045921,3.0602376,-34.843494,-4.2997122,-12.214704,-179.3511,-42.322647,24.353838,-39.288239,-177.8161,-29.404556,-14.715322,-42.301243,23.44241,-14.122902,13.21962,-40.851326,-54.902481,-32.104141,2.8202319,-39.20578,-177.86261,-40.943638,-55.481678,-16.709702,149.06364
2516000000,-16.439825,8.7192287,-34.766083,-5.4776835,-29.473991,-15.594436,-32.003567,1.7083859,-34.873878,-5.2228961,-12.187425,-179.48921,-42.244682,23.060759,-39.500072,-179.94229,-29.40918,-15.930013,-42.231697,22.199625,-14.080089,12.737638,-40.733582,-56.143341,-32.063595,1.4722043,-39.410564,179.91188,-40.828236,-56.7467,-16.720364,148.66866
2516500000,-16.493828,8.5140133,-34.823689,-6.4947929,-29.482843,-16.770672,-31.974276,0.33231106,-34.924049,-6.1655312,-12.160427,-179.63647,-42.239502,21.746778,-39.718006,177.99704,-29.417114,-17.126286,-42.231079,20.932482,-14.039229,12.249133,-40.617397,-57.614292,-32.033836,0.10907626,-39.62981,177.70708,-40.723595,-58.214569,-16.727211,148.32292
2517000000,-16.549927,8.3870001,-34.889843,-7.4190583,-29.486834,-17.950533,-31.954014,-1.0491862,-34.981667,-7.0046692,-12.134254,-179.80249,-42.279823,20.55974,-39.938435,176.04831,-29.422054,-18.324074,-42.284119,19.765985,-14.001007,11.765394,-40.526169,-59.25103,-32.014038,-1.2662112,-39.854527,175.64842,-40.635994,-59.797188,-16.730143,147.97256
2517500000,-16.611376,8.344965,-34.963821,-8.266386,-29.496328,-19.083294,-31.942377,-2.4664218,-35.038002,-7.80653,-12.106728,-179.95738,-42.391907,19.609575,-40.145554,174.13016,-29.434942,-19.459913,-42.421772,18.899225,-13.964893,11.303413,-40.458481,-60.918526,-32.003433,-2.670562,-40.076843,173.66219,-40.569298,-61.470455,-16.729004,147.60995
2518000000,-16.668793,8.4012985,-35.025997,-9.0295925,-29.498751,-20.228621,-31.945602,-3.8702846,-35.086693,-8.5242081,-12.080035,179.87292,-42.527065,19.116381,-40.342358,172.23918,-29.438643,-20.598255,-42.56953,18.47707,-13.930963,10.866022,-40.409199,-62.623573,-32.005886,-4.0569205,-40.285419,171.75731,-40.514877,-63.133762,-16.723911,147.25018
2518500000,-16.721622,8.5536871,-35.086334,-9.8268061,-29.495928,-21.387285,-31.963995,-5.2130337,-35.133362,-9.289197,-12.053253,179.70045,-42.654961,18.941149,-40.522148,170.1823,-29.440332,-21.760469,-42.698788,18.457247,-13.897017,10.455711,-40.375877,-64.247429,-32.02422,-5.3814526,-40.482929,169.75981,-40.483788,-64.72905,-16.715092,146.86153
2519000000,-16.765556,8.7781563,-35.145683,-10.573842,-29.496555,-22.608931,-31.99164,-6.4566908,-35.179569,-9.9976521,-12.025183,179.52814,-42.781448,18.906103,-40.721413,168.04208,-29.443274,-22.981956,-42.819908,18.540462,-13.862729,10.071033,-40.340488,-65.886322,-32.048454,-6.6195912,-40.685516,167.67395,-40.451988,-66.353386,-16.701689,146.45438
2519500000,-16.795301,9.0636482,-35.199829,-11.301655,-29.501842,-23.849791,-32.015232,-7.595098,-35.220306,-10.693839,-11.997716,179.34578,-42.909161,19.206326,-40.937351,165.89359,-29.450563,-24.210848,-42.935379,18.956972,-13.824028,9.7075138,-40.310081,-67.541054,-32.070892,-7.7538409,-40.903149,165.49518,-40.420536,-67.978058,-16.684908,146.02686
2520000000,-16.812691,9.3737564,-35.256145,-12.012218,-29.515036,-25.104855,-32.027008,-8.6791458,-35.261478,-11.412214,-11.973183,179.14355,-42.99781,19.799379,-41.187801,163.78593,-29.466125,-25.441397,-43.010475,19.694284,-13.782948,9.3590212,-40.276752,-69.267723,-32.080799,-8.8456793,-41.148418,163.39272,-40.391575,-69.693665,-16.667898,145.57481
2520500000,-16.816729,9.6947536,-35.319069,-12.654984,-29.530529,-26.327177,-32.032406,-9.7870836,-35.305515,-12.108096,-11.947427,178.94856,-43.033642,20.472652,-41.453442,161.87805,-29.482147,-26.650534,-43.030869,20.471218,-13.73813,9.0108328,-40.272987,-71.107361,-32.08271,-9.9410553,-41.409142,161.50035,-40.378307,-71.470016,-16.650234,145.0972
2521000000,-16.812597,9.996563,-35.376408,-13.218887,-29.549459,-27.533396,-32.03582,-10.890473,-35.348473,-12.748029,-11.926004,178.72501,-43.048027,21.123728,-41.719559,160.14465,-29.500216,-27.84606,-43.021225,21.194542,-13.689316,8.6562185,-40.29488,-72.85508,-32.08202,-11.067508,-41.673748,159.79353,-40.389912,-73.238518,-16.632368,144.59865
2521500000,-16.795189,10.286463,-35.428486,-13.726405,-29.564667,-28.73312,-32.035469,-12.015959,-35.389191,-13.320655,-11.904488,178.50487,-43.027374,21.661173,-41.975723,158.6196,-29.517612,-29.037802,-42.983406,21.775099,-13.639527,8.2700624,-40.311211,-74.498672,-32.078606,-12.206675,-41.926804,158.25165,-40.407993,-74.941307,-16.616991,144.07242
2522000000,-16.770527,10.563706,-35.468449,-14.078614,-29.581228,-29.949604,-32.031467,-13.162996,-35.421993,-13.760079,-11.884375,178.27953,-42.990662,22.237486,-42.205166,157.14612,-29.533628,-30.233925,-42.935936,22.383863,-13.58814,7.8724461,-40.334358,-76.184456,-32.076263,-13.378276,-42.157612,156.81566,-40.434547,-76.657211,-16.605419,143.51761
2522500000,-16.736227,10.823245,-35.473274,-14.442522,-29.601437,-31.17449,-32.025826,-14.388232,-35.418407,-14.209123,-11.86652,178.04712,-42.914112,22.637691,-42.408455,155.82182,-29.551378,-31.428885,-42.842297,22.835491,-13.538883,7.4510627,-40.363674,-77.79464,-32.071735,-14.611664,-42.35799,155.49083,-40.469311,-78.310822,-16.59568,142.94934
2523000000,-16.690859,11.060971,-35.46212,-14.920753,-29.618963,-32.378876,-32.029102,-15.673691,-35.403065,-14.817899,-11.850842,177.80876,-42.843521,22.846169,-42.583275,154.3864,-29.567783,-32.642319,-42.739643,23.036829,-13.490045,7.0224409,-40.393005,-79.460876,-32.076374,-15.911179,-42.523697,153.98122,-40.503868,-79.961105,-16.588713,142.37476
2523500000,-16.638058,11.272428,-35.447311,-15.460812,-29.635557,-33.613617,-32.045334,-16.991022,-35.388828,-15.481033,-11.836265,177.58662,-42.765419,22.966391,-42.752396,152.7478,-29.580969,-33.878094,-42.644367,23.119177,-13.442349,6.5852752,-40.435886,-81.125992,-32.094162,-17.228085,-42.685722,152.38403,-40.545277,-81.59922,-16.585648,141.80696
2524000000,-16.579063,11.461851,-35.429298,-16.041992,-29.653868,-34.866505,-32.074718,-18.284472,-35.376644,-16.182459,-11.825233,177.35536,-42.693832,22.953989,-42.929947,151.03783,-29.59631,-35.155209,-42.552776,22.993546,-13.397725,6.13024,-40.484932,-82.77301,-32.12397,-18.520741,-42.852394,150.64407,-40.592861,-83.225479,-16.58601,141.22145
2524500000,-16.516346,11.614964,-35.401333,-16.665915,-29.668921,-36.157963,-32.112442,-19.549335,-35.354511,-16.92,-11.813497,177.13023,-42.631214,22.88162,-43.124275,149.33499,-29.612057,-36.459122,-42.475842,22.702059,-13.353021,5.6802611,-40.535587,-84.383324,-32.160786,-19.780666,-43.036701,148.95351,-40.64624,-84.829613,-16.591383,140.66788
2525000000,-16.438272,11.744305,-35.368317,-17.381247,-29.688215,-37.494473,-32.1586,-20.782761,-35.331421,-17.760086,-11.802823,176.90279,-42.585804,22.588686,-43.309158,147.62497,-29.63122,-37.837296,-42.42799,22.174026,-13.309679,5.227613,-40.589596,-85.96035,-32.206608,-21.038372,-43.20752,147.15823,-40.699032,-86.412926,-16.600109,140.11676
2525500000,-16.356638,11.800214,-35.341324,-18.190481,-29.70842,-38.892578,-32.219254,-22.009558,-35.32114,-18.660189,-11.793888,176.68521,-42.593128,22.426605,-43.503307,145.83693,-29.653416,-39.248631,-42.442066,21.901115,-13.266087,4.7613764,-40.656879,-87.597511,-32.269119,-22.254896,-43.393459,145.27477,-40.760235,-88.008812,-16.611345,139.58949
2526000000,-16.270966,11.78251,-35.311642,-18.972651,-29.739052,-40.382126,-32.291485,-23.112074,-35.312336,-19.530478,-11.78684,176.45575,-42.593056,22.239569,-43.717091,144.1423,-29.68988,-40.782051,-42.449635,21.591038,-13.228447,4.2867789,-40.727509,-89.148468,-32.342449,-23.397875,-43.592983,143.49368,-40.836876,-89.527077,-16.624697,139.08873
2526500000,-16.177876,11.704869,-35.281967,-19.899939,-29.78385,-41.903442,-32.371662,-24.115572,-35.30645,-20.453716,-11.781389,176.23375,-42.630611,22.129587,-43.912365,142.56558,-29.743187,-42.299534,-42.508327,21.410007,-13.19455,3.8262682,-40.804333,-90.638435,-32.424599,-24.395235,-43.784298,141.85513,-40.907528,-91.020767,-16.640293,138.59271
2527000000,-16.081852,11.53944,-35.262608,-20.875954,-29.845915,-43.440151,-32.457592,-24.982599,-35.312141,-21.387192,-11.777404,176.00882,-42.701332,22.254827,-44.100418,141.08456,-29.809414,-43.82806,-42.596512,21.518456,-13.162688,3.3823581,-40.875172,-92.14679,-32.510376,-25.26963,-43.95882,140.27487,-40.984055,-92.521011,-16.655226,138.13605
