!CSV A.01.01
!Keysight Technologies,N5222B,MY58422327,A.13.60.06
!Date: Monday, March 28, 2022 16:42:02
!Source: Standard

BEGIN CH1_DATA
Freq(Hz),S11(DB),S11(DEG),S12(DB),S12(DEG),S13(DB),S13(DEG),S14(DB),S14(DEG),S21(DB),S21(DEG),S22(DB),S22(DEG),S23(DB),S23(DEG),S24(DB),S24(DEG),S31(DB),S31(DEG),S32(DB),S32(DEG),S33(DB),S33(DEG),S34(DB),S34(DEG),S41(DB),S41(DEG),S42(DB),S42(DEG),S43(DB),S43(DEG),S44(DB),S44(DEG)
2500000000,-16.529503,22.091244,-32.731129,26.014034,-30.883814,14.212371,-32.389938,27.839163,-32.670364,26.012129,-13.084355,-174.53746,-38.009785,28.18581,-37.538067,-97.492775,-30.878553,13.942764,-37.940746,28.438864,-15.649013,28.425655,-40.927124,-43.596416,-32.44508,27.619993,-37.580032,-97.155922,-41.017574,-43.465351,-16.634094,164.32906
2500500000,-16.523932,21.668816,-32.826611,24.773083,-30.876778,13.443063,-32.443371,26.778919,-32.774029,24.718744,-13.043555,-174.71428,-38.065746,26.548128,-37.466499,-99.397369,-30.876535,13.161564,-37.999504,26.825474,-15.599481,27.838507,-41.005749,-43.837463,-32.499962,26.598572,-37.509285,-99.032661,-41.093128,-43.706871,-16.629356,163.96643
2501000000,-16.515907,21.257868,-32.929607,23.613167,-30.867474,12.725485,-32.502411,25.804255,-32.884289,23.493856,-13.002007,-174.88313,-38.139107,24.826813,-37.408028,-101.38786,-30.870611,12.438579,-38.073715,25.153179,-15.549304,27.259138,-41.060688,-44.298355,-32.559307,25.627224,-37.443657,-100.96897,-41.143776,-44.191929,-16.623774,163.59869
2501500000,-16.504477,20.861389,-33.021519,22.54694,-30.854963,12.085606,-32.561398,24.938557,-32.978817,22.405336,-12.964561,-175.06926,-38.230824,23.176554,-37.358761,-103.41031,-30.859652,11.818807,-38.167873,23.523432,-15.501201,26.684111,-41.126553,-44.902233,-32.61813,24.750132,-37.388374,-102.962,-41.20462,-44.787598,-16.615578,163.23888
2502000000,-16.494076,20.441963,-33.103298,21.508387,-30.835323,11.515594,-32.615398,24.085968,-33.066715,21.352667,-12.92924,-175.24942,-38.343735,21.555828,-37.317039,-105.38234,-30.841143,11.235944,-38.27705,21.907251,-15.455478,26.121819,-41.188301,-45.666206,-32.671352,23.897614,-37.337772,-104.90961,-41.268082,-45.604488,-16.605724,162.86569
2502500000,-16.481981,20.022367,-33.177963,20.509861,-30.807432,10.949561,-32.666668,23.280165,-33.145531,20.335443,-12.894719,-175.42653,-38.463608,19.992765,-37.275021,-107.28539,-30.814323,10.680337,-38.392872,20.35376,-15.412521,25.571878,-41.28841,-46.599682,-32.723267,23.103031,-37.287205,-106.84341,-41.363102,-46.559917,-16.59446,162.46901
2503000000,-16.467749,19.601345,-33.239616,19.530239,-30.77586,10.430684,-32.714943,22.524927,-33.213871,19.339674,-12.863619,-175.61981,-38.59185,18.422171,-37.221718,-109.2113,-30.78364,10.160505,-38.523193,18.846964,-15.370518,25.042162,-41.424847,-47.464504,-32.772232,22.357847,-37.226768,-108.77162,-41.49585,-47.473732,-16.58235,162.06898
2503500000,-16.458363,19.168774,-33.291546,18.494452,-30.736139,9.962781,-32.761253,21.815115,-33.271687,18.301878,-12.834239,-175.80438,-38.72657,16.859665,-37.15609,-111.12369,-30.744074,9.6810484,-38.649399,17.318546,-15.330848,24.533821,-41.58765,-48.117756,-32.819,21.659214,-37.157314,-110.71778,-41.666939,-48.087971,-16.570131,161.65613
2504000000,-16.444454,18.749359,-33.347713,17.458345,-30.679594,9.5357208,-32.805824,21.172287,-33.32386,17.238848,-12.805358,-175.97803,-38.868973,15.250764,-37.075188,-113.06404,-30.689407,9.2743187,-38.792141,15.672876,-15.29073,24.05932,-41.751144,-48.594193,-32.859745,20.98699,-37.077099,-112.72148,-41.833954,-48.560852,-16.558235,161.21236
2504500000,-16.428621,18.346272,-33.399612,16.3846,-30.600359,9.1120281,-32.840645,20.589048,-33.375233,16.156412,-12.779123,-176.15996,-39.031929,13.580928,-36.982929,-115.13252,-30.610863,8.8535042,-38.956543,13.969499,-15.248415,23.611712,-41.918968,-48.780006,-32.894917,20.393961,-36.977734,-114.81647,-41.999706,-48.814716,-16.543583,160.77165
2505000000,-16.406633,17.950127,-33.445854,15.266199,-30.506683,8.6177025,-32.865307,20.054998,-33.424652,15.016706,-12.755962,-176.34486,-39.223217,11.931631,-36.870628,-117.38988,-30.518827,8.3585186,-39.154697,12.293563,-15.203555,23.168047,-42.081615,-48.796635,-32.920738,19.841539,-36.865334,-117.11499,-42.169338,-48.857983,-16.529593,160.29344
2505500000,-16.380333,17.532116,-33.494801,14.163503,-30.395908,8.0183249,-32.883965,19.532957,-33.47504,13.869885,-12.733503,-176.50829,-39.454624,10.294221,-36.761478,-119.90742,-30.409622,7.7654471,-39.387211,10.687816,-15.155039,22.727167,-42.202595,-48.540485,-32.938118,19.32967,-36.755104,-119.67303,-42.293388,-48.642162,-16.514095,159.79602
2506000000,-16.352411,17.095852,-33.543068,13.016624,-30.277594,7.2936869,-32.888031,19.04744,-33.52932,12.681358,-12.71298,-176.66562,-39.705505,8.7165394,-36.655594,-122.62345,-30.291912,7.0542603,-39.644718,9.1342125,-15.105622,22.29105,-42.284565,-48.204117,-32.941376,18.842098,-36.658245,-122.41817,-42.391335,-48.285511,-16.498585,159.25716
2506500000,-16.322306,16.643372,-33.596416,11.819669,-30.157988,6.4495139,-32.873848,18.557636,-33.589958,11.44513,-12.693761,-176.81972,-40.003857,7.2483735,-36.576073,-125.56624,-30.171881,6.2148848,-39.941196,7.6803803,-15.054313,21.855751,-42.339397,-47.782761,-32.930779,18.357824,-36.57811,-125.39938,-42.439991,-47.875408,-16.484182,158.68828
2507000000,-16.2948,16.170876,-33.655254,10.626997,-30.039375,5.4912243,-32.841236,18.030428,-33.65789,10.229994,-12.673101,-176.94427,-40.345848,5.9531989,-36.523529,-128.65076,-30.049793,5.2609367,-40.28685,6.4825172,-15.000974,21.413391,-42.343811,-47.4296,-32.900497,17.821962,-36.531353,-128.55237,-42.447636,-47.489697,-16.473949,158.08061
2507500000,-16.263069,15.696538,-33.719063,9.4323215,-29.921907,4.4124913,-32.802807,17.375141,-33.731674,9.0453978,-12.653076,-177.07037,-40.72123,5.011446,-36.509136,-131.88388,-29.934227,4.1834087,-40.657444,5.5568666,-14.945897,20.972015,-42.317806,-47.18441,-32.861492,17.16317,-36.518768,-131.79266,-42.42308,-47.293415,-16.468378,157.45415
2508000000,-16.236902,15.188622,-33.790825,8.2403917,-29.814444,3.2369208,-32.767666,16.625208,-33.809643,7.8769193,-12.630519,-177.17944,-41.117203,4.4233432,-36.524155,-135.15872,-29.826612,3.0041983,-41.058693,5.0261049,-14.891454,20.526846,-42.272572,-47.148987,-32.828415,16.418705,-36.543373,-135.08562,-42.382633,-47.280788,-16.469166,156.8181
2508500000,-16.214005,14.667997,-33.866642,7.07516,-29.717285,1.9958479,-32.741951,15.860444,-33.889931,6.7375917,-12.60548,-177.27547,-41.533207,4.2442675,-36.570957,-138.4281,-29.731117,1.7652897,-41.471428,4.8535771,-14.833425,20.084551,-42.217823,-47.343807,-32.801208,15.653327,-36.597115,-138.34224,-42.338295,-47.479057,-16.475159,156.17934
2509000000,-16.19965,14.124505,-33.947926,5.9025211,-29.629383,0.70268965,-32.719349,15.117757,-33.975494,5.6152382,-12.580963,-177.39134,-41.950638,4.6308732,-36.649563,-141.67062,-29.645838,0.4582175,-41.887074,5.2377129,-14.77583,19.632511,-42.170639,-47.620327,-32.780647,14.923154,-36.681107,-141.57246,-42.301731,-47.762512,-16.483727,155.5623
2509500000,-16.191099,13.592018,-34.039387,4.7622385,-29.551058,-0.65597188,-32.693127,14.434746,-34.068726,4.5260563,-12.552815,-177.50838,-42.341396,5.4527745,-36.749954,-144.85411,-29.569334,-0.88439918,-42.278847,6.1069818,-14.715844,19.176952,-42.131893,-47.943291,-32.756817,14.22117,-36.78241,-144.71596,-42.275494,-47.971226,-16.495592,154.95921
2510000000,-16.192295,13.068945,-34.137997,3.6747921,-29.483465,-2.0525706,-32.658043,13.760269,-34.167984,3.4672947,-12.522771,-177.62428,-42.691635,6.845849,-36.870152,-147.94756,-29.499994,-2.2876089,-42.627399,7.4803882,-14.65591,18.713541,-42.109165,-48.156887,-32.721405,13.560338,-36.901249,-147.78717,-42.24966,-48.203743,-16.509489,154.35854
2510500000,-16.204531,12.553047,-34.246761,2.6771808,-29.428408,-3.5051467,-32.607613,13.093046,-34.276592,2.4872293,-12.494235,-177.76575,-42.987213,8.6529465,-37.001343,-151.02245,-29.447708,-3.726696,-42.918106,9.3573704,-14.597161,18.235682,-42.067005,-48.334263,-32.673222,12.883181,-37.030479,-150.83836,-42.210476,-48.374683,-16.523392,153.80418
2511000000,-16.21929,12.076328,-34.36042,1.8081371,-29.39003,-4.9734697,-32.552124,12.349642,-34.388294,1.660677,-12.466057,-177.90379,-43.175343,10.921872,-37.146458,-154.07796,-29.409613,-5.1762428,-43.094219,11.59237,-14.538321,17.746317,-42.000938,-48.474617,-32.616436,12.157668,-37.176159,-153.88623,-42.141087,-48.453987,-16.538698,153.24728
2511500000,-16.236723,11.637034,-34.459179,1.0786241,-29.36755,-6.4243426,-32.486877,11.560079,-34.4879,0.96337354,-12.437112,-178.03731,-43.235535,13.127451,-37.31263,-157.11537,-29.386932,-6.5980144,-43.161926,13.817133,-14.480892,17.247595,-41.90377,-48.724876,-32.550785,11.38335,-37.33992,-156.92325,-42.044422,-48.686272,-16.555582,152.71094
2512000000,-16.257038,11.224854,-34.545448,0.41723883,-29.350586,-7.8231726,-32.416721,10.699111,-34.570511,0.35436624,-12.408876,-178.18503,-43.211739,15.059476,-37.51088,-160.05867,-29.370819,-7.9743166,-43.132874,15.7623,-14.429076,16.733587,-41.806694,-49.171921,-32.4823,10.533956,-37.532665,-159.90306,-41.94445,-49.19471,-16.572763,152.19487
2512500000,-16.275318,10.828058,-34.615646,-0.23871967,-29.346712,-9.1775618,-32.342587,9.8006296,-34.633892,-0.2653113,-12.381907,-178.33669,-43.112358,16.803547,-37.729137,-162.91547,-29.366533,-9.3203297,-43.029491,17.528627,-14.377173,16.230654,-41.701477,-49.639431,-32.410343,9.6489849,-37.745594,-162.78331,-41.844723,-49.656483,-16.588531,151.70535
2513000000,-16.292814,10.431769,-34.67651,-0.85785961,-29.345406,-10.481226,-32.263596,8.8301992,-34.685726,-0.83721209,-12.355313,-178.47896,-42.931168,18.018763,-37.964581,-165.64932,-29.364302,-10.604959,-42.837856,18.790911,-14.327752,15.725811,-41.590469,-50.23003,-32.329044,8.6776428,-37.97728,-165.51865,-41.732903,-50.220943,-16.604595,151.22321
2513500000,-16.312561,10.03219,-34.721855,-1.5090897,-29.343781,-11.738768,-32.180542,7.7527618,-34.724827,-1.4760245,-12.329392,-178.62248,-42.717602,18.534311,-38.211761,-168.1528,-29.360296,-11.851154,-42.609245,19.346449,-14.281826,15.220276,-41.479626,-50.909534,-32.242435,7.6062241,-38.215302,-168.02617,-41.616848,-50.88578,-16.620512,150.75583
2514000000,-16.339378,9.6173096,-34.761463,-2.1430659,-29.340168,-13.008317,-32.10281,6.5679712,-34.750736,-2.1380825,-12.30271,-178.76393,-42.51897,18.419468,-38.457497,-170.56496,-29.355982,-13.09275,-42.386189,19.210957,-14.235562,14.719994,-41.365379,-51.654194,-32.164726,6.4049191,-38.45948,-170.42447,-41.500202,-51.620567,-16.638088,150.29065
2514500000,-16.36981,9.2389841,-34.788406,-2.8489001,-29.34161,-14.279952,-32.035221,5.2958045,-34.769505,-2.8914144,-12.276208,-178.90941,-42.354225,17.817717,-38.690308,-172.78842,-29.35498,-14.364527,-42.21769,18.532597,-14.192643,14.222111,-41.237694,-52.481743,-32.094536,5.128058,-38.695858,-172.70901,-41.383163,-52.456261,-16.653982,149.85425
2515000000,-16.404718,8.8880939,-34.81377,-3.6016023,-29.349199,-15.546419,-31.976833,3.960633,-34.786221,-3.7151334,-12.250421,-179.05174,-42.246624,16.928255,-38.916199,-174.9153,-29.36097,-15.611567,-42.105652,17.606943,-14.15007,13.731052,-41.112671,-53.42783,-32.037056,3.7960851,-38.921944,-174.90862,-41.259045,-53.371872,-16.667192,149.44081
2515500000,-16.447266,8.5693426,-34.831848,-4.4241791,-29.361473,-16.801918,-31.931368,2.5949299,-34.799282,-4.6311588,-12.224771,-179.19467,-42.175755,15.854973,-39.12711,-177.00653,-29.373289,-16.848927,-42.043766,16.419777,-14.108781,13.2483,-40.985588,-54.399368,-31.988947,2.4344354,-39.143635,-177.08621,-41.136452,-54.374657,-16.677402,149.04776
2516000000,-16.497698,8.297205,-34.854473,-5.356317,-29.377253,-18.011669,-31.892628,1.2063869,-34.82111,-5.6496587,-12.196869,-179.32768,-42.165787,14.553757,-39.339771,-179.2222,-29.387678,-18.039293,-42.040348,15.073951,-14.067595,12.768414,-40.843018,-55.537251,-31.950655,1.045043,-39.366413,-179.31831,-40.997936,-55.487267,-16.685596,148.63898
2516500000,-16.551693,8.111352,-34.896008,-6.3425522,-29.396139,-19.175226,-31.863491,-0.20031974,-34.866585,-6.6884995,-12.169573,-179.47252,-42.218014,13.235366,-39.567776,178.62671,-29.403662,-19.20871,-42.102226,13.773856,-14.028223,12.285887,-40.704117,-56.914852,-31.922258,-0.39209604,-39.606255,178.49312,-40.863899,-56.820282,-16.689444,148.27052
2517000000,-16.608545,8.0000696,-34.949039,-7.2136412,-29.410601,-20.32526,-31.847103,-1.6214658,-34.923729,-7.6366014,-12.143539,-179.63432,-42.32748,11.975907,-39.787983,176.57193,-29.417614,-20.351725,-42.212227,12.562984,-13.99104,11.812871,-40.587219,-58.456825,-31.907137,-1.8036374,-39.846275,176.41731,-40.750671,-58.342747,-16.6915,147.88925
2517500000,-16.670767,7.9722567,-35.005486,-8.0600643,-29.431683,-21.428881,-31.837461,-3.0854356,-34.9884,-8.5358362,-12.115822,-179.78313,-42.522076,10.992029,-40.003078,174.58408,-29.435598,-21.440636,-42.395683,11.628591,-13.955579,11.364168,-40.490799,-60.115192,-31.89769,-3.2737448,-40.088963,174.4491,-40.656334,-59.920437,-16.690411,147.49922
2518000000,-16.728415,8.0476046,-35.055958,-8.8212824,-29.442883,-22.513227,-31.842739,-4.5306859,-35.046864,-9.3295012,-12.088638,-179.94666,-42.742615,10.439261,-40.211094,172.63066,-29.4443,-22.51228,-42.60511,11.077129,-13.921973,10.936676,-40.416416,-61.758488,-31.907185,-4.7263865,-40.311897,172.56952,-40.576557,-61.516148,-16.686186,147.1134
2518500000,-16.781902,8.2168007,-35.103786,-9.6166649,-29.44747,-23.576191,-31.866602,-5.904952,-35.103024,-10.113116,-12.061432,179.88768,-42.95644,10.34529,-40.4049,170.62796,-29.446756,-23.593704,-42.813786,10.927884,-13.888238,10.540366,-40.355648,-63.370796,-31.933125,-6.098937,-40.520844,170.64938,-40.515549,-63.106148,-16.679178,146.7003
2519000000,-16.825508,8.4657593,-35.153168,-10.358858,-29.448305,-24.708763,-31.894808,-7.1942964,-35.157887,-10.87692,-12.033597,179.72154,-43.178444,10.404751,-40.614506,168.50179,-29.446331,-24.723227,-43.022549,10.947556,-13.852514,10.168353,-40.295193,-64.997856,-31.964453,-7.3778696,-40.730736,168.58748,-40.45018,-64.722473,-16.668589,146.26971
2519500000,-16.854223,8.7735558,-35.200863,-11.057115,-29.44981,-25.860111,-31.921394,-8.3774767,-35.213825,-11.590964,-12.006574,179.54543,-43.408035,10.951595,-40.839256,166.36391,-29.447268,-25.890032,-43.239529,11.444622,-13.812422,9.8168449,-40.238411,-66.703285,-31.994511,-8.5440702,-40.95681,166.47792,-40.393608,-66.375969,-16.655704,145.82617
2520000000,-16.871206,9.1030502,-35.244026,-11.761943,-29.456127,-27.029753,-31.938326,-9.506815,-35.263206,-12.309035,-11.981534,179.35664,-43.593231,11.938541,-41.087772,164.22162,-29.454453,-27.071579,-43.423855,12.285563,-13.769979,9.4787016,-40.192852,-68.473488,-32.013191,-9.6533527,-41.212646,164.39859,-40.335785,-68.165565,-16.643093,145.36122
2520500000,-16.872622,9.4405813,-35.287617,-12.399361,-29.465195,-28.192019,-31.947742,-10.657123,-35.316238,-12.967288,-11.955106,179.17474,-43.720932,13.098541,-41.352726,162.228,-29.462599,-28.234982,-43.555012,13.361566,-13.723489,9.1380787,-40.169857,-70.331726,-32.022545,-10.775048,-41.489521,162.48741,-40.310696,-70.031761,-16.62999,144.87703
2521000000,-16.864882,9.7549791,-35.324871,-13.008538,-29.471567,-29.365566,-31.955603,-11.822935,-35.360676,-13.579757,-11.931218,178.96645,-43.794498,14.335331,-41.625523,160.3952,-29.471096,-29.412039,-43.640671,14.534935,-13.672705,8.7837152,-40.162952,-72.132439,-32.030575,-11.915155,-41.761063,160.70737,-40.308083,-71.821678,-16.61697,144.3806
2521500000,-16.844091,10.051046,-35.355717,-13.60099,-29.476835,-30.534409,-31.960527,-13.016051,-35.40234,-14.160458,-11.906866,178.75554,-43.821957,15.530247,-41.889706,158.73616,-29.477358,-30.5865,-43.682823,15.674596,-13.620506,8.3970432,-40.157017,-73.927917,-32.033802,-13.089873,-42.025871,159.11162,-40.298439,-73.600365,-16.606201,143.86163
2522000000,-16.815233,10.315397,-35.377769,-14.083207,-29.481123,-31.743298,-31.967588,-14.238616,-35.433834,-14.625437,-11.883506,178.53334,-43.812481,16.798306,-42.136463,157.20374,-29.483414,-31.810135,-43.682114,16.924299,-13.568328,7.9939799,-40.16338,-75.722267,-32.03756,-14.305344,-42.277199,157.62291,-40.307991,-75.482147,-16.598494,143.32256
2522500000,-16.77907,10.563426,-35.369099,-14.592233,-29.492058,-32.981407,-31.974728,-15.511211,-35.435467,-15.084576,-11.863463,178.29945,-43.753891,17.919922,-42.357922,155.75073,-29.493547,-33.047821,-43.621475,18.067636,-13.518394,7.5690341,-40.179554,-77.551079,-32.043568,-15.591864,-42.492474,156.21779,-40.323513,-77.280228,-16.592175,142.77718
2523000000,-16.733088,10.778479,-35.351337,-15.25913,-29.501268,-34.204304,-31.99519,-16.846092,-35.424797,-15.663473,-11.845306,178.05617,-43.666019,18.754204,-42.551517,154.19458,-29.504883,-34.283566,-43.527401,18.815744,-13.469408,7.1352081,-40.201435,-79.386223,-32.06163,-16.926525,-42.696548,154.729,-40.350815,-79.104301,-16.587685,142.22629
2523500000,-16.680683,10.97858,-35.335392,-15.99064,-29.510263,-35.466263,-32.026558,-18.187618,-35.415989,-16.344751,-11.828559,177.82648,-43.563725,19.396866,-42.74239,152.47162,-29.517508,-35.555969,-43.430714,19.467178,-13.42109,6.6936126,-40.251362,-81.257332,-32.092514,-18.268097,-42.87738,153.0417,-40.389179,-80.973412,-16.586082,141.68657
2524000000,-16.622669,11.159981,-35.324135,-16.741314,-29.521126,-36.752289,-32.070976,-19.484381,-35.408333,-17.052116,-11.815987,177.58482,-43.468876,19.790545,-42.946091,150.70706,-29.531206,-36.82869,-43.333618,19.845188,-13.376561,6.239994,-40.309139,-83.046143,-32.137234,-19.57453,-43.075573,151.28094,-40.449982,-82.746994,-16.588072,141.13322
2524500000,-16.559616,11.304279,-35.30468,-17.507292,-29.532591,-38.062901,-32.123161,-20.743477,-35.391808,-17.757217,-11.80351,177.35146,-43.354549,20.005648,-43.16087,149.00206,-29.545605,-38.145943,-43.238033,20.034563,-13.33217,5.7903957,-40.380676,-84.75872,-32.190414,-20.841364,-43.283627,149.61139,-40.527458,-84.511681,-16.592941,140.60223
2525000000,-16.482449,11.427269,-35.28231,-18.39715,-29.543962,-39.422249,-32.183189,-21.989248,-35.368263,-18.580219,-11.792706,177.11832,-43.284901,19.906958,-43.366348,147.26894,-29.560236,-39.509254,-43.173271,19.900412,-13.288637,5.341495,-40.459007,-86.403076,-32.252789,-22.090971,-43.484856,147.92949,-40.603729,-86.167099,-16.60043,140.07872
2525500000,-16.401278,11.470703,-35.277203,-19.345484,-29.557236,-40.831783,-32.259338,-23.201279,-35.362614,-19.488329,-11.784023,176.8967,-43.259224,19.930792,-43.575089,145.50456,-29.575546,-40.933609,-43.163239,19.980677,-13.244848,4.8774524,-40.545708,-88.008781,-32.329594,-23.294821,-43.690186,146.17863,-40.689888,-87.763901,-16.609987,139.57115
2526000000,-16.315619,11.44045,-35.274391,-20.242067,-29.579971,-42.376225,-32.348827,-24.315134,-35.358273,-20.342094,-11.777166,176.66714,-43.238911,19.9496,-43.798187,143.80969,-29.601036,-42.463341,-43.145103,19.991821,-13.206739,4.4062953,-40.637661,-89.512863,-32.419373,-24.385479,-43.914333,144.46107,-40.789742,-89.210587,-16.620935,139.08958
2526500000,-16.223536,11.347211,-35.270805,-21.190548,-29.61767,-43.932671,-32.450653,-25.319862,-35.35289,-21.242443,-11.771325,176.44385,-43.260296,19.959347,-44.012215,142.25679,-29.643904,-44.021957,-43.175365,20.093933,-13.171985,3.9446516,-40.732357,-90.891136,-32.520844,-25.36202,-44.121174,142.90739,-40.876831,-90.557991,-16.633026,138.60519
2527000000,-16.12896,11.166831,-35.280186,-22.156284,-29.671101,-45.516632,-32.557461,-26.138149,-35.358574,-22.172081,-11.767202,176.22095,-43.314011,20.19809,-44.212944,140.74049,-29.697857,-45.599892,-43.225586,20.471264,-13.139032,3.5031459,-40.812557,-92.271294,-32.623985,-26.176256,-44.31739,141.39064,-40.964615,-91.868538,-16.645508,138.15491
