!CSV A.01.01
!Keysight Technologies,N5222B,MY58422327,A.13.60.06
!Date: Monday, March 28, 2022 15:45:14
!Source: Standard

BEGIN CH1_DATA
Freq(Hz),S11(DB),S11(DEG),S12(DB),S12(DEG),S13(DB),S13(DEG),S14(DB),S14(DEG),S21(DB),S21(DEG),S22(DB),S22(DEG),S23(DB),S23(DEG),S24(DB),S24(DEG),S31(DB),S31(DEG),S32(DB),S32(DEG),S33(DB),S33(DEG),S34(DB),S34(DEG),S41(DB),S41(DEG),S42(DB),S42(DEG),S43(DB),S43(DEG),S44(DB),S44(DEG)
2500000000,-17.034227,21.150465,-33.424614,3.994015,-33.562729,24.750198,-33.793011,8.2856684,-33.502541,4.2953539,-13.478395,-175.76337,-39.930729,22.041611,-40.117672,-66.215469,-33.515686,24.051577,-39.863335,22.379864,-16.4799,23.185829,-34.739094,9.3933735,-33.843727,8.099247,-40.259548,-66.032852,-34.839218,9.2418118,-16.502708,167.79637
2500500000,-17.022388,20.793922,-33.533756,2.6761549,-33.498226,24.289545,-33.889347,6.9131255,-33.608173,2.954813,-13.43853,-175.86084,-39.990166,20.741419,-40.065533,-68.137009,-33.457726,23.560448,-39.91843,21.093756,-16.428488,22.713964,-34.698864,8.7253151,-33.93858,6.7463284,-40.199738,-67.933739,-34.796524,8.5647135,-16.486961,167.4391
2501000000,-17.00701,20.440948,-33.651268,1.4045806,-33.432533,23.793776,-33.995155,5.6301689,-33.726849,1.6449548,-13.396763,-175.94206,-40.05933,19.307941,-40.00795,-70.22374,-33.401367,23.080492,-39.991329,19.686167,-16.376698,22.250372,-34.662518,7.8586612,-34.045879,5.4578791,-40.130402,-70.017365,-34.759201,7.7206674,-16.469622,167.07669
2501500000,-16.988371,20.096754,-33.765572,0.26472515,-33.363113,23.348623,-34.111824,4.5213699,-33.838169,0.47835422,-13.357138,-176.03853,-40.15324,17.909187,-39.958115,-72.376373,-33.342037,22.606489,-40.077492,18.301363,-16.326979,21.793058,-34.637753,6.9172406,-34.158463,4.3532867,-40.069862,-72.133141,-34.731495,6.7634969,-16.449482,166.71175
2502000000,-16.969728,19.723406,-33.87067,-0.79114598,-33.289791,22.860613,-34.224937,3.4856577,-33.944847,-0.62277704,-13.318814,-176.13414,-40.256538,16.517546,-39.896923,-74.551109,-33.275913,22.137644,-40.177216,16.925543,-16.278103,21.349503,-34.626118,5.9038558,-34.270966,3.3067362,-40.00795,-74.283836,-34.720905,5.7412562,-16.427389,166.33049
2502500000,-16.947515,19.339113,-33.966293,-1.8237938,-33.221085,22.33971,-34.340099,2.5500801,-34.045372,-1.6638645,-13.278665,-176.23015,-40.358871,15.184027,-39.832386,-76.806793,-33.216396,21.647358,-40.276001,15.602044,-16.230734,20.92086,-34.632656,4.9009342,-34.384113,2.3903127,-39.924389,-76.607162,-34.729164,4.7087893,-16.40468,165.92703
2503000000,-16.921446,18.93515,-34.05035,-2.7725766,-33.152748,21.869556,-34.450012,1.7226309,-34.133137,-2.6483507,-13.24159,-176.34831,-40.467449,13.807194,-39.76688,-79.190979,-33.158051,21.219131,-40.377899,14.228149,-16.182165,20.511272,-34.654884,3.9800735,-34.493217,1.5456896,-39.853577,-79.054291,-34.754288,3.7725611,-16.379919,165.51663
2503500000,-16.899,18.491486,-34.115231,-3.7358799,-33.083618,21.48494,-34.561611,0.99088371,-34.203835,-3.6184132,-13.20476,-176.47426,-40.568474,12.295407,-39.690804,-81.705856,-33.095871,20.880199,-40.474682,12.739529,-16.133965,20.113548,-34.680519,3.1918979,-34.605251,0.78394008,-39.774498,-81.552414,-34.783806,2.9731693,-16.354744,165.08771
2504000000,-16.874468,18.029953,-34.172543,-4.7098846,-33.000168,21.186998,-34.669388,0.34873497,-34.263203,-4.6091442,-13.168352,-176.59966,-40.692112,10.71318,-39.610703,-84.319366,-33.015842,20.626926,-40.58757,11.121446,-16.083353,19.727516,-34.704178,2.452913,-34.710949,0.13014823,-39.690273,-84.211296,-34.812756,2.2382121,-16.329229,164.61952
2504500000,-16.851212,17.55916,-34.217701,-5.7370963,-32.896217,20.897518,-34.76952,-0.18388182,-34.316242,-5.6221461,-13.135077,-176.74182,-40.828613,8.934166,-39.522083,-87.162613,-32.9091,20.407442,-40.720245,9.3151398,-16.030512,19.349108,-34.720497,1.8347372,-34.811348,-0.38774663,-39.599598,-87.117996,-34.832645,1.6263748,-16.300968,164.14372
2505000000,-16.825691,17.087465,-34.250175,-6.8431158,-32.771233,20.586416,-34.851639,-0.58022219,-34.35561,-6.7286711,-13.104485,-176.89822,-41.007664,7.1154351,-39.437901,-90.303734,-32.781521,20.162785,-40.891228,7.5054798,-15.977603,18.960171,-34.726391,1.3080777,-34.892887,-0.8149491,-39.512714,-90.283569,-34.844296,1.1181475,-16.274511,163.62378
2505500000,-16.801222,16.588291,-34.288208,-7.9799314,-32.618996,20.164192,-34.918667,-0.95652491,-34.395531,-7.8561368,-13.075423,-177.04268,-41.230026,5.2434969,-39.379982,-93.696274,-32.622272,19.758293,-41.1133,5.6015844,-15.922693,18.570147,-34.709713,0.80114233,-34.958649,-1.230834,-39.45718,-93.676788,-34.833374,0.62670153,-16.247566,163.07988
2506000000,-16.77916,16.077484,-34.313789,-9.2665834,-32.457153,19.588512,-34.972748,-1.3212192,-34.431366,-9.0751038,-13.049341,-177.1937,-41.485661,3.3883529,-39.350746,-97.304756,-32.453278,19.215775,-41.365482,3.7399576,-15.867197,18.177635,-34.675243,0.3014577,-35.016048,-1.5983654,-39.427223,-97.405434,-34.799381,0.15731227,-16.221766,162.49796
2506500000,-16.758553,15.565586,-34.353836,-10.68399,-32.290642,18.869219,-35.012794,-1.5948912,-34.470303,-10.442047,-13.026361,-177.35298,-41.799809,1.6212913,-39.354351,-101.14801,-32.274666,18.480003,-41.675106,1.9316759,-15.811692,17.780249,-34.629734,-0.22007929,-35.059895,-1.8925526,-39.437824,-101.28186,-34.752296,-0.32006457,-16.197107,161.89211
2507000000,-16.744135,15.052299,-34.409962,-12.128784,-32.118458,17.95813,-35.032986,-1.8794743,-34.527122,-11.826162,-13.003868,-177.47903,-42.171684,0.051755864,-39.413216,-105.1814,-32.097504,17.568676,-42.057072,0.32622361,-15.754769,17.387341,-34.568077,-0.7754218,-35.080338,-2.1810048,-39.499191,-105.33662,-34.690041,-0.87761515,-16.177423,161.24779
2507500000,-16.727474,14.572535,-34.482616,-13.590995,-31.951761,16.905054,-35.036236,-2.2327018,-34.590382,-13.227752,-12.983932,-177.60818,-42.596779,-1.076852,-39.522762,-109.31638,-31.930088,16.468193,-42.478745,-0.83268738,-15.697153,16.994957,-34.488995,-1.4276477,-35.084457,-2.5135903,-39.613651,-109.47416,-34.611954,-1.5041875,-16.160679,160.5903
2508000000,-16.716492,14.086759,-34.566883,-15.038048,-31.799166,15.721783,-35.033184,-2.6231997,-34.667057,-14.64304,-12.963467,-177.71535,-43.047573,-1.7900069,-39.68235,-113.42555,-31.778563,15.248903,-42.935135,-1.5560749,-15.640814,16.598576,-34.402439,-2.1806164,-35.082161,-2.9206808,-39.783775,-113.59127,-34.522984,-2.2555237,-16.148314,159.91312
2508500000,-16.706804,13.612467,-34.663792,-16.422554,-31.662577,14.442073,-35.026436,-3.0508094,-34.758102,-15.999261,-12.941512,-177.79971,-43.509083,-2.0096323,-39.89362,-117.46111,-31.640553,13.956794,-43.399078,-1.755465,-15.58217,16.217522,-34.313595,-3.0407519,-35.074295,-3.3358543,-39.996399,-117.65956,-34.432182,-3.1096542,-16.140587,159.22676
2509000000,-16.704407,13.125214,-34.768673,-17.774416,-31.538166,13.096296,-35.015522,-3.4522624,-34.855015,-17.33746,-12.920808,-177.89549,-43.965549,-1.6571907,-40.14782,-121.37969,-31.520802,12.59929,-43.86129,-1.3375249,-15.523084,15.832247,-34.221195,-3.9727325,-35.065483,-3.7460251,-40.257309,-121.61176,-34.339687,-4.0499187,-16.135281,158.54117
2509500000,-16.70509,12.657939,-34.881069,-19.055828,-31.429934,11.709399,-34.991459,-3.8068132,-34.96122,-18.641029,-12.897186,-177.98198,-44.37603,-0.74687898,-40.439644,-125.15124,-31.412966,11.198796,-44.280102,-0.3681235,-15.46142,15.448114,-34.128368,-4.9843597,-35.044224,-4.1288052,-40.553059,-125.40253,-34.248123,-5.0652103,-16.133596,157.8512
2510000000,-16.714903,12.195416,-35.000896,-20.32271,-31.330658,10.269783,-34.949455,-4.1999378,-35.077732,-19.901882,-12.87119,-178.05582,-44.735016,0.43624967,-40.755859,-128.73663,-31.315651,9.7801075,-44.632858,0.91757625,-15.398454,15.064735,-34.036053,-6.0535603,-35.002781,-4.4944258,-40.874043,-129.00322,-34.158588,-6.1554117,-16.137028,157.15298
2510500000,-16.735529,11.746879,-35.128803,-21.474337,-31.247322,8.8146858,-34.892769,-4.645452,-35.205143,-21.046095,-12.846165,-178.14746,-45.047863,1.962685,-41.088558,-132.17645,-31.232714,8.3305407,-44.936523,2.5414064,-15.33522,14.663079,-33.939594,-7.1857204,-34.943233,-4.9497652,-41.213665,-132.4729,-34.066383,-7.2838292,-16.141951,156.49327
2511000000,-16.757721,11.344497,-35.262867,-22.499258,-31.179287,7.3322568,-34.821964,-5.1769776,-35.335197,-22.06686,-12.820687,-178.22916,-45.289463,3.792814,-41.437305,-135.49487,-31.162663,6.8758106,-45.150749,4.507885,-15.270866,14.251313,-33.844986,-8.4342184,-34.875587,-5.4843035,-41.558002,-135.71692,-33.973785,-8.5199699,-16.151234,155.83662
2511500000,-16.783222,10.978269,-35.384098,-23.343107,-31.126276,5.8763633,-34.748341,-5.7942734,-35.456791,-22.899012,-12.793801,-178.29796,-45.422455,5.6531801,-41.80035,-138.76706,-31.10709,5.4179573,-45.258385,6.3527989,-15.20704,13.821397,-33.757534,-9.7924986,-34.802166,-6.1161146,-41.918427,-138.93291,-33.887665,-9.8409529,-16.164196,155.2027
2512000000,-16.810406,10.645493,-35.485176,-24.128513,-31.075897,4.4389501,-34.666561,-6.4654207,-35.557945,-23.700022,-12.765332,-178.38272,-45.4827,7.2856646,-42.188465,-141.88454,-31.054049,3.9815834,-45.294315,7.9475894,-15.14878,13.362879,-33.684475,-11.246871,-34.723816,-6.7822652,-42.301609,-142.03548,-33.81432,-11.257419,-16.178774,154.59258
2512500000,-16.83666,10.334703,-35.570076,-24.924816,-31.044289,3.0201204,-34.581299,-7.1812124,-35.641991,-24.472519,-12.737136,-178.47112,-45.487537,8.7540798,-42.57962,-144.91615,-31.023149,2.5493734,-45.287476,9.3333263,-15.091866,12.912494,-33.618889,-12.678317,-34.641277,-7.5061707,-42.697613,-145.10895,-33.749523,-12.67684,-16.192842,154.01601
2513000000,-16.860611,10.037013,-35.64542,-25.75477,-31.016689,1.6598234,-34.482594,-7.9712749,-35.716084,-25.261681,-12.707955,-178.5524,-45.41864,9.843792,-43.005009,-147.81578,-30.995481,1.169241,-45.201298,10.330919,-15.037853,12.457217,-33.562252,-14.165386,-34.546242,-8.282505,-43.108944,-148.06749,-33.690327,-14.159925,-16.208454,153.457
2513500000,-16.886555,9.7462616,-35.710567,-26.605722,-30.995417,0.32094762,-34.373245,-8.8929205,-35.77618,-26.104088,-12.678606,-178.64185,-45.31702,10.374167,-43.432899,-150.51764,-30.973484,-0.18138304,-45.088589,10.695157,-14.987465,12.001662,-33.514736,-15.651553,-34.439598,-9.1874466,-43.528568,-150.81947,-33.640686,-15.641232,-16.223339,152.91895
2514000000,-16.917318,9.454381,-35.771538,-27.52273,-30.9723,-1.0035192,-34.265907,-9.9648838,-35.830513,-26.978567,-12.64882,-178.73615,-45.221764,10.266687,-43.85017,-153.10559,-30.954714,-1.5218529,-44.992554,10.537633,-14.937717,11.559486,-33.471775,-17.129124,-34.331783,-10.232761,-43.947548,-153.52176,-33.598587,-17.14365,-16.238762,152.38792
2514500000,-16.948593,9.2013435,-35.833961,-28.513283,-30.956667,-2.3242793,-34.16082,-11.177748,-35.8862,-27.967331,-12.619537,-178.83487,-45.170799,9.7099552,-44.278622,-155.72569,-30.944715,-2.8482306,-44.944263,9.8222885,-14.890701,11.115977,-33.431057,-18.636259,-34.224152,-11.408963,-44.37294,-156.29869,-33.557022,-18.655539,-16.25174,151.89336
2515000000,-16.98243,8.9749031,-35.901878,-29.532953,-30.948608,-3.6380498,-34.063,-12.514629,-35.947243,-28.972713,-12.590764,-178.93488,-45.190216,8.9260836,-44.721889,-158.30281,-30.936689,-4.1439614,-44.975674,8.8959036,-14.843555,10.684557,-33.395168,-20.168369,-34.126617,-12.73459,-44.813591,-159.02513,-33.528225,-20.186689,-16.262499,151.41742
2515500000,-17.022823,8.7867231,-35.968739,-30.559513,-30.950092,-4.9385166,-33.976723,-13.949134,-36.008541,-29.989616,-12.562493,-179.03789,-45.257973,8.0183506,-45.160076,-160.91394,-30.937922,-5.4236064,-45.059319,7.9824328,-14.79751,10.259211,-33.364635,-21.690863,-34.039841,-14.169012,-45.264778,-161.80684,-33.500858,-21.707888,-16.26985,150.95503
2516000000,-17.06856,8.6459093,-36.039429,-31.664061,-30.959526,-6.1467075,-33.904644,-15.487839,-36.073891,-31.120249,-12.532407,-179.13063,-45.371731,7.111836,-45.64204,-163.64442,-30.945988,-6.6386061,-45.185696,7.0310445,-14.751022,9.842021,-33.33041,-23.264889,-33.965458,-15.710849,-45.761883,-164.73538,-33.473057,-23.259113,-16.274925,150.47289
2516500000,-17.11722,8.5912876,-36.128857,-32.809563,-30.970573,-7.286849,-33.851952,-17.109446,-36.161148,-32.267185,-12.502395,-179.23232,-45.542011,6.1439524,-46.177238,-166.12083,-30.955343,-7.7725434,-45.36758,6.0547147,-14.705079,9.4194651,-33.306778,-24.92573,-33.909405,-17.338318,-46.32246,-167.48108,-33.447598,-24.900034,-16.276432,150.03232
2517000000,-17.165491,8.6099749,-36.242664,-33.785057,-30.974678,-8.3841591,-33.816769,-18.743298,-36.268215,-33.260632,-12.473242,-179.34909,-45.752563,5.2643585,-46.718594,-168.36931,-30.961182,-8.8825607,-45.576668,5.2063766,-14.661343,8.9990578,-33.299252,-26.635872,-33.876221,-18.971418,-46.90139,-169.84277,-33.440529,-26.592009,-16.276022,149.57376
2517500000,-17.217031,8.7071028,-36.350834,-34.716579,-30.979626,-9.3999414,-33.797176,-20.40382,-36.374817,-34.204033,-12.442314,-179.45377,-46.092022,4.4465084,-47.275948,-170.46262,-30.968348,-9.893178,-45.908466,4.4198389,-14.619093,8.6000223,-33.308102,-28.321156,-33.858276,-20.634558,-47.501717,-172.00879,-33.444691,-28.257721,-16.27317,149.10498
2518000000,-17.261042,8.9006882,-36.458508,-35.521416,-30.968473,-10.353557,-33.79496,-22.062338,-36.478497,-34.997662,-12.411513,-179.57681,-46.470619,4.1766357,-47.844704,-172.25629,-30.958521,-10.852666,-46.292664,4.2694082,-14.577559,8.2152414,-33.325085,-29.94787,-33.858398,-22.270243,-48.107655,-173.81665,-33.463203,-29.884981,-16.268082,148.6358
2518500000,-17.297209,9.1747503,-36.557858,-36.270176,-30.944313,-11.3617,-33.811314,-23.692572,-36.572647,-35.776733,-12.381121,-179.70515,-46.870155,4.4794707,-48.40036,-173.81963,-30.938427,-11.861327,-46.68906,4.6422625,-14.536247,7.8508849,-33.345673,-31.518486,-33.876827,-23.87326,-48.693062,-175.44064,-33.485577,-31.458319,-16.260063,148.1367
2519000000,-17.32279,9.502223,-36.650467,-36.97541,-30.914968,-12.434072,-33.844803,-25.24333,-36.657425,-36.483967,-12.350002,-179.83003,-47.290482,5.1566219,-48.925407,-175.32886,-30.908623,-12.926997,-47.10107,5.4543791,-14.493774,7.5046806,-33.369019,-33.080135,-33.908886,-25.407675,-49.262905,-176.91045,-33.50666,-33.031162,-16.250704,147.61848
2519500000,-17.333761,9.8661175,-36.72929,-37.688564,-30.886112,-13.574993,-33.882023,-26.663832,-36.736042,-37.203636,-12.318692,-179.9651,-47.750988,6.6235232,-49.448425,-176.90443,-30.880968,-14.052294,-47.542175,6.9981074,-14.448321,7.1736779,-33.398834,-34.659473,-33.948906,-26.837957,-49.826866,-178.35977,-33.536278,-34.598133,-16.240168,147.08847
2520000000,-17.332582,10.228925,-36.809586,-38.383694,-30.864244,-14.748057,-33.913784,-27.999737,-36.812309,-37.951965,-12.289244,179.88681,-48.169621,8.8876209,-49.992981,-178.37256,-30.860447,-15.219522,-47.911606,9.1620808,-14.401725,6.8515191,-33.430592,-36.207787,-33.980129,-28.14773,-50.403404,-179.76961,-33.573124,-36.148624,-16.230068,146.53079
2520500000,-17.319611,10.586368,-36.892479,-39.057896,-30.842831,-15.929415,-33.935936,-29.318045,-36.895832,-38.659557,-12.257574,179.74704,-48.501537,11.743194,-50.544922,-179.64998,-30.841797,-16.387156,-48.222549,11.837013,-14.352574,6.5276842,-33.470558,-37.745567,-34.000881,-29.438187,-50.965664,179.10307,-33.61422,-37.671921,-16.221165,145.95647
2521000000,-17.298937,10.926514,-36.971283,-39.675697,-30.821724,-17.120834,-33.957348,-30.638897,-36.969597,-39.304577,-12.229059,179.57608,-48.746803,14.958313,-51.07362,179.18796,-30.824209,-17.56078,-48.460762,14.790828,-14.300414,6.2008991,-33.515488,-39.250542,-34.017544,-30.766905,-51.506264,178.12648,-33.656593,-39.170296,-16.214445,145.37328
2521500000,-17.265751,11.249829,-37.039608,-40.280251,-30.802698,-18.325663,-33.970284,-31.975702,-37.037235,-39.924858,-12.199135,179.39993,-48.917408,18.287361,-51.54694,178.39151,-30.804806,-18.748751,-48.626804,17.955818,-14.247097,5.8500881,-33.558254,-40.769703,-34.029388,-32.107777,-51.995159,177.45366,-33.699139,-40.662861,-16.211786,144.77876
2522000000,-17.223209,11.544523,-37.110325,-40.81361,-30.78027,-19.562483,-33.978703,-33.414398,-37.101856,-40.471992,-12.169075,179.20789,-49.022388,21.988289,-51.928623,177.32205,-30.781607,-19.982412,-48.744759,21.45373,-14.192333,5.4820743,-33.608707,-42.328705,-34.035629,-33.560055,-52.374077,176.60405,-33.747017,-42.196289,-16.211792,144.17064
2522500000,-17.172312,11.813686,-37.156368,-41.268719,-30.760124,-20.823439,-33.995464,-34.939552,-37.142879,-40.979671,-12.141981,178.9937,-48.995106,25.924194,-52.241974,175.79695,-30.761065,-21.238791,-48.733536,25.146488,-14.140457,5.0985212,-33.669701,-43.841579,-34.051575,-35.077938,-52.666393,175.16516,-33.807987,-43.714218,-16.216038,143.5706
2523000000,-17.110523,12.052223,-37.183517,-41.808949,-30.738037,-22.121647,-34.02166,-36.537201,-37.16592,-41.613155,-12.117922,178.76572,-48.873089,29.573807,-52.519161,173.45291,-30.738178,-22.554182,-48.638275,28.744486,-14.089018,4.7110577,-33.738754,-45.359646,-34.078827,-36.705006,-52.928032,172.85947,-33.876518,-45.201347,-16.222006,142.97636
2523500000,-17.040382,12.252489,-37.207653,-42.431973,-30.72238,-23.502234,-34.066605,-38.235912,-37.192871,-42.334881,-12.095651,178.54619,-48.656223,33.267475,-52.83947,170.30882,-30.722733,-23.948847,-48.452072,32.219971,-14.039372,4.3149509,-33.822453,-46.822693,-34.127186,-38.393826,-53.23378,169.57236,-33.957275,-46.662426,-16.230234,142.41229
2524000000,-16.964407,12.415601,-37.232777,-43.087231,-30.710295,-24.91502,-34.137428,-39.932896,-37.223217,-43.08897,-12.078427,178.31281,-48.35014,36.456009,-53.243706,166.59229,-30.712931,-25.378897,-48.171871,35.491764,-13.991928,3.9155357,-33.913559,-48.184475,-34.199642,-40.089825,-53.59473,165.68044,-34.048248,-48.033306,-16.239815,141.84447
2524500000,-16.885378,12.520645,-37.250252,-43.705448,-30.704271,-26.402382,-34.233528,-41.568584,-37.255341,-43.820782,-12.061623,178.08949,-47.953033,39.023766,-53.706211,162.36775,-30.711176,-26.869047,-47.812084,38.266926,-13.942661,3.5204453,-34.009731,-49.467972,-34.298965,-41.717804,-54.083336,161.30388,-34.141327,-49.298672,-16.251732,141.31064
2525000000,-16.793627,12.592586,-37.250587,-44.362373,-30.708759,-27.914515,-34.343342,-43.136032,-37.275139,-44.582848,-12.046789,177.86237,-47.589622,40.990036,-54.214394,157.96715,-30.720968,-28.408266,-47.433067,40.33202,-13.892867,3.1231992,-34.101357,-50.629761,-34.409737,-43.281231,-54.57761,156.59871,-34.233139,-50.460972,-16.265015,140.78706
2525500000,-16.699905,12.583669,-37.25367,-45.178257,-30.724504,-29.472574,-34.470417,-44.638386,-37.298168,-45.44014,-12.034104,177.64568,-47.205662,43.073521,-54.807793,153.18039,-30.740608,-29.943001,-47.051304,42.476597,-13.841299,2.6994858,-34.187439,-51.763145,-34.535374,-44.771309,-55.143116,151.43546,-34.321247,-51.576225,-16.278507,140.28981
2526000000,-16.602131,12.492532,-37.2561,-46.015457,-30.754406,-31.074291,-34.615021,-46.060497,-37.320377,-46.276356,-12.023875,177.41833,-46.755898,44.454239,-55.506737,148.35583,-30.772245,-31.559805,-46.606487,43.829456,-13.79632,2.2583625,-34.278481,-52.816582,-34.68161,-46.178257,-55.837769,146.21115,-34.409618,-52.629742,-16.291195,139.81126
2526500000,-16.49959,12.326983,-37.248703,-46.977787,-30.800798,-32.66885,-34.780468,-47.370979,-37.339958,-47.188633,-12.0152,177.19342,-46.338531,45.423691,-56.179565,143.69579,-30.822773,-33.149887,-46.191441,44.695461,-13.754642,1.8249133,-34.361088,-53.802929,-34.847202,-47.486305,-56.491695,141.13332,-34.48756,-53.601974,-16.303514,139.3295
2527000000,-16.396025,12.062911,-37.256588,-48.101681,-30.863747,-34.245434,-34.970078,-48.507294,-37.366928,-48.231766,-12.00964,176.9688,-45.950085,46.027477,-56.757992,138.99762,-30.886854,-34.726238,-45.826149,45.294586,-13.714901,1.3999254,-34.437035,-54.74667,-35.031933,-48.606888,-57.064224,136.09509,-34.564396,-54.551388,-16.314709,138.86861
