!CSV A.01.01
!Keysight Technologies,N5222B,MY58422327,A.13.60.06
!Date: Monday, March 28, 2022 15:43:23
!Source: Standard

BEGIN CH1_DATA
Freq(Hz),S11(DB),S11(DEG),S12(DB),S12(DEG),S13(DB),S13(DEG),S14(DB),S14(DEG),S21(DB),S21(DEG),S22(DB),S22(DEG),S23(DB),S23(DEG),S24(DB),S24(DEG),S31(DB),S31(DEG),S32(DB),S32(DEG),S33(DB),S33(DEG),S34(DB),S34(DEG),S41(DB),S41(DEG),S42(DB),S42(DEG),S43(DB),S43(DEG),S44(DB),S44(DEG)
2500000000,-17.072649,21.119694,-33.494808,3.7560394,-33.196472,22.452566,-33.850677,9.3387823,-33.526794,3.9675627,-13.494584,-176.05869,-40.101555,23.614475,-41.24118,-66.804855,-33.193844,22.069746,-40.063492,23.53278,-16.532005,23.712637,-34.533741,8.3614006,-33.89085,9.0673285,-41.219322,-66.903297,-34.604744,8.2822676,-16.424971,167.01508
2500500000,-17.062649,20.753126,-33.607204,2.3491316,-33.148754,21.941641,-33.944313,7.9626226,-33.635609,2.5739331,-13.455607,-176.16205,-40.199821,22.381538,-41.177364,-68.761543,-33.146881,21.560778,-40.163692,22.309052,-16.477394,23.244513,-34.505024,7.7004056,-33.984093,7.6943507,-41.162361,-68.858383,-34.57399,7.6360135,-16.411741,166.64091
2501000000,-17.050098,20.393827,-33.729618,0.98314291,-33.100952,21.400261,-34.051441,6.6646347,-33.754341,1.2169112,-13.415192,-176.2485,-40.321442,21.052748,-41.109467,-70.910851,-33.101463,21.021559,-40.282261,20.988884,-16.422436,22.775383,-34.477242,6.8786364,-34.09388,6.3787317,-41.102818,-71.010162,-34.547844,6.8106356,-16.397711,166.26318
2501500000,-17.03356,20.052612,-33.849327,-0.22260188,-33.054291,20.909233,-34.169018,5.5246758,-33.867619,0.017735906,-13.377439,-176.3474,-40.462593,19.834675,-41.056381,-73.098854,-33.05357,20.530754,-40.424423,19.760876,-16.370243,22.305824,-34.458126,5.9956822,-34.215107,5.221849,-41.060013,-73.154808,-34.527454,5.906126,-16.380184,165.88156
2502000000,-17.017164,19.680738,-33.960209,-1.3627572,-32.99847,20.417469,-34.286278,4.4726787,-33.971146,-1.1409476,-13.340461,-176.44185,-40.618942,18.66814,-40.991711,-75.267822,-33.00346,20.053829,-40.572029,18.57757,-16.31992,21.852615,-34.455891,5.0163283,-34.337292,4.1475019,-41.005718,-75.357002,-34.521301,4.9268441,-16.361916,165.49332
2502500000,-16.997087,19.300358,-34.064552,-2.4679091,-32.951298,19.925026,-34.404327,3.5431378,-34.074177,-2.2605312,-13.302257,-176.535,-40.766857,17.644333,-40.914677,-77.591888,-32.958569,19.569742,-40.72683,17.500963,-16.271606,21.412796,-34.470348,4.0900331,-34.462475,3.2141492,-40.939468,-77.625641,-34.534039,3.9726985,-16.342138,165.08194
2503000000,-16.973419,18.90229,-34.161945,-3.4802473,-32.905148,19.514105,-34.52454,2.6899045,-34.167431,-3.330471,-13.266642,-176.65245,-40.91954,16.628563,-40.845127,-80.04837,-32.915283,19.157549,-40.888462,16.433573,-16.222904,20.996561,-34.497101,3.2506857,-34.581993,2.3783426,-40.876408,-80.031189,-34.563938,3.1053441,-16.320478,164.66599
2503500000,-16.953165,18.46907,-34.239342,-4.5143881,-32.851086,19.202133,-34.641384,1.9438125,-34.243866,-4.3932548,-13.231318,-176.77397,-41.062271,15.584576,-40.766212,-82.582687,-32.865856,18.879578,-41.043339,15.341616,-16.174843,20.601791,-34.521439,2.5389159,-34.70459,1.6550875,-40.800339,-82.472534,-34.592175,2.3947787,-16.297958,164.23665
2504000000,-16.930262,18.025063,-34.311592,-5.5570874,-32.778889,18.998999,-34.756214,1.3010945,-34.315155,-5.4646678,-13.195926,-176.8934,-41.210251,14.481482,-40.674572,-85.245949,-32.794395,18.691809,-41.203194,14.258095,-16.124203,20.219841,-34.543282,1.9018137,-34.822754,1.0019416,-40.709686,-85.100662,-34.611679,1.7451333,-16.274399,163.77164
2504500000,-16.908518,17.573767,-34.373066,-6.6250091,-32.680214,18.80991,-34.868969,0.77433556,-34.383396,-6.5526519,-13.163293,-177.03139,-41.372025,13.210186,-40.580303,-88.190742,-32.697903,18.524052,-41.380116,12.9974,-16.070475,19.848949,-34.546928,1.3626083,-34.93866,0.49706233,-40.616405,-87.977631,-34.619228,1.2130705,-16.24811,163.30077
2505000000,-16.883785,17.121046,-34.427593,-7.7655282,-32.557667,18.569973,-34.969086,0.39799064,-34.441326,-7.6965952,-13.13362,-177.18364,-41.5672,11.971784,-40.490871,-91.389465,-32.573639,18.329275,-41.585964,11.807919,-16.016008,19.467747,-34.536701,0.89957297,-35.039707,0.13153429,-40.524082,-91.126488,-34.612419,0.72283852,-16.222521,162.78151
2505500000,-16.858545,16.647511,-34.485207,-8.9113579,-32.407612,18.20859,-35.052055,0.095501684,-34.501282,-8.8582516,-13.10491,-177.32726,-41.79126,10.663055,-40.423561,-94.896965,-32.417938,17.99682,-41.823875,10.612813,-15.959604,19.083185,-34.501343,0.40986338,-35.126549,-0.15188707,-40.452374,-94.610619,-34.581932,0.24280223,-16.196432,162.23932
2506000000,-16.835583,16.152662,-34.536072,-10.165438,-32.244873,17.676096,-35.127151,-0.14551471,-34.557076,-10.098737,-13.079589,-177.4776,-42.052372,9.4235086,-40.386494,-98.704781,-32.249847,17.474215,-42.081799,9.4645529,-15.902062,18.701824,-34.447746,-0.1137334,-35.199722,-0.37348077,-40.414337,-98.392418,-34.531967,-0.28931966,-16.170914,161.65527
2506500000,-16.813837,15.655572,-34.600323,-11.508,-32.075153,17.00444,-35.180733,-0.24272478,-34.622375,-11.430311,-13.057521,-177.63553,-42.360332,8.2979488,-40.393566,-102.773,-32.07362,16.787207,-42.386993,8.435174,-15.843953,18.313778,-34.382809,-0.73024774,-35.254707,-0.45915458,-40.416359,-102.4362,-34.471359,-0.90231955,-16.147379,161.04263
2507000000,-16.796865,15.157006,-34.678127,-12.854461,-31.901749,16.13409,-35.202927,-0.32097512,-34.701187,-12.762487,-13.036244,-177.76447,-42.724411,7.4594612,-40.458351,-107.00097,-31.893908,15.894824,-42.743855,7.6677427,-15.784108,17.92378,-34.30426,-1.4165449,-35.275276,-0.51862013,-40.481831,-106.66397,-34.39566,-1.5800098,-16.1278,160.3934
2507500000,-16.777258,14.683352,-34.766579,-14.143536,-31.737621,15.098284,-35.195869,-0.48084068,-34.79068,-14.072702,-13.01795,-177.89474,-43.118134,7.0984631,-40.582176,-111.28149,-31.723528,14.825981,-43.133507,7.3389177,-15.723724,17.532501,-34.217155,-2.2076013,-35.27113,-0.6748032,-40.606266,-110.9158,-34.312511,-2.3540463,-16.111319,159.72551
2508000000,-16.763948,14.200692,-34.862255,-15.422554,-31.583761,13.925969,-35.178837,-0.73189878,-34.885834,-15.330153,-12.999326,-177.99898,-43.513351,7.2441339,-40.758862,-115.56046,-31.570318,13.597415,-43.527336,7.4744077,-15.664412,17.136499,-34.125278,-3.1448307,-35.253197,-0.90685588,-40.784195,-115.1833,-34.226238,-3.2480321,-16.099094,159.04103
2508500000,-16.7512,13.717101,-34.965054,-16.654316,-31.443398,12.647155,-35.155655,-1.0484574,-34.987453,-16.532661,-12.978953,-178.08095,-43.896954,7.8443341,-40.984695,-119.75401,-31.435135,12.289799,-43.908482,8.0608788,-15.601532,16.750893,-34.03957,-4.1701717,-35.230129,-1.2037603,-41.012611,-119.32099,-34.143387,-4.2482781,-16.091402,158.34093
2509000000,-16.746487,13.219428,-35.069389,-17.843477,-31.319994,11.286444,-35.129864,-1.3572863,-35.090431,-17.69684,-12.960089,-178.17552,-44.252419,8.9611044,-41.257404,-123.82874,-31.315207,10.904818,-44.262955,9.1417589,-15.539429,16.356859,-33.96014,-5.2815456,-35.200245,-1.4976978,-41.281586,-123.35532,-34.065125,-5.2872119,-16.086412,157.64232
2509500000,-16.74712,12.735247,-35.176537,-18.980202,-31.210682,9.8539076,-35.088303,-1.6447142,-35.193943,-18.822109,-12.937847,-178.25905,-44.534184,10.4414,-41.563213,-127.74727,-31.210741,9.4999428,-44.552994,10.670341,-15.475183,15.96163,-33.889565,-6.4175663,-35.15881,-1.771452,-41.582932,-127.25682,-33.990688,-6.3807654,-16.086254,156.94005
2510000000,-16.757151,12.262983,-35.287762,-20.087214,-31.120548,8.3819075,-35.032089,-1.9854498,-35.304874,-19.911303,-12.913613,-178.33083,-44.753777,12.071165,-41.900322,-131.53052,-31.119894,8.0501699,-44.774769,12.353166,-15.409921,15.566659,-33.818558,-7.5770268,-35.098015,-2.1108658,-41.910637,-131.02724,-33.914894,-7.5003572,-16.090513,156.22906
2510500000,-16.77969,11.807334,-35.404346,-21.128954,-31.045589,6.8933716,-34.95892,-2.4055176,-35.420547,-20.934668,-12.890453,-178.41985,-44.930759,13.817562,-42.255608,-135.17647,-31.043625,6.5704279,-44.948086,14.282254,-15.344474,15.151361,-33.747723,-8.7542753,-35.026306,-2.5287127,-42.261955,-134.70526,-33.840622,-8.6763973,-16.096539,155.55394
2511000000,-16.804348,11.407506,-35.522125,-22.074005,-30.988274,5.4141698,-34.880123,-2.9306438,-35.533897,-21.810848,-12.866793,-178.49852,-45.006645,15.782568,-42.629292,-138.6998,-30.985098,5.1075239,-45.027336,16.384893,-15.278087,14.723448,-33.677067,-10.000443,-34.93964,-3.0377035,-42.635292,-138.26765,-33.765022,-9.9148178,-16.106882,154.87767
2511500000,-16.831123,11.045856,-35.627037,-22.861435,-30.943537,3.972826,-34.794582,-3.5204222,-35.634151,-22.563007,-12.841998,-178.56158,-45.007496,17.550737,-43.018764,-142.16325,-30.935493,3.660789,-45.002129,18.270491,-15.212812,14.275025,-33.606644,-11.333838,-34.854275,-3.6380541,-43.032379,-141.76529,-33.693249,-11.239124,-16.120884,154.21997
2512000000,-16.859715,10.722168,-35.717354,-23.637377,-30.902042,2.5619657,-34.705727,-4.1507597,-35.714539,-23.297859,-12.815869,-178.63927,-44.933022,19.013399,-43.440269,-145.53043,-30.894093,2.2394137,-44.909092,19.79496,-15.154155,13.800612,-33.548172,-12.749482,-34.758438,-4.2695007,-43.449852,-145.14879,-33.633053,-12.676378,-16.138054,153.58553
2512500000,-16.886267,10.421945,-35.785355,-24.429773,-30.877638,1.1520509,-34.609074,-4.8266683,-35.776852,-24.077738,-12.79021,-178.72009,-44.831234,20.300161,-43.881111,-148.78198,-30.87134,0.81757748,-44.769859,21.033869,-15.096642,13.339723,-33.497211,-14.131539,-34.655621,-4.9623861,-43.89193,-148.36647,-33.58194,-14.079163,-16.155443,152.98721
2513000000,-16.911285,10.133048,-35.844975,-25.283129,-30.859631,-0.18349232,-34.495884,-5.5969286,-35.831062,-24.912319,-12.763892,-178.79076,-44.662586,21.122044,-44.343819,-151.94635,-30.855095,-0.53332615,-44.571888,21.74279,-15.042175,12.874299,-33.452808,-15.564847,-34.541439,-5.7334428,-44.358398,-151.43384,-33.534275,-15.52269,-16.173492,152.40161
2513500000,-16.936701,9.854785,-35.898636,-26.22356,-30.845572,-1.4709733,-34.371284,-6.501955,-35.877987,-25.804108,-12.737191,-178.86293,-44.460339,21.313917,-44.825047,-154.90733,-30.844797,-1.8326954,-44.368092,21.73159,-14.991159,12.409281,-33.417278,-17.006033,-34.416027,-6.6588268,-44.831047,-154.34132,-33.4967,-16.970448,-16.192421,151.84001
2514000000,-16.96777,9.5687742,-35.954777,-27.234451,-30.831863,-2.7244868,-34.247139,-7.5658665,-35.922951,-26.796062,-12.709476,-178.93825,-44.281876,20.914156,-45.301861,-157.81584,-30.835545,-3.0905132,-44.196335,21.213614,-14.941444,11.953917,-33.38142,-18.431822,-34.291813,-7.7451606,-45.299103,-157.17897,-33.461651,-18.411293,-16.212954,151.28809
2514500000,-16.999008,9.3277969,-36.024277,-28.290083,-30.822548,-3.9647601,-34.1255,-8.772913,-35.975857,-27.852882,-12.68139,-179.01852,-44.169525,19.972187,-45.798771,-160.7789,-30.829533,-4.3268909,-44.082027,20.166531,-14.894406,11.502653,-33.348583,-19.886341,-34.167839,-8.9808445,-45.780956,-160.12328,-33.429081,-19.883549,-16.23197,150.77669
2515000000,-17.033863,9.1124315,-36.104675,-29.328125,-30.814157,-5.1819854,-34.01086,-10.138146,-36.04364,-28.936678,-12.653594,-179.09999,-44.128826,18.876265,-46.317184,-163.54695,-30.826948,-5.5300217,-44.058483,18.928379,-14.848391,11.061463,-33.321808,-21.38447,-34.054562,-10.355049,-46.291737,-162.92281,-33.403076,-21.36344,-16.248627,150.2877
2515500000,-17.073597,8.9370565,-36.185482,-30.368313,-30.808722,-6.3871298,-33.907112,-11.617233,-36.114056,-29.992556,-12.626843,-179.18196,-44.135075,17.747843,-46.860474,-166.2746,-30.825453,-6.7140479,-44.066284,17.700605,-14.803157,10.633073,-33.298859,-22.851612,-33.953079,-11.865751,-46.793724,-165.68167,-33.376526,-22.849096,-16.261986,149.82425
2516000000,-17.119406,8.8086023,-36.27198,-31.425913,-30.808605,-7.554162,-33.822586,-13.241412,-36.193729,-31.093319,-12.597764,-179.25383,-44.19128,16.503441,-47.432316,-169.04369,-30.829233,-7.8582788,-44.133541,16.473579,-14.758403,10.213661,-33.27335,-24.375084,-33.870003,-13.49566,-47.340244,-168.56363,-33.351032,-24.388857,-16.27244,149.34296
2516500000,-17.166962,8.7740011,-36.378586,-32.479698,-30.810461,-8.6861496,-33.758335,-14.937699,-36.292076,-32.174072,-12.568567,-179.33524,-44.30146,15.281089,-48.059864,-171.52541,-30.830435,-8.9618845,-44.26247,15.210819,-14.713268,9.798624,-33.253574,-25.962738,-33.807987,-15.215413,-47.949909,-171.20335,-33.333633,-25.986868,-16.27985,148.90701
2517000000,-17.212208,8.8085918,-36.498173,-33.31208,-30.807421,-9.8103714,-33.72039,-16.641096,-36.406357,-33.056919,-12.539993,-179.43205,-44.454235,14.066367,-48.691933,-173.78769,-30.827032,-10.055371,-44.425343,14.003847,-14.669724,9.3935623,-33.249928,-27.589912,-33.771103,-16.942881,-48.566601,-173.52943,-33.329029,-27.626228,-16.284603,148.45866
2517500000,-17.261755,8.9125433,-36.611977,-34.114918,-30.81135,-10.847627,-33.700691,-18.378992,-36.507797,-33.891335,-12.509239,-179.51451,-44.707916,12.959972,-49.325279,-175.79439,-30.83077,-11.069094,-44.709087,12.892915,-14.625706,9.0111723,-33.259212,-29.210926,-33.753349,-18.673626,-49.204319,-175.91737,-33.337841,-29.253902,-16.285931,148.00043
2518000000,-17.304108,9.1118374,-36.716183,-34.754604,-30.80192,-11.853182,-33.701294,-20.074806,-36.601383,-34.624374,-12.478572,-179.61479,-45.019726,12.367563,-49.972618,-177.56682,-30.818914,-12.05372,-45.04425,12.380546,-14.581823,8.6406889,-33.27726,-30.791336,-33.756832,-20.382023,-49.882946,-177.87108,-33.35677,-30.84643,-16.284752,147.54153
2518500000,-17.338509,9.3889637,-36.810181,-35.379364,-30.785755,-12.903646,-33.71965,-21.716557,-36.685043,-35.346733,-12.44768,-179.71872,-45.359528,12.262302,-50.613544,-179.07893,-30.797764,-13.087899,-45.39883,12.426523,-14.537047,8.2890215,-33.298851,-32.328053,-33.776329,-22.014112,-50.552509,-179.61139,-33.379047,-32.389313,-16.280331,147.05336
2519000000,-17.362576,9.7204065,-36.891804,-35.956673,-30.767752,-13.994756,-33.749649,-23.26569,-36.758442,-36.06134,-12.41476,-179.82062,-45.73325,12.547257,-51.228817,179.58405,-30.775723,-14.197994,-45.767464,12.823011,-14.490252,7.945941,-33.322475,-33.842716,-33.813129,-23.571253,-51.244869,178.75272,-33.404812,-33.926075,-16.273464,146.54326
2519500000,-17.371408,10.08413,-36.961792,-36.529182,-30.752792,-15.119801,-33.786808,-24.688297,-36.829674,-36.767467,-12.38301,-179.93944,-46.127609,13.62819,-51.848717,178.53203,-30.759905,-15.319628,-46.153782,14.020957,-14.440333,7.6063824,-33.347488,-35.373882,-33.853882,-24.967758,-51.923752,177.80534,-33.431202,-35.4664,-16.265631,146.01466
2520000000,-17.369427,10.452505,-37.025898,-37.119732,-30.74165,-16.252375,-33.813152,-26.014566,-36.901714,-37.502453,-12.352237,179.92935,-46.472378,15.301019,-52.483612,177.47464,-30.748903,-16.449223,-46.502464,15.919204,-14.390156,7.2662201,-33.380669,-36.886364,-33.882328,-26.272743,-52.589649,176.96834,-33.466545,-37.007336,-16.259895,145.46483
2520500000,-17.355022,10.817471,-37.08913,-37.703426,-30.730122,-17.344561,-33.830368,-27.324883,-36.976803,-38.148617,-12.319283,179.80447,-46.770596,17.419817,-53.064091,177.00307,-30.739347,-17.555725,-46.781052,18.367935,-14.338793,6.9252005,-33.418415,-38.392029,-33.899254,-27.561245,-53.219326,176.70535,-33.509865,-38.503845,-16.254627,144.89665
2521000000,-17.332733,11.164721,-37.14307,-38.215843,-30.716274,-18.435678,-33.842419,-28.673309,-37.046997,-38.736115,-12.28869,179.646,-46.99295,20.165373,-53.572102,176.59123,-30.724298,-18.63957,-46.968517,21.034929,-14.28493,6.5799384,-33.46019,-39.849369,-33.907448,-28.87759,-53.764412,176.53593,-33.553543,-39.995426,-16.251461,144.32523
2521500000,-17.296009,11.494714,-37.190105,-38.730389,-30.696157,-19.515488,-33.849392,-30.041618,-37.105888,-39.29705,-12.257586,179.48209,-47.145981,23.104055,-53.969444,176.49307,-30.703716,-19.731295,-47.087406,24.034422,-14.230548,6.2109089,-33.498367,-41.335667,-33.909882,-30.24316,-54.154961,176.82939,-33.596043,-41.462448,-16.251715,143.73798
2522000000,-17.250069,11.790334,-37.22266,-39.217735,-30.668703,-20.652735,-33.849079,-31.527006,-37.15583,-39.80209,-12.22683,179.30243,-47.188751,26.380995,-54.204708,175.64047,-30.677937,-20.88781,-47.114384,27.198315,-14.175289,5.8329992,-33.544106,-42.846634,-33.907097,-31.734367,-54.347202,176.44102,-33.647274,-42.971046,-16.255608,143.14371
2522500000,-17.195923,12.047565,-37.236813,-39.700375,-30.639212,-21.842888,-33.860695,-33.096146,-37.179073,-40.272175,-12.198556,179.10239,-47.130234,29.532034,-54.345318,173.82333,-30.651972,-22.074327,-47.003857,30.364058,-14.122785,5.4325838,-33.601166,-44.344864,-33.9174,-33.328472,-54.484398,174.90512,-33.709347,-44.436249,-16.262239,142.55269
2523000000,-17.132048,12.265634,-37.230263,-40.341469,-30.609758,-23.100958,-33.885288,-34.75898,-37.190845,-40.849388,-12.17303,178.88693,-46.950615,32.398972,-54.4725,170.83032,-30.624701,-23.325489,-46.822678,33.103115,-14.070535,5.0340781,-33.662228,-45.849274,-33.938892,-35.017281,-54.577915,171.9948,-33.773991,-45.930241,-16.271278,141.97723
2523500000,-17.060297,12.445456,-37.226795,-41.061653,-30.582388,-24.4384,-33.931698,-36.492016,-37.198051,-41.549736,-12.148813,178.67902,-46.724377,34.993877,-54.655388,166.59584,-30.600842,-24.675932,-46.599125,35.496586,-14.01962,4.6303487,-33.738518,-47.324669,-33.98642,-36.760334,-54.746655,167.87491,-33.852955,-47.390205,-16.282244,141.42645
2524000000,-16.984329,12.587671,-37.233788,-41.863632,-30.563332,-25.824879,-34.002457,-38.206608,-37.20919,-42.299263,-12.129543,178.45599,-46.440304,37.187122,-54.948799,161.38188,-30.584208,-26.061293,-46.324268,37.625587,-13.971506,4.2209821,-33.826141,-48.73407,-34.05875,-38.506153,-54.992474,162.87529,-33.941429,-48.759861,-16.294367,140.87224
2524500000,-16.906496,12.672493,-37.235413,-42.660069,-30.549532,-27.293142,-34.095528,-39.885403,-37.216961,-43.062115,-12.110657,178.23611,-46.114807,38.92955,-55.308163,155.78256,-30.575495,-27.504017,-45.99921,39.332451,-13.9212,3.8127773,-33.924374,-50.05072,-34.155399,-40.166756,-55.362686,157.51257,-34.034184,-50.056736,-16.308313,140.34402
2525000000,-16.817276,12.733545,-37.231541,-43.523003,-30.549555,-28.817726,-34.202526,-41.473972,-37.217316,-43.877247,-12.093746,178.01204,-45.822044,40.036465,-55.703537,149.86618,-30.576498,-29.013033,-45.696659,40.440331,-13.871051,3.4038353,-34.01886,-51.286118,-34.265499,-41.762547,-55.742241,151.75769,-34.130081,-51.253738,-16.323719,139.83102
2525500000,-16.726805,12.722411,-37.23859,-44.496525,-30.558174,-30.355228,-34.326702,-43.018932,-37.224907,-44.802258,-12.079471,177.79808,-45.549137,41.479195,-56.067444,143.37013,-30.58572,-30.537247,-45.413105,41.774506,-13.818288,2.9629998,-34.112206,-52.45784,-34.39386,-43.291451,-56.133694,145.41901,-34.222832,-52.402218,-16.339523,139.33746
2526000000,-16.630674,12.640995,-37.24617,-45.43581,-30.582644,-31.97344,-34.469231,-44.46965,-37.235619,-45.712479,-12.06775,177.57158,-45.207443,42.278851,-56.546227,136.62781,-30.611721,-32.130085,-45.078362,42.659042,-13.772621,2.5037098,-34.213299,-53.551651,-34.537712,-44.739628,-56.600777,138.80254,-34.319607,-53.517059,-16.354853,138.87006
2526500000,-16.528978,12.485756,-37.253983,-46.456486,-30.624695,-33.57938,-34.632957,-45.83503,-37.241268,-46.713192,-12.057995,177.34677,-44.916553,42.897755,-56.994976,130.29166,-30.652683,-33.701473,-44.776237,43.21603,-13.731117,2.0533404,-34.307182,-54.561932,-34.70084,-46.07542,-57.014626,132.36696,-34.411777,-54.48597,-16.369467,138.39398
2527000000,-16.425272,12.231086,-37.272434,-47.583485,-30.688099,-35.150311,-34.81636,-47.02924,-37.257023,-47.808907,-12.051289,177.12134,-44.643646,43.413479,-57.316338,123.82999,-30.708967,-35.268536,-44.496387,43.774715,-13.692532,1.6143943,-34.399021,-55.484226,-34.884529,-47.253788,-57.309052,126.1162,-34.50135,-55.429432,-16.383413,137.94528
