!CSV A.01.01
!Keysight Technologies,N5222B,MY58422327,A.13.60.06
!Date: Monday, March 28, 2022 15:43:48
!Source: Standard

BEGIN CH1_DATA
Freq(Hz),S11(DB),S11(DEG),S12(DB),S12(DEG),S13(DB),S13(DEG),S14(DB),S14(DEG),S21(DB),S21(DEG),S22(DB),S22(DEG),S23(DB),S23(DEG),S24(DB),S24(DEG),S31(DB),S31(DEG),S32(DB),S32(DEG),S33(DB),S33(DEG),S34(DB),S34(DEG),S41(DB),S41(DEG),S42(DB),S42(DEG),S43(DB),S43(DEG),S44(DB),S44(DEG)
2500000000,-17.085043,20.704369,-33.307869,2.9993415,-33.42939,22.364086,-33.915993,8.4812746,-33.342701,2.6275287,-13.529527,-175.87805,-39.718151,26.762175,-40.686337,-67.661125,-33.418262,22.516903,-39.697258,26.714676,-16.506365,23.847288,-34.482185,7.1769929,-33.979286,8.2469902,-40.736622,-67.778671,-34.545208,7.2248735,-16.432478,167.3584
2500500000,-17.078442,20.352673,-33.408661,1.5757819,-33.376598,21.947025,-34.028873,7.1161013,-33.441936,1.1984435,-13.490165,-175.97894,-39.808353,25.612623,-40.617344,-69.552292,-33.371605,22.11095,-39.7836,25.608986,-16.449936,23.376451,-34.445232,6.5544705,-34.096745,6.8802924,-40.67189,-69.687904,-34.507843,6.5986152,-16.417099,166.98433
2501000000,-17.068346,20.009245,-33.518768,0.14836602,-33.318695,21.501453,-34.153881,5.8583608,-33.55257,-0.23452413,-13.449023,-176.06013,-39.906406,24.421244,-40.542267,-71.615311,-33.317825,21.688021,-39.877762,24.429358,-16.392853,22.905987,-34.405464,5.7454329,-34.225964,5.6297274,-40.605644,-71.749596,-34.471134,5.7852874,-16.400518,166.60178
2501500000,-17.054396,19.676565,-33.630886,-1.1571287,-33.261044,21.093231,-34.287441,4.7735143,-33.664955,-1.532805,-13.410195,-176.15775,-40.014614,23.286068,-40.477562,-73.723633,-33.259186,21.325796,-39.981945,23.327362,-16.338964,22.429955,-34.37331,4.8406119,-34.364262,4.5710936,-40.549179,-73.871132,-34.438885,4.8782711,-16.381462,166.21658
2502000000,-17.041168,19.317442,-33.740116,-2.4102533,-33.194481,20.673325,-34.418995,3.8053584,-33.769867,-2.7886572,-13.372228,-176.25049,-40.120586,22.176807,-40.401428,-75.898857,-33.19492,20.940567,-40.087292,22.265739,-16.285934,21.966482,-34.356251,3.8451951,-34.500515,3.5992672,-40.47818,-76.062561,-34.418777,3.8530962,-16.361618,165.81494
2502500000,-17.023153,18.95903,-33.851372,-3.6060181,-33.131531,20.228247,-34.552418,2.9675624,-33.878296,-4.0050611,-13.333586,-176.34277,-40.21814,21.067657,-40.322269,-78.183846,-33.129784,20.540129,-40.182205,21.164585,-16.235428,21.514664,-34.358887,2.8331115,-34.635094,2.7890508,-40.406567,-78.349464,-34.421089,2.8125935,-16.341311,165.39484
2503000000,-17.001217,18.581331,-33.954018,-4.7250781,-33.070332,19.824169,-34.676289,2.2283561,-33.976826,-5.1277862,-13.297429,-176.46194,-40.326904,19.952261,-40.248035,-80.614212,-33.062359,20.150818,-40.283844,19.996288,-16.185081,21.082602,-34.376709,1.8873621,-34.759369,2.0642343,-40.338268,-80.783852,-34.441792,1.8456211,-16.319393,164.97052
2503500000,-16.982637,18.170765,-34.043655,-5.8118982,-33.00523,19.511049,-34.800861,1.5761362,-34.06456,-6.2411857,-13.262117,-176.58276,-40.431244,18.719734,-40.166965,-83.0896,-32.990284,19.853313,-40.385967,18.731375,-16.134754,20.666117,-34.397343,1.081663,-34.885612,1.4481916,-40.259762,-83.285751,-34.465183,1.0186508,-16.297173,164.53185
2504000000,-16.960617,17.754137,-34.128635,-6.8632965,-32.919319,19.274139,-34.923916,1.035643,-34.146893,-7.3390322,-13.227225,-176.70284,-40.550888,17.381742,-40.080135,-85.737801,-32.89962,19.622599,-40.505184,17.421022,-16.082886,20.26112,-34.414871,0.33117703,-35.002674,0.93619144,-40.179863,-85.931755,-34.484665,0.24756664,-16.274858,164.06154
2504500000,-16.938,17.326077,-34.201347,-7.9238605,-32.812489,19.052921,-35.038818,0.63328093,-34.221069,-8.4371138,-13.195154,-176.83769,-40.691986,15.945328,-39.992096,-88.609055,-32.786892,19.380352,-40.647312,15.977934,-16.029558,19.870165,-34.427273,-0.31241718,-35.115685,0.57174957,-40.094406,-88.777451,-34.498573,-0.39374897,-16.249262,163.58641
2505000000,-16.911863,16.892572,-34.264214,-9.0258951,-32.680477,18.777861,-35.134132,0.37637815,-34.283661,-9.5797625,-13.166818,-176.98328,-40.864594,14.498905,-39.907684,-91.723648,-32.652279,19.105331,-40.818325,14.550494,-15.974856,19.468765,-34.423145,-0.87541437,-35.206928,0.33405864,-40.012642,-91.886574,-34.49823,-0.97283024,-16.225094,163.06743
2505500000,-16.884832,16.427671,-34.324619,-10.150079,-32.52282,18.375931,-35.211639,0.18444364,-34.347744,-10.72543,-13.13885,-177.11615,-41.073368,13.090763,-39.844078,-95.10627,-32.48962,18.676758,-41.026123,13.124728,-15.917979,19.064072,-34.398369,-1.4506984,-35.277355,0.13192736,-39.948761,-95.257523,-34.477867,-1.5452292,-16.200466,162.52925
2506000000,-16.859882,15.942675,-34.381218,-11.357066,-32.353951,17.802513,-35.278397,0.0098220222,-34.407112,-11.959805,-13.114218,-177.25298,-41.309048,11.713055,-39.806839,-98.770172,-32.319267,18.06893,-41.260876,11.718956,-15.861582,18.660538,-34.356224,-2.0589726,-35.336617,-0.049007747,-39.912075,-98.898018,-34.439678,-2.1492999,-16.176035,161.95065
2506500000,-16.837034,15.453911,-34.444248,-12.664718,-32.180374,17.056547,-35.32338,-0.03700776,-34.47361,-13.270125,-13.092147,-177.39247,-41.586037,10.399719,-39.806091,-102.67172,-32.143661,17.309101,-41.536617,10.4239,-15.804079,18.253071,-34.309067,-2.7370152,-35.376266,-0.10600778,-39.909454,-102.78871,-34.392426,-2.8002312,-16.153076,161.3466
2507000000,-16.820179,14.959057,-34.518421,-13.959711,-32.005642,16.120993,-35.337967,-0.081544861,-34.557045,-14.565099,-13.070216,-177.50063,-41.919266,9.3607101,-39.856983,-106.73077,-31.970245,16.347351,-41.861702,9.3610401,-15.745653,17.839895,-34.248688,-3.4350147,-35.384281,-0.16157745,-39.961391,-106.90496,-34.334518,-3.4900043,-16.133829,160.71042
2507500000,-16.799997,14.489789,-34.600922,-15.21475,-31.841345,15.000124,-35.325054,-0.19353953,-34.642857,-15.821891,-13.050708,-177.61162,-42.281067,8.6908131,-39.964001,-110.91291,-31.807276,15.224149,-42.214989,8.6619978,-15.686528,17.425434,-34.177612,-4.2221904,-35.370461,-0.32650149,-40.067253,-111.05795,-34.262577,-4.2665706,-16.116997,160.05292
2508000000,-16.785166,14.008777,-34.687477,-16.469566,-31.695358,13.734611,-35.301586,-0.42306733,-34.732216,-17.068867,-13.030098,-177.70146,-42.65308,8.4360304,-40.122627,-115.09063,-31.65951,13.959044,-42.58474,8.391942,-15.629648,17.011139,-34.103992,-5.1016026,-35.346401,-0.56484944,-40.229294,-115.2492,-34.191006,-5.15273,-16.104795,159.37924
2508500000,-16.77219,13.525825,-34.777992,-17.656446,-31.571159,12.387706,-35.27322,-0.69839895,-34.82383,-18.229836,-13.008046,-177.77039,-43.022438,8.5959883,-40.325436,-119.2207,-31.53233,12.620202,-42.948933,8.506834,-15.570888,16.608751,-34.029243,-6.0536485,-35.316864,-0.86051506,-40.436932,-119.3765,-34.115093,-6.1147323,-16.096272,158.68816
2509000000,-16.767555,13.025718,-34.866318,-18.819294,-31.460451,11.001427,-35.239357,-0.96790695,-34.912731,-19.386805,-12.987465,-177.85394,-43.376362,9.2727213,-40.579643,-123.24029,-31.420227,11.217307,-43.29995,9.176281,-15.51128,16.205471,-33.95462,-7.0705423,-35.283577,-1.143816,-40.693687,-123.37103,-34.043491,-7.1446052,-16.090536,157.9986
2509500000,-16.767788,12.540317,-34.955032,-19.996862,-31.370485,9.5734539,-35.191032,-1.2288148,-35.00058,-20.5282,-12.963525,-177.92644,-43.673576,10.320928,-40.867947,-127.14021,-31.327187,9.8068008,-43.598743,10.198762,-15.450426,15.806299,-33.883327,-8.1364241,-35.232979,-1.4331572,-40.983765,-127.23938,-33.975052,-8.2190571,-16.088844,157.30237
2510000000,-16.778605,12.066792,-35.050304,-21.176777,-31.294218,8.1598711,-35.122295,-1.5483834,-35.087791,-21.694309,-12.937416,-177.98524,-43.918636,11.539743,-41.189789,-130.89734,-31.249952,8.3718634,-43.848423,11.3774,-15.388773,15.409458,-33.811726,-9.2521935,-35.165268,-1.7692494,-41.306938,-130.97105,-33.908096,-9.3243847,-16.092226,156.59816
2510500000,-16.800577,11.608177,-35.152634,-22.318005,-31.232328,6.7467151,-35.039268,-1.9595354,-35.186195,-22.83799,-12.912051,-178.05978,-44.122417,12.98253,-41.536324,-134.50664,-31.183466,6.9463682,-44.050495,12.82638,-15.326978,14.997711,-33.737305,-10.421963,-35.080215,-2.211621,-41.651955,-134.57274,-33.839863,-10.479757,-16.096933,155.92885
2511000000,-16.824945,11.200604,-35.261879,-23.376102,-31.182325,5.3438873,-34.946911,-2.4769242,-35.294605,-23.914427,-12.885612,-178.12654,-44.242813,14.630653,-41.903332,-137.96014,-31.134581,5.5295949,-44.175751,14.465106,-15.263131,14.578588,-33.663391,-11.659546,-34.990505,-2.7526784,-42.014328,-138.0235,-33.769073,-11.71203,-16.106226,155.25485
2511500000,-16.851801,10.840689,-35.365505,-24.29567,-31.141212,4.0027022,-34.851402,-3.1030595,-35.3937,-24.867464,-12.857374,-178.18097,-44.282951,16.122015,-42.28709,-141.30606,-31.09412,4.1505208,-44.215126,15.942418,-15.200609,14.146785,-33.59185,-13.010432,-34.897377,-3.4025235,-42.398861,-141.41949,-33.701191,-13.023202,-16.119425,154.60298
2512000000,-16.880222,10.51322,-35.449287,-25.183622,-31.100393,2.6663074,-34.751034,-3.7826097,-35.478928,-25.762894,-12.827973,-178.25368,-44.266037,17.339846,-42.70155,-144.56023,-31.054012,2.8143914,-44.197929,17.137032,-15.143018,13.685763,-33.53706,-14.425062,-34.800922,-4.1145811,-42.804104,-144.65179,-33.647106,-14.425232,-16.135826,153.97148
2512500000,-16.906218,10.205464,-35.519924,-26.095835,-31.075615,1.3313795,-34.649395,-4.5328455,-35.551544,-26.688128,-12.798997,-178.33139,-44.205418,18.395117,-43.127777,-147.66756,-31.030333,1.4794271,-44.147427,18.195908,-15.085782,13.238208,-33.491016,-15.830225,-34.70179,-4.8793135,-43.232143,-147.76862,-33.600937,-15.804604,-16.152187,153.37788
2513000000,-16.930607,9.9022512,-35.585388,-27.027761,-31.054873,0.043979667,-34.533508,-5.3618426,-35.618587,-27.623631,-12.768965,-178.39967,-44.100361,19.074043,-43.5756,-150.65294,-31.009687,0.21583878,-44.042225,18.865021,-15.031156,12.782472,-33.452663,-17.269922,-34.588726,-5.7064667,-43.676365,-150.77336,-33.560722,-17.210173,-16.169441,152.79979
2513500000,-16.957441,9.6066351,-35.643726,-28.027411,-31.038061,-1.2006348,-34.410141,-6.326685,-35.677807,-28.618183,-12.738962,-178.47697,-43.975937,19.20747,-44.034996,-153.38913,-30.991945,-1.0221781,-43.914604,19.020979,-14.980167,12.323071,-33.423138,-18.700686,-34.468662,-6.6699405,-44.137699,-153.56992,-33.529228,-18.622379,-16.187704,152.24753
2514000000,-16.989798,9.3069143,-35.704853,-29.079285,-31.02103,-2.4190648,-34.28727,-7.4451828,-35.736778,-29.67679,-12.708188,-178.55844,-43.872711,18.858316,-44.486225,-156.04764,-30.974638,-2.2311711,-43.809135,18.697454,-14.929478,11.870922,-33.393246,-20.11657,-34.349689,-7.7930169,-44.588078,-156.27443,-33.49847,-20.025629,-16.206194,151.70731
2514500000,-17.023794,9.0438271,-35.768528,-30.204248,-31.005701,-3.6215038,-34.169342,-8.7076311,-35.798256,-30.815533,-12.678081,-178.64493,-43.822662,18.01281,-44.951694,-158.73468,-30.957048,-3.4503901,-43.753101,17.884428,-14.882013,11.422651,-33.365807,-21.557768,-34.236557,-9.0413132,-45.042782,-159.01851,-33.467667,-21.459694,-16.222574,151.20309
2515000000,-17.062202,8.8167725,-35.845657,-31.339815,-30.998732,-4.8289404,-34.061344,-10.10253,-35.874237,-31.960976,-12.64817,-178.73221,-43.849361,17.127277,-45.431164,-161.31413,-30.94644,-4.6521988,-43.765148,16.947212,-14.8349,10.981271,-33.34351,-23.02883,-34.132786,-10.422797,-45.522301,-161.68871,-33.446552,-22.908386,-16.236536,150.7184
2515500000,-17.1078,8.6331644,-35.924469,-32.428665,-30.993675,-6.0097919,-33.965885,-11.60483,-35.954231,-33.074348,-12.619168,-178.82349,-43.919815,16.348728,-45.921032,-163.86394,-30.941416,-5.8460369,-43.821293,16.115082,-14.788686,10.553195,-33.327427,-24.480137,-34.038883,-11.909393,-46.009796,-164.29543,-33.424732,-24.358894,-16.247149,150.25516
2516000000,-17.159704,8.5048161,-36.007641,-33.567699,-30.994238,-7.1432934,-33.885544,-13.225294,-36.043697,-34.238277,-12.588255,-178.90334,-44.021938,15.580073,-46.429737,-166.53273,-30.943283,-6.9943185,-43.919128,15.300444,-14.742646,10.132824,-33.305317,-25.999386,-33.957752,-13.51175,-46.530396,-167.01947,-33.401352,-25.857477,-16.255747,149.76746
2516500000,-17.214018,8.4806108,-36.11042,-34.712509,-30.995562,-8.2220421,-33.826595,-14.917192,-36.149918,-35.40062,-12.557047,-178.98865,-44.153511,14.93049,-46.993465,-168.99814,-30.945808,-8.080411,-44.053764,14.504616,-14.696086,9.7111387,-33.2934,-27.569155,-33.900295,-15.192423,-47.122166,-169.58054,-33.385811,-27.416883,-16.261059,149.32249
2517000000,-17.265879,8.5411634,-36.228592,-35.672867,-30.99272,-9.3029909,-33.792751,-16.616896,-36.273117,-36.346409,-12.526258,-179.08826,-44.303265,14.306005,-47.569778,-171.09978,-30.943304,-9.1341333,-44.202389,13.75038,-14.651785,9.2931232,-33.29509,-29.159208,-33.868538,-16.885296,-47.703682,-171.78001,-33.38657,-29.018917,-16.264393,148.86761
2517500000,-17.320414,8.6799908,-36.339481,-36.605568,-30.992161,-10.285777,-33.774597,-18.343212,-36.387821,-37.271965,-12.492908,-179.17538,-44.533176,13.767285,-48.169136,-173.07028,-30.945433,-10.107868,-44.438503,13.109962,-14.607805,8.8917799,-33.312122,-30.735117,-33.850594,-18.596401,-48.303802,-173.91435,-33.400097,-30.600126,-16.265062,148.40253
2518000000,-17.366306,8.9193535,-36.446613,-37.415157,-30.977757,-11.240554,-33.776474,-20.035334,-36.497356,-38.060284,-12.459501,-179.27875,-44.79726,13.707399,-48.761871,-174.84045,-30.929998,-11.05751,-44.706718,12.925991,-14.564757,8.5073233,-33.338043,-32.247181,-33.854202,-20.272354,-48.9174,-175.80121,-33.424267,-32.141037,-16.26322,147.93913
2518500000,-17.402922,9.2434731,-36.543789,-38.208134,-30.952774,-12.239547,-33.796436,-21.66584,-36.598373,-38.814369,-12.426102,-179.39458,-45.052692,14.047568,-49.359318,-176.37274,-30.904757,-12.038116,-44.981613,13.197688,-14.521552,8.1394281,-33.366364,-33.702671,-33.875546,-21.877789,-49.524628,-177.27007,-33.449772,-33.600292,-16.258369,147.44243
2519000000,-17.427277,9.6123447,-36.638477,-38.941563,-30.927517,-13.320044,-33.830109,-23.200174,-36.692368,-39.527401,-12.391383,-179.50996,-45.311184,14.561144,-49.935814,-177.84511,-30.877386,-13.102156,-45.264877,13.649354,-14.476855,7.783792,-33.394524,-35.133266,-33.907818,-23.377975,-50.138374,-178.64037,-33.476276,-35.0588,-16.251778,146.92944
2519500000,-17.435589,10.017005,-36.724808,-39.656322,-30.904964,-14.44177,-33.865696,-24.590693,-36.775528,-40.247353,-12.357253,-179.64221,-45.587311,15.515248,-50.516354,-179.13432,-30.854845,-14.230433,-45.55835,14.639547,-14.429703,7.4371977,-33.424641,-36.583382,-33.944168,-24.760628,-50.739506,-179.76195,-33.506645,-36.503296,-16.244585,146.40233
2520000000,-17.431942,10.41478,-36.810482,-40.390442,-30.891888,-15.569751,-33.893093,-25.891874,-36.857769,-40.964615,-12.324481,-179.79031,-45.830589,16.888277,-51.120411,179.6333,-30.838839,-15.359052,-45.826378,16.11821,-14.382067,7.0988045,-33.455769,-37.999107,-33.97081,-26.052376,-51.352234,179.36102,-33.537704,-37.935841,-16.239214,145.85576
2520500000,-17.414757,10.80504,-36.894253,-41.059158,-30.879446,-16.662012,-33.909428,-27.209694,-36.938755,-41.646156,-12.289799,-179.93546,-46.035084,18.615625,-51.696285,178.88161,-30.823681,-16.440159,-46.045074,17.914885,-14.332192,6.7583675,-33.491745,-39.419498,-33.982071,-27.324404,-51.920658,178.77548,-33.571907,-39.349899,-16.233675,145.29889
2521000000,-17.39044,11.171491,-36.970917,-41.67202,-30.86298,-17.748974,-33.920235,-28.533718,-37.012962,-42.297192,-12.258906,179.8871,-46.191322,20.586008,-52.237019,178.32672,-30.809038,-17.526506,-46.209194,19.982761,-14.280123,6.4132051,-33.529392,-40.773575,-33.989693,-28.655277,-52.422195,178.3519,-33.607075,-40.730934,-16.230099,144.73781
2521500000,-17.352262,11.510985,-37.040852,-42.261986,-30.840839,-18.810923,-33.922264,-29.900185,-37.078617,-42.916965,-12.227392,179.70467,-46.304241,22.676826,-52.698376,177.94528,-30.784981,-18.600986,-46.332874,22.185905,-14.227582,6.0461526,-33.559696,-42.154404,-33.988708,-30.008717,-52.839573,178.07799,-33.637676,-42.124676,-16.228886,144.16315
2522000000,-17.305559,11.816055,-37.10199,-42.809666,-30.812119,-19.941891,-33.921478,-31.374939,-37.146198,-43.517925,-12.196161,179.50905,-46.380627,25.125477,-53.019428,177.22261,-30.756178,-19.74221,-46.403858,24.693789,-14.173935,5.6679382,-33.596806,-43.588291,-33.985332,-31.496855,-53.1399,177.3416,-33.671944,-43.569824,-16.231112,143.58014
2522500000,-17.25016,12.084294,-37.140091,-43.310631,-30.783627,-21.124201,-33.92804,-32.953655,-37.187778,-44.075348,-12.167868,179.29373,-46.365643,27.670576,-53.279476,175.76595,-30.726864,-20.910254,-46.387203,27.253819,-14.123299,5.2729473,-33.641384,-45.002983,-33.990749,-33.087513,-53.356216,175.70691,-33.717842,-45.008682,-16.235039,142.99722
2523000000,-17.185654,12.314812,-37.161545,-43.947918,-30.752028,-22.339737,-33.947853,-34.630844,-37.216335,-44.731831,-12.142685,179.0638,-46.283054,30.047798,-53.523285,173.32822,-30.694408,-22.139317,-46.318966,29.659502,-14.072462,4.877779,-33.688606,-46.42786,-34.008438,-34.786942,-53.560963,173.18871,-33.767166,-46.462433,-16.240891,142.42326
2523500000,-17.113901,12.509918,-37.183796,-44.649536,-30.72435,-23.671457,-33.991135,-36.406376,-37.244396,-45.463165,-12.11908,178.841,-46.157543,32.390091,-53.817356,170.01875,-30.665384,-23.455402,-46.194969,32.094776,-14.023952,4.4746451,-33.746307,-47.861721,-34.051861,-36.562599,-53.812012,169.68671,-33.827721,-47.906937,-16.24902,141.87512
2524000000,-17.037453,12.66861,-37.204479,-45.411201,-30.704901,-25.037067,-34.061386,-38.163246,-37.278011,-46.221279,-12.100413,178.6069,-45.968533,34.491661,-54.176723,165.91678,-30.644739,-24.834261,-46.009838,34.346436,-13.977691,4.0720797,-33.815731,-49.240707,-34.122551,-38.358143,-54.160686,165.44067,-33.900093,-49.2966,-16.258535,141.31808
2524500000,-16.95875,12.777526,-37.231392,-46.155422,-30.692236,-26.475037,-34.156372,-39.877346,-37.309277,-46.993622,-12.08225,178.37761,-45.731823,36.431114,-54.611546,161.50711,-30.63047,-26.273703,-45.769253,36.32275,-13.929543,3.6791646,-33.894356,-50.575581,-34.219917,-40.058041,-54.605354,160.71593,-33.979179,-50.620819,-16.270065,140.78381
2525000000,-16.867773,12.858222,-37.245907,-46.933098,-30.690701,-27.945511,-34.269497,-41.500519,-37.335571,-47.748821,-12.065984,178.14394,-45.490948,37.896275,-55.094692,156.6743,-30.628922,-27.761465,-45.523479,37.839481,-13.880742,3.2854011,-33.973122,-51.828083,-34.333855,-41.7202,-55.128658,155.57304,-34.062687,-51.872257,-16.283644,140.26599
2525500000,-16.774216,12.864407,-37.262901,-47.815434,-30.696745,-29.436897,-34.396133,-43.073887,-37.364254,-48.591732,-12.052648,177.92119,-45.235825,39.641891,-55.652287,151.24565,-30.636326,-29.249363,-45.259174,39.688046,-13.828963,2.8653605,-34.049938,-53.056328,-34.464596,-43.295868,-55.668205,150.01595,-34.14608,-53.078278,-16.297852,139.77039
2526000000,-16.67621,12.794392,-37.282661,-48.677013,-30.718737,-30.984526,-34.54586,-44.536449,-37.388805,-49.41037,-12.041493,177.68698,-44.90736,40.823032,-56.333683,145.95116,-30.657715,-30.822311,-44.929989,40.926563,-13.783115,2.4255555,-34.138607,-54.19305,-34.615562,-44.785183,-56.335648,144.0818,-34.236416,-54.201893,-16.310917,139.30373
2526500000,-16.572111,12.649856,-37.292213,-49.614483,-30.755285,-32.524963,-34.71376,-45.924465,-37.404915,-50.317867,-12.032881,177.45772,-44.599766,41.707375,-56.972496,140.69444,-30.694994,-32.357479,-44.606766,41.819298,-13.740385,1.9922587,-34.225391,-55.260258,-34.785419,-46.172348,-57.000755,138.59407,-34.319454,-55.234367,-16.323996,138.83083
2527000000,-16.46681,12.402891,-37.311478,-50.696888,-30.807423,-34.04443,-34.903561,-47.128315,-37.428268,-51.361816,-12.026958,177.22839,-44.305698,42.331081,-57.493546,135.19385,-30.746027,-33.889622,-44.30563,42.543785,-13.699512,1.5653132,-34.308662,-56.245869,-34.978981,-47.390419,-57.571289,132.92448,-34.401253,-56.206165,-16.335524,138.38339
