!CSV A.01.01
!Keysight Technologies,N5222B,MY58422327,A.13.60.06
!Date: Monday, March 28, 2022 15:44:48
!Source: Standard

BEGIN CH1_DATA
Freq(Hz),S11(DB),S11(DEG),S12(DB),S12(DEG),S13(DB),S13(DEG),S14(DB),S14(DEG),S21(DB),S21(DEG),S22(DB),S22(DEG),S23(DB),S23(DEG),S24(DB),S24(DEG),S31(DB),S31(DEG),S32(DB),S32(DEG),S33(DB),S33(DEG),S34(DB),S34(DEG),S41(DB),S41(DEG),S42(DB),S42(DEG),S43(DB),S43(DEG),S44(DB),S44(DEG)
2500000000,-16.946836,21.349354,-33.206837,5.9861364,-34.208279,26.387978,-33.71188,8.010437,-33.311584,6.2215929,-13.493274,-175.63902,-39.794613,20.225603,-39.484821,-70.030693,-34.169529,25.868624,-39.772789,20.430237,-16.406834,22.870317,-34.623302,7.3506341,-33.748898,7.9453321,-39.603451,-70.137039,-34.710495,7.181541,-16.42857,167.87938
2500500000,-16.934422,20.976864,-33.305336,4.6393185,-34.141327,25.931087,-33.810577,6.6470366,-33.411873,4.860909,-13.452737,-175.73607,-39.879486,18.790411,-39.415203,-71.9235,-34.107349,25.429583,-39.851357,19.020086,-16.356108,22.400551,-34.583393,6.6481013,-33.848011,6.5626783,-39.537727,-71.967056,-34.671711,6.5000515,-16.412729,167.51894
2501000000,-16.919315,20.610573,-33.41468,3.3132887,-34.075829,25.466883,-33.919479,5.3663425,-33.520344,3.5482671,-13.410075,-175.82004,-39.976585,17.281248,-39.350174,-73.947685,-34.039875,25.024088,-39.949516,17.540209,-16.304695,21.933231,-34.546154,5.7852068,-33.960533,5.278306,-39.466709,-73.950218,-34.635525,5.6201754,-16.394636,167.14893
2501500000,-16.900665,20.252737,-33.519852,2.1070046,-34.005184,25.054798,-34.034775,4.2825489,-33.626278,2.3451123,-13.369845,-175.91933,-40.092705,15.862189,-39.289795,-75.998573,-33.971008,24.634346,-40.061275,16.143572,-16.25551,21.469479,-34.522278,4.8256445,-34.078045,4.1557851,-39.406891,-75.981873,-34.608189,4.6437435,-16.372932,166.77652
2502000000,-16.882763,19.861189,-33.621819,0.94480938,-33.926949,24.639278,-34.14695,3.2734926,-33.725281,1.2047712,-13.330437,-176.0177,-40.206432,14.515322,-39.21693,-78.092293,-33.893723,24.258228,-40.179073,14.787515,-16.207712,21.020782,-34.512131,3.7828646,-34.193573,3.124892,-39.333214,-78.115128,-34.603004,3.5807106,-16.350389,166.39014
2502500000,-16.861315,19.464546,-33.718601,-0.17604746,-33.847725,24.216322,-34.26054,2.3731658,-33.822369,0.11257515,-13.290131,-176.11671,-40.318455,13.154835,-39.145195,-80.323807,-33.812748,23.841278,-40.2896,13.422427,-16.161469,20.587118,-34.525997,2.7499635,-34.309784,2.2164624,-39.253788,-80.34301,-34.617615,2.5286012,-16.326757,165.97821
2503000000,-16.836765,19.048407,-33.810463,-1.2351588,-33.769829,23.819508,-34.366982,1.5353808,-33.910378,-0.90496004,-13.252945,-176.24242,-40.428478,11.76295,-39.07613,-82.647552,-33.733822,23.474102,-40.408146,12.032553,-16.114264,20.17038,-34.555286,1.7833878,-34.419788,1.3786446,-39.183083,-82.669006,-34.649937,1.5649897,-16.301476,165.55707
2503500000,-16.817131,18.599079,-33.88578,-2.2493107,-33.688335,23.53743,-34.473701,0.79501379,-33.982487,-1.9052625,-13.216611,-176.36952,-40.53936,10.222868,-38.994614,-85.070045,-33.647087,23.183258,-40.51516,10.534955,-16.06694,19.771572,-34.588913,0.95770127,-34.527905,0.63910633,-39.098995,-85.081711,-34.685692,0.74294072,-16.275297,165.11995
2504000000,-16.79496,18.141146,-33.95649,-3.2566087,-33.582722,23.299135,-34.578884,0.13029544,-34.046509,-2.8989358,-13.180362,-176.49518,-40.66399,8.5964108,-38.912888,-87.600395,-33.542393,22.94759,-40.640976,8.9381685,-16.01771,19.385202,-34.620571,0.20761047,-34.631584,-0.017360736,-39.015465,-87.632141,-34.720592,-0.008646125,-16.249155,164.64244
2504500000,-16.773426,17.677649,-34.01561,-4.2739429,-33.45536,23.08326,-34.673897,-0.4191542,-34.09761,-3.9263957,-13.147011,-176.63699,-40.810219,6.773119,-38.825886,-90.331619,-33.411732,22.72216,-40.785381,7.155695,-15.965504,19.007318,-34.645454,-0.43990204,-34.731628,-0.57482094,-38.926216,-90.375549,-34.747314,-0.63250238,-16.219854,164.1581
2505000000,-16.749071,17.218021,-34.060917,-5.3314071,-33.305069,22.793762,-34.756844,-0.85678494,-34.138081,-5.0079145,-13.116591,-176.7901,-40.997002,4.8941612,-38.739967,-93.330093,-33.259201,22.412411,-40.967106,5.3047113,-15.912784,18.618467,-34.657597,-0.98450142,-34.814461,-1.0026069,-38.841862,-93.373222,-34.760799,-1.1744583,-16.19289,163.62354
2505500000,-16.724682,16.733582,-34.103935,-6.4234529,-33.12772,22.363581,-34.824749,-1.2794399,-34.174419,-6.1495318,-13.087301,-176.93231,-41.226219,3.0188308,-38.677639,-96.558289,-33.07975,21.932055,-41.19566,3.4095402,-15.85737,18.22604,-34.652813,-1.4992131,-34.882957,-1.3994497,-38.777847,-96.609749,-34.755482,-1.6813397,-16.165171,163.069
2506000000,-16.701693,16.24213,-34.13842,-7.6226635,-32.9417,21.74593,-34.888779,-1.6691527,-34.204212,-7.3729401,-13.060969,-177.07971,-41.497383,1.1468966,-38.639172,-100.01187,-32.894207,21.301437,-41.459824,1.552992,-15.801828,17.829826,-34.629883,-2.0286572,-34.941662,-1.7748351,-38.740414,-100.08364,-34.730057,-2.2192059,-16.138597,162.46965
2506500000,-16.679544,15.74587,-34.178379,-8.9649763,-32.750355,20.938814,-34.93391,-1.928753,-34.243233,-8.755722,-13.037689,-177.23386,-41.818302,-0.61462456,-38.632839,-103.71603,-32.705925,20.493935,-41.775188,-0.24588276,-15.745741,17.424665,-34.592251,-2.5785112,-34.985844,-2.020067,-38.731205,-103.78505,-34.694828,-2.7528772,-16.11492,161.84616
2507000000,-16.662249,15.247059,-34.237911,-10.331133,-32.559105,19.933693,-34.957623,-2.170387,-34.300987,-10.170458,-13.014819,-177.36043,-42.199417,-2.1930382,-38.676487,-107.56524,-32.517033,19.470238,-42.156643,-1.7618849,-15.689185,17.015123,-34.541759,-3.1561415,-34.999786,-2.2746465,-38.77425,-107.6308,-34.64798,-3.3284981,-16.095291,161.18782
2507500000,-16.641911,14.770931,-34.306442,-11.695822,-32.382217,18.762556,-34.956673,-2.4800208,-34.370613,-11.577512,-12.99441,-177.48938,-42.632423,-3.3794239,-38.769588,-111.49362,-32.342976,18.302849,-42.592068,-2.9113004,-15.63238,16.603212,-34.478138,-3.8244851,-34.996677,-2.6050563,-38.860737,-111.54917,-34.581161,-4.0141344,-16.079435,160.51424
2508000000,-16.62631,14.280839,-34.39061,-13.054553,-32.221687,17.460489,-34.94688,-2.8490198,-34.45319,-12.963917,-12.973448,-177.59612,-43.089367,-4.1099029,-38.910652,-115.42185,-32.184425,16.989532,-43.046089,-3.6354656,-15.578269,16.190178,-34.407612,-4.5762286,-34.985966,-3.0223224,-39.00354,-115.5014,-34.512638,-4.774683,-16.068178,159.82603
2508500000,-16.612247,13.79386,-34.481693,-14.367216,-32.083408,16.043825,-34.932041,-3.274138,-34.544937,-14.283963,-12.950716,-177.67897,-43.547024,-4.3551908,-39.102005,-119.28956,-32.04525,15.597504,-43.504566,-3.8628523,-15.521122,15.792422,-34.338966,-5.4104753,-34.970528,-3.4801965,-39.196274,-119.4083,-34.442825,-5.5905213,-16.061071,159.12781
2509000000,-16.605873,13.291384,-34.578732,-15.605963,-31.963415,14.61339,-34.91206,-3.6871548,-34.640671,-15.572895,-12.929769,-177.77914,-44.012146,-4.0927901,-39.335552,-123.03767,-31.925144,14.181361,-43.964535,-3.556179,-15.465388,15.390401,-34.265656,-6.2968245,-34.954838,-3.9198196,-39.431973,-123.14793,-34.37616,-6.4930363,-16.056744,158.43703
2509500000,-16.60446,12.803667,-34.679375,-16.821278,-31.859955,13.14133,-34.881996,-4.0817556,-34.740791,-16.793928,-12.90568,-177.86353,-44.432709,-3.3503969,-39.600773,-126.61007,-31.818083,12.760043,-44.385746,-2.7893105,-15.407847,14.998332,-34.187698,-7.2242332,-34.925377,-4.3384786,-39.700127,-126.77847,-34.304115,-7.4186964,-16.05628,157.7439
2510000000,-16.611916,12.321905,-34.785347,-17.965023,-31.769287,11.679881,-34.830704,-4.5062933,-34.846695,-17.988739,-12.879331,-177.93765,-44.805447,-2.283082,-39.889549,-129.98711,-31.725054,11.299528,-44.760422,-1.7282203,-15.348653,14.60969,-34.109425,-8.2080908,-34.876091,-4.7788029,-39.991478,-130.19469,-34.233093,-8.3792973,-16.059952,157.04408
2510500000,-16.630976,11.853042,-34.898697,-19.046618,-31.68955,10.21688,-34.764881,-5.0119972,-34.963745,-19.125622,-12.853704,-178.02843,-45.142097,-0.92726737,-40.200958,-133.23877,-31.644749,9.8211079,-45.105587,-0.27638972,-15.289975,14.208971,-34.027653,-9.223196,-34.81665,-5.3027687,-40.305515,-133.48204,-34.155602,-9.3845015,-16.064745,156.38142
2511000000,-16.651875,11.428486,-35.009106,-19.99461,-31.622974,8.7631102,-34.694225,-5.627347,-35.087574,-20.122412,-12.827438,-178.11005,-45.412025,0.81479883,-40.524811,-136.37369,-31.57749,8.3367987,-45.366264,1.5187987,-15.229489,13.803258,-33.941048,-10.337638,-34.749485,-5.9125786,-40.632687,-136.60391,-34.070782,-10.483293,-16.07387,155.71321
2511500000,-16.67532,11.043732,-35.101437,-20.826843,-31.56476,7.3293223,-34.619129,-6.3249154,-35.196815,-20.958075,-12.79946,-178.17952,-45.60112,2.6390457,-40.855278,-139.40248,-31.521679,6.8817396,-45.538628,3.3634982,-15.168797,13.383346,-33.857887,-11.550899,-34.677361,-6.6022959,-40.97263,-139.66592,-33.991135,-11.666742,-16.086216,155.06313
2512000000,-16.700798,10.686017,-35.177608,-21.638748,-31.507607,5.8944306,-34.541851,-7.071229,-35.284512,-21.744202,-12.770087,-178.26672,-45.702625,4.3323193,-41.213676,-142.2746,-31.465469,5.4288759,-45.619102,5.0868468,-15.113942,12.939652,-33.784206,-12.871998,-34.604309,-7.343442,-41.32473,-142.56914,-33.916653,-12.959219,-16.101755,154.44034
2512500000,-16.724953,10.343618,-35.232426,-22.501835,-31.47043,4.4414153,-34.459713,-7.8623395,-35.353924,-22.53544,-12.741343,-178.35875,-45.748192,5.9764824,-41.570526,-145.03429,-31.430199,3.9794595,-45.652725,6.739799,-15.058558,12.504566,-33.718388,-14.204506,-34.526211,-8.0970974,-41.684124,-145.3802,-33.847847,-14.258297,-16.116396,153.84726
2513000000,-16.749094,10.010275,-35.284538,-23.43914,-31.436708,3.0434198,-34.36599,-8.6862268,-35.412663,-23.376347,-12.711971,-178.44537,-45.713173,7.287128,-41.95121,-147.75862,-31.400595,2.5787835,-45.602364,7.9938521,-15.005853,12.066987,-33.657589,-15.573719,-34.434715,-8.9268055,-42.068146,-148.10286,-33.785172,-15.620228,-16.133289,153.26964
2513500000,-16.775665,9.6863651,-35.322926,-24.459785,-31.410896,1.6630948,-34.25983,-9.6634884,-35.461094,-24.270239,-12.682648,-178.53862,-45.627281,8.0440073,-42.340263,-150.27849,-31.376329,1.1914568,-45.502056,8.6407146,-14.956373,11.628114,-33.606464,-16.967787,-34.331818,-9.8827868,-42.452553,-150.66306,-33.733574,-17.014378,-16.150536,152.71886
2514000000,-16.808556,9.3654718,-35.367462,-25.576097,-31.386263,0.31509578,-34.157818,-10.794367,-35.506153,-25.285305,-12.652968,-178.6348,-45.544682,8.1745882,-42.720207,-152.68166,-31.35424,-0.16697791,-45.416103,8.6118975,-14.906588,11.194667,-33.557613,-18.370594,-34.228279,-10.978593,-42.835804,-153.13617,-33.680435,-18.43152,-16.168373,152.17999
2514500000,-16.842541,9.0864201,-35.424431,-26.790377,-31.369881,-1.0433775,-34.05687,-12.059485,-35.557903,-26.361326,-12.623753,-178.73474,-45.502953,7.7366982,-43.107067,-155.12598,-31.340401,-1.5287055,-45.382603,8.0968618,-14.859447,10.762544,-33.51284,-19.833229,-34.128208,-12.243361,-43.219154,-155.63391,-33.63102,-19.890757,-16.184359,151.68069
2515000000,-16.879068,8.8430529,-35.497589,-28.001852,-31.361141,-2.3729327,-33.967449,-13.456045,-35.619545,-27.466366,-12.595279,-178.83597,-45.522045,7.0624967,-43.50489,-157.49953,-31.333349,-2.8628154,-45.412201,7.3031826,-14.812289,10.335968,-33.474209,-21.309357,-34.039047,-13.612997,-43.62624,-158.08449,-33.594952,-21.367144,-16.197376,151.2021
2515500000,-16.923195,8.6401873,-35.576824,-29.184668,-31.358492,-3.6908798,-33.892166,-14.934767,-35.680538,-28.571901,-12.567217,-178.93987,-45.593491,6.3275847,-43.906979,-159.86096,-31.334253,-4.1791792,-45.50333,6.6175022,-14.765494,9.9192934,-33.440178,-22.77421,-33.963181,-15.085446,-44.041634,-160.51993,-33.559345,-22.859095,-16.207146,150.74721
2516000000,-16.972538,8.4945526,-35.666794,-30.398666,-31.364546,-4.9375024,-33.828983,-16.503649,-35.751431,-29.755478,-12.537248,-179.02924,-45.709545,5.5898032,-44.346981,-162.25905,-31.3449,-5.4197116,-45.627621,5.846334,-14.719211,9.508317,-33.404716,-24.300793,-33.900436,-16.652277,-44.475204,-163.04262,-33.52766,-24.387226,-16.213449,150.27328
2516500000,-17.023581,8.4376898,-35.777401,-31.584824,-31.372904,-6.1068177,-33.785572,-18.152555,-35.841187,-30.946041,-12.507365,-179.12685,-45.876534,4.7810535,-44.833134,-164.4509,-31.356466,-6.5930347,-45.806984,5.0896411,-14.672961,9.0898952,-33.375053,-25.888968,-33.85791,-18.268669,-44.974831,-165.31952,-33.503239,-25.981535,-16.215908,149.83591
2517000000,-17.071939,8.4621954,-35.90097,-32.562737,-31.374731,-7.2649546,-33.764923,-19.8055,-35.950077,-31.98107,-12.477755,-179.24277,-46.089935,4.0190682,-45.315815,-166.27248,-31.360918,-7.7282252,-46.008339,4.3452587,-14.62859,8.6763744,-33.364597,-27.504324,-33.83746,-19.912807,-45.469936,-167.21454,-33.492222,-27.612431,-16.215729,149.38182
2517500000,-17.124617,8.5599174,-36.017086,-33.502838,-31.380714,-8.328618,-33.757195,-21.471914,-36.054703,-32.989079,-12.446597,-179.34778,-46.406609,3.3891795,-45.799068,-167.95067,-31.369131,-8.7656145,-46.317493,3.7123487,-14.585342,8.277338,-33.364422,-29.126495,-33.826721,-21.549541,-45.975281,-168.98466,-33.495552,-29.226824,-16.213213,148.91605
2518000000,-17.16927,8.7523098,-36.130051,-34.318813,-31.370169,-9.3549471,-33.766994,-23.113152,-36.16087,-33.83992,-12.415974,-179.46956,-46.778629,3.2328439,-46.272148,-169.40729,-31.359879,-9.763526,-46.689667,3.6019905,-14.543381,7.8952155,-33.375797,-30.691517,-33.833897,-23.168318,-46.461586,-170.54648,-33.50602,-30.798313,-16.208412,148.44621
2518500000,-17.206707,9.0288191,-36.23288,-35.094093,-31.351025,-10.4247,-33.792999,-24.711226,-36.257244,-34.659389,-12.385497,-179.59396,-47.15704,3.6869302,-46.718956,-170.84369,-31.339445,-10.796293,-47.062962,4.0254393,-14.501121,7.5336366,-33.388695,-32.218918,-33.857956,-24.752033,-46.937057,-171.90921,-33.523434,-32.309074,-16.201073,147.94508
2519000000,-17.231785,9.3588562,-36.327801,-35.814831,-31.331419,-11.560258,-33.832367,-26.209055,-36.353031,-35.447693,-12.35384,-179.71584,-47.560978,4.4184294,-47.16201,-172.11531,-31.315084,-11.892283,-47.471329,4.823431,-14.45794,7.1836286,-33.403542,-33.752312,-33.892864,-26.259045,-47.403553,-173.20999,-33.54039,-33.820797,-16.191307,147.42621
2519500000,-17.240917,9.7231674,-36.417946,-36.521908,-31.315916,-12.7378,-33.875332,-27.595318,-36.44062,-36.213848,-12.322065,-179.84737,-47.967834,5.862802,-47.595718,-173.40195,-31.29384,-13.073628,-47.895142,6.2924604,-14.411795,6.8450632,-33.419781,-35.300549,-33.933506,-27.658281,-47.86097,-174.56863,-33.559662,-35.323982,-16.180706,146.89111
2520000000,-17.239595,10.087843,-36.502491,-37.238228,-31.305851,-13.910192,-33.910618,-28.912979,-36.527237,-36.972404,-12.291655,-179.99562,-48.357811,7.897151,-48.047367,-174.62587,-31.277924,-14.263676,-48.291756,8.4825439,-14.364665,6.5138645,-33.443489,-36.830502,-33.968201,-28.971058,-48.323257,-175.78279,-33.583725,-36.823322,-16.171213,146.33281
2520500000,-17.224659,10.445206,-36.587463,-37.875908,-31.294313,-15.062802,-33.935959,-30.209743,-36.615711,-37.666203,-12.259465,179.8632,-48.683102,10.45873,-48.484386,-175.6041,-31.265026,-15.433352,-48.614506,11.232615,-14.315848,6.1825962,-33.475071,-38.328674,-33.991344,-30.281694,-48.789387,-176.8069,-33.61174,-38.312546,-16.163258,145.75697
2521000000,-17.201593,10.779674,-36.666241,-38.496944,-31.280363,-16.210775,-33.959633,-31.54538,-36.70015,-38.284248,-12.230329,179.69054,-48.951015,13.306786,-48.896713,-176.52953,-31.251293,-16.61237,-48.865074,14.24634,-14.26362,5.8448143,-33.507233,-39.814709,-34.013294,-31.62212,-49.233894,-177.75934,-33.642647,-39.757641,-16.156389,145.17216
2521500000,-17.165094,11.090231,-36.738972,-39.113331,-31.263599,-17.35323,-33.977665,-32.896389,-36.777832,-38.888168,-12.199662,179.51216,-49.166142,16.464767,-49.295666,-177.37314,-31.23381,-17.792156,-49.050457,17.442001,-14.211037,5.4835,-33.536701,-41.307549,-34.029392,-32.966793,-49.644066,-178.49493,-33.672264,-41.202785,-16.15296,144.5719
2522000000,-17.119049,11.361317,-36.80883,-39.629826,-31.240355,-18.556374,-33.99445,-34.33733,-36.851677,-39.405098,-12.169305,179.31766,-49.33498,20.177576,-49.605339,-178.27444,-31.214506,-19.029074,-49.181068,21.168438,-14.157781,5.1090441,-33.571869,-42.844193,-34.04578,-34.413307,-50.010368,-179.34604,-33.705784,-42.730968,-16.153263,143.95755
2522500000,-17.065199,11.601136,-36.853344,-40.114212,-31.217068,-19.805923,-34.019306,-35.852772,-36.898155,-39.842396,-12.141726,179.10143,-49.348537,24.094475,-49.907066,-179.57964,-31.19647,-20.284702,-49.172768,25.046749,-14.107018,4.7181268,-33.619297,-44.39201,-34.069164,-35.939762,-50.335983,179.43771,-33.750549,-44.23838,-16.157116,143.34435
2523000000,-17.001926,11.798445,-36.880947,-40.667477,-31.190985,-21.122639,-34.054214,-37.441833,-36.924644,-40.366688,-12.11724,178.87016,-49.258034,27.868622,-50.179588,178.73573,-31.175262,-21.594568,-49.065063,28.787912,-14.056662,4.3219662,-33.675972,-45.942055,-34.103699,-37.525604,-50.629234,177.92357,-33.802467,-45.771992,-16.163895,142.73982
2523500000,-16.931303,11.957621,-36.907734,-41.27832,-31.17251,-22.524725,-34.105694,-39.086075,-36.944668,-41.000607,-12.094654,178.64696,-49.096519,31.583372,-50.49329,176.48695,-31.158375,-23.00559,-48.877178,32.311245,-14.008201,3.9229248,-33.748806,-47.460335,-34.155647,-39.186745,-50.953327,175.88025,-33.870338,-47.281731,-16.173582,142.16447
2524000000,-16.85729,12.075138,-36.929676,-41.961369,-31.163187,-23.973774,-34.180569,-40.74971,-36.962708,-41.676014,-12.077122,178.41049,-48.831154,35.037868,-50.85236,174.03932,-31.150146,-24.458015,-48.600258,35.571373,-13.962447,3.5218596,-33.832233,-48.903,-34.229012,-40.874809,-51.30302,173.37057,-33.951447,-48.720818,-16.184717,141.58942
2524500000,-16.781404,12.143953,-36.945091,-42.634434,-31.160389,-25.480886,-34.279388,-42.356361,-36.97578,-42.383911,-12.060486,178.18233,-48.48534,38.064133,-51.2705,171.53563,-31.150717,-25.964048,-48.253822,38.322319,-13.914229,3.1299367,-33.924347,-50.242001,-34.326859,-42.484333,-51.722466,170.88799,-34.040237,-50.065193,-16.198633,141.04619
2525000000,-16.693605,12.185869,-36.950218,-43.387119,-31.174068,-27.038273,-34.388657,-43.897507,-36.979031,-43.182842,-12.045988,177.95494,-48.12788,40.338017,-51.704575,168.90587,-31.164213,-27.536453,-47.914585,40.414627,-13.865507,2.7312498,-34.018265,-51.485664,-34.439713,-44.033775,-52.161175,168.24388,-34.129124,-51.32122,-16.214262,140.51685
2525500000,-16.603901,12.154152,-36.960732,-44.275719,-31.193678,-28.589119,-34.516533,-45.409786,-36.987141,-44.130322,-12.033468,177.73834,-47.755207,42.901268,-52.191292,165.96199,-31.18527,-29.104727,-47.552914,42.897087,-13.814595,2.308521,-34.106274,-52.656963,-34.567276,-45.535454,-52.648304,165.35667,-34.214596,-52.505749,-16.229948,140.01773
2526000000,-16.510334,12.049269,-36.97588,-45.125607,-31.230932,-30.192709,-34.665195,-46.839958,-37.004524,-45.051224,-12.02322,177.50978,-47.296371,44.718758,-52.722145,163.23538,-31.223618,-30.726498,-47.103012,44.586773,-13.770123,1.8634052,-34.200508,-53.754723,-34.714592,-46.9757,-53.197998,162.53812,-34.305698,-53.617683,-16.245335,139.54616
2526500000,-16.411579,11.871121,-36.985123,-46.080593,-31.280788,-31.780037,-34.834057,-48.185745,-37.021843,-46.069393,-12.01488,177.28679,-46.854279,46.018711,-53.233521,160.71227,-31.277155,-32.332325,-46.677212,45.808479,-13.72905,1.4283652,-34.28846,-54.786949,-34.885418,-48.318302,-53.70961,159.95827,-34.388901,-54.644218,-16.260073,139.0703
2527000000,-16.312336,11.600559,-37.008053,-47.158413,-31.347605,-33.354061,-35.026978,-49.358158,-37.052082,-47.16449,-12.008941,177.06233,-46.428364,47.02021,-53.713139,158.06917,-31.348263,-33.92392,-46.283569,46.77248,-13.690319,0.99954611,-34.371181,-55.750275,-35.079784,-49.512306,-54.194649,157.15889,-34.469814,-55.617989,-16.272635,138.62231
