!CSV A.01.01
!Keysight Technologies,N5222B,MY58422327,A.13.60.06
!Date: Monday, March 28, 2022 15:20:59
!Source: Standard

BEGIN CH1_DATA
Freq(Hz),S11(DB),S11(DEG),S12(DB),S12(DEG),S13(DB),S13(DEG),S14(DB),S14(DEG),S21(DB),S21(DEG),S22(DB),S22(DEG),S23(DB),S23(DEG),S24(DB),S24(DEG),S31(DB),S31(DEG),S32(DB),S32(DEG),S33(DB),S33(DEG),S34(DB),S34(DEG),S41(DB),S41(DEG),S42(DB),S42(DEG),S43(DB),S43(DEG),S44(DB),S44(DEG)
2500000000,-17.098675,23.927471,-32.812115,19.208435,-35.399082,15.119056,-31.169199,5.5991116,-32.856548,19.119965,-13.487431,-175.68681,-41.09943,12.719815,-45.836731,-71.016777,-35.36142,14.98454,-40.986534,12.787644,-16.4104,23.163191,-37.418983,19.96792,-31.218529,5.4416752,-45.851257,-70.996765,-37.510918,19.78293,-16.494692,164.93068
2500500000,-17.081469,23.585327,-32.904221,17.826225,-35.361397,14.728844,-31.237038,4.2210712,-32.94828,17.725317,-13.445982,-175.78204,-41.246567,11.646535,-45.775887,-73.54258,-35.32806,14.590368,-41.140911,11.693973,-16.355299,22.684185,-37.37542,19.37668,-31.285818,4.0417218,-45.782463,-73.540932,-37.467751,19.204527,-16.485743,164.55789
2501000000,-17.06229,23.249439,-33.007374,16.453281,-35.316978,14.298223,-31.312729,2.8734787,-33.052444,16.345675,-13.402775,-175.86311,-41.405659,10.535571,-45.719387,-76.227142,-35.28548,14.180137,-41.301556,10.561646,-16.298615,22.201948,-37.337967,18.633217,-31.363119,2.6793637,-45.722878,-76.297867,-37.435211,18.473331,-16.475866,164.17204
2501500000,-17.038244,22.931038,-33.107555,15.188565,-35.270458,13.912287,-31.397978,1.62152,-33.152767,15.061236,-13.362206,-175.9576,-41.586056,9.5416079,-45.682365,-78.810898,-35.238144,13.803197,-41.488991,9.5823002,-16.245314,21.704758,-37.317627,17.83749,-31.45183,1.4128914,-45.687225,-78.962875,-37.413761,17.689453,-16.463488,163.78439
2502000000,-17.01498,22.583506,-33.208313,13.968264,-35.21825,13.549313,-31.48698,0.4148235,-33.252636,13.83683,-13.322026,-176.05121,-41.774796,8.6702642,-45.620632,-81.375053,-35.185162,13.438044,-41.677567,8.7429132,-16.19466,21.211056,-37.315376,17.03248,-31.541958,0.19179359,-45.628143,-81.505493,-37.414932,16.889221,-16.451,163.38292
2502500000,-16.986752,22.228846,-33.303051,12.796622,-35.159542,13.156967,-31.581303,-0.71384645,-33.349895,12.651572,-13.280803,-176.14485,-41.943867,7.9944768,-45.536991,-83.927063,-35.127769,13.049631,-41.848038,8.1035881,-16.148968,20.727051,-37.331131,16.307529,-31.638685,-0.94001204,-45.541401,-84.078156,-37.428295,16.174824,-16.437801,162.9588
2503000000,-16.955151,21.853952,-33.391846,11.687376,-35.106247,12.841364,-31.67444,-1.7685897,-33.438972,11.534916,-13.242033,-176.26448,-42.095108,7.3309593,-45.41806,-86.687714,-35.075191,12.732757,-42.001163,7.4540606,-16.104284,20.269335,-37.351757,15.73226,-31.736162,-1.9950923,-45.424885,-86.849106,-37.45179,15.609226,-16.424021,162.53111
2503500000,-16.928011,21.445105,-33.463612,10.561161,-35.04002,12.621331,-31.770119,-2.7481201,-33.513615,10.400175,-13.203078,-176.3895,-42.219734,6.573235,-45.268761,-89.475914,-35.01091,12.508975,-42.119637,6.7509198,-16.061533,19.834467,-37.359089,15.365947,-31.834869,-2.9570057,-45.276642,-89.715523,-37.462284,15.268806,-16.409969,162.09221
2504000000,-16.898596,21.022736,-33.533077,9.4203939,-34.952702,12.476546,-31.865334,-3.6505594,-33.586544,9.2682543,-13.164518,-176.51721,-42.340424,5.6674833,-45.080048,-92.553795,-34.925758,12.356057,-42.230759,5.8444967,-16.018419,19.432007,-37.346752,15.068808,-31.929657,-3.8400173,-45.091469,-92.813065,-37.44812,14.99542,-16.395958,161.62241
2504500000,-16.870594,20.594906,-33.595596,8.245492,-34.834595,12.324522,-31.957558,-4.4598336,-33.650806,8.1131611,-13.128629,-176.66313,-42.462669,4.4923816,-44.864807,-96.063644,-34.810509,12.190341,-42.354774,4.6691947,-15.971654,19.053314,-37.302807,14.857443,-32.020569,-4.6205754,-44.888676,-96.347229,-37.408974,14.792846,-16.379353,161.15004
2505000000,-16.839516,20.17387,-33.653198,7.0056953,-34.692184,12.08988,-32.040607,-5.1804714,-33.708862,6.8679194,-13.095772,-176.82593,-42.629585,3.2080653,-44.647865,-100.03419,-34.669319,11.968685,-42.514191,3.3519857,-15.922949,18.669449,-37.235394,14.642986,-32.103065,-5.3428812,-44.669598,-100.31934,-37.340515,14.592688,-16.36434,160.63765
2505500000,-16.80752,19.733456,-33.712067,5.7153311,-34.523792,11.687276,-32.116684,-5.8500071,-33.769947,5.5975208,-13.06414,-176.97865,-42.824657,1.8682755,-44.444645,-104.47999,-34.500942,11.580194,-42.698952,1.9609952,-15.870777,18.291201,-37.136147,14.302382,-32.178043,-6.0070257,-44.473686,-104.80342,-37.237221,14.297622,-16.348827,160.10938
2506000000,-16.776854,19.285206,-33.776962,4.382688,-34.338203,11.10167,-32.182457,-6.4876552,-33.832233,4.2655892,-13.035925,-177.14348,-43.047337,0.41920835,-44.265968,-109.3528,-34.32111,11.004442,-42.929199,0.46512944,-15.817458,17.913528,-37.018711,13.890354,-32.242981,-6.639586,-44.291176,-109.61205,-37.115715,13.888005,-16.333807,159.54617
2506500000,-16.746424,18.840384,-33.848446,2.9660747,-34.155727,10.327302,-32.24231,-7.061832,-33.903,2.8467071,-13.010652,-177.3159,-43.333847,-1.0424615,-44.136833,-114.65035,-34.134071,10.231668,-43.216824,-1.0209408,-15.762242,17.534178,-36.891285,13.30823,-32.299995,-7.2064619,-44.161194,-114.93132,-36.987347,13.323749,-16.320356,158.96466
2507000000,-16.719826,18.398989,-33.936214,1.5454645,-33.965607,9.3305025,-32.283783,-7.5934143,-33.990257,1.4331102,-12.98606,-177.46323,-43.697018,-2.3554645,-44.06366,-120.28111,-33.944828,9.2467585,-43.575981,-2.3757367,-15.704466,17.146357,-36.753708,12.627862,-32.34045,-7.7528906,-44.094868,-120.59184,-36.84457,12.637045,-16.310699,158.35345
2507500000,-16.687403,17.979097,-34.034103,0.16947553,-33.789043,8.1401043,-32.311771,-8.1545,-34.089203,0.023103522,-12.964676,-177.61656,-44.117847,-3.2382286,-44.05827,-126.03954,-33.767361,8.0552139,-44.00481,-3.2586377,-15.646138,16.759268,-36.607136,11.806517,-32.369957,-8.3343945,-44.091049,-126.33568,-36.696854,11.829952,-16.303448,157.73012
2508000000,-16.659035,17.545454,-34.142914,-1.195892,-33.630154,6.7629271,-32.333488,-8.7545691,-34.199612,-1.3544853,-12.943769,-177.75206,-44.575859,-3.6058497,-44.111767,-131.87613,-33.602337,6.6921163,-44.462761,-3.6591928,-15.588849,16.367321,-36.460873,10.849897,-32.392952,-8.9499645,-44.147766,-132.17015,-36.55212,10.853605,-16.299021,157.09898
2508500000,-16.631353,17.115564,-34.254829,-2.530925,-33.491333,5.2757182,-32.355572,-9.3695507,-34.31781,-2.6815829,-12.922545,-177.86478,-45.043503,-3.3945997,-44.209412,-137.66563,-33.464592,5.1927919,-44.939991,-3.4180005,-15.527663,15.985585,-36.320747,9.7785912,-32.416267,-9.5721807,-44.249092,-138.00682,-36.412525,9.7693682,-16.297712,156.45506
2509000000,-16.609476,16.665131,-34.378872,-3.8276107,-33.377419,3.7023332,-32.375061,-9.9591084,-34.442883,-3.9617822,-12.903858,-177.98524,-45.498482,-2.4972341,-44.349281,-143.43037,-33.351494,3.6138496,-45.402637,-2.5567186,-15.46591,15.597004,-36.187408,8.6405859,-32.436798,-10.153089,-44.388527,-143.74049,-36.277649,8.6458092,-16.298006,155.81404
2509500000,-16.590788,16.229261,-34.511417,-5.0837536,-33.285431,2.0981798,-32.385933,-10.501719,-34.577209,-5.1700301,-12.882107,-178.09114,-45.89711,-1.1187419,-44.509018,-149.12961,-33.2593,2.012326,-45.803593,-1.1390806,-15.401233,15.202719,-36.054157,7.4569144,-32.448402,-10.697965,-44.548397,-149.42043,-36.143288,7.4703827,-16.301035,155.16769
2510000000,-16.578764,15.792103,-34.655426,-6.2766914,-33.214382,0.47731715,-32.382622,-11.023322,-34.720753,-6.3308687,-12.85851,-178.18294,-46.230564,0.64827019,-44.693516,-154.76917,-33.185196,0.38298836,-46.136791,0.60201687,-15.335594,14.803277,-35.917747,6.1940637,-32.447853,-11.210292,-44.739494,-155.01653,-36.005146,6.1968579,-16.307512,154.51199
2510500000,-16.577091,15.359244,-34.810555,-7.3169317,-33.165138,-1.1683301,-32.365566,-11.568111,-34.874332,-7.3342724,-12.836426,-178.2858,-46.523846,2.7016664,-44.887936,-160.37,-33.132259,-1.2449526,-46.43021,2.672051,-15.270873,14.376712,-35.778713,4.8587584,-32.429226,-11.758574,-44.942104,-160.62889,-35.866898,4.8646131,-16.314272,153.88765
2511000000,-16.576906,14.963961,-34.965725,-8.178237,-33.132217,-2.7833335,-32.338531,-12.173431,-35.022678,-8.1655331,-12.813304,-178.37788,-46.728367,5.1859307,-45.102108,-166.00023,-33.096756,-2.8747168,-46.636257,5.1137404,-15.205617,13.942566,-35.640491,3.4110801,-32.401253,-12.35198,-45.153263,-166.15961,-35.726555,3.410821,-16.324673,153.25322
2511500000,-16.577806,14.60051,-35.100613,-8.899807,-33.115612,-4.3639345,-32.305714,-12.827165,-35.151855,-8.8475237,-12.788664,-178.45667,-46.818958,7.7098918,-45.3284,-171.63196,-33.08197,-4.4504313,-46.725235,7.6278949,-15.141776,13.490597,-35.50275,1.8116857,-32.368122,-13.003519,-45.376694,-171.74403,-35.586811,1.7944961,-16.337957,152.63033
2512000000,-16.579636,14.252232,-35.214821,-9.5620861,-33.106731,-5.8761644,-32.265602,-13.515352,-35.2584,-9.4933853,-12.763335,-178.55011,-46.789841,10.098238,-45.576946,-177.18045,-33.069767,-5.9615188,-46.708794,10.014969,-15.08391,13.006321,-35.379967,0.049120251,-32.327309,-13.681251,-45.610218,-177.25349,-35.465267,0.027083017,-16.3543,152.02229
2512500000,-16.579494,13.907137,-35.309971,-10.239539,-33.122559,-7.3903418,-32.220284,-14.214432,-35.345406,-10.178644,-12.738539,-178.64368,-46.67778,12.214635,-45.83213,177.18968,-33.082851,-7.4485946,-46.60413,12.105433,-15.026777,12.53831,-35.272121,-1.7600725,-32.284218,-14.381797,-45.858879,177.15782,-35.352619,-1.7987709,-16.371229,151.44156
2513000000,-16.578966,13.559306,-35.392773,-10.960355,-33.140499,-8.7764282,-32.159386,-14.970105,-35.420383,-10.915522,-12.712876,-178.72565,-46.473732,13.73722,-46.106678,171.71458,-33.099392,-8.8469734,-46.414028,13.64172,-14.973701,12.058263,-35.178654,-3.6902061,-32.224117,-15.119843,-46.115837,171.59683,-35.262325,-3.7564688,-16.38953,150.87143
2513500000,-16.580582,13.208646,-35.465645,-11.788749,-33.159599,-10.099383,-32.091522,-15.818869,-35.487686,-11.744309,-12.687758,-178.80888,-46.232883,14.431894,-46.383549,166.41338,-33.117134,-10.194301,-46.16457,14.439806,-14.924079,11.578436,-35.107689,-5.6447473,-32.155338,-15.963114,-46.397049,166.16354,-35.193123,-5.7237906,-16.408962,150.3192
2514000000,-16.588099,12.84915,-35.541992,-12.678751,-33.179924,-11.390723,-32.020229,-16.77964,-35.558006,-12.673966,-12.661237,-178.8905,-45.995522,14.374693,-46.641876,161.39632,-33.141857,-11.489854,-45.925152,14.331199,-14.875976,11.111088,-35.051685,-7.6468563,-32.081776,-16.901308,-46.666412,161.01498,-35.14043,-7.7180977,-16.43018,149.77432
2514500000,-16.597248,12.519591,-35.626289,-13.676348,-33.204708,-12.676208,-31.948372,-17.847925,-35.637623,-13.715827,-12.635007,-178.97466,-45.809887,13.579481,-46.87878,156.26193,-33.165077,-12.761292,-45.739925,13.528092,-14.831581,10.645394,-35.014236,-9.6450977,-32.007122,-17.96357,-46.911236,155.78874,-35.102921,-9.7041016,-16.450607,149.2693
2515000000,-16.609661,12.214772,-35.73505,-14.656835,-33.237438,-13.940002,-31.881054,-19.019333,-35.745346,-14.735957,-12.608536,-179.05455,-45.713459,12.362297,-47.10783,151.16978,-33.197159,-14.014653,-45.643921,12.387099,-14.787717,10.193279,-34.992744,-11.61815,-31.936567,-19.121923,-47.162022,150.69537,-35.083321,-11.692061,-16.469185,148.78458
2515500000,-16.62818,11.940398,-35.852112,-15.571226,-33.275723,-15.161741,-31.821339,-20.277447,-35.860241,-15.676401,-12.581924,-179.13371,-45.687092,11.092846,-47.31337,146.21767,-33.235893,-15.238608,-45.618427,11.107039,-14.745196,9.7558184,-34.980835,-13.525672,-31.87421,-20.376511,-47.385353,145.7849,-35.07428,-13.620119,-16.484755,148.31839
2516000000,-16.651388,11.711749,-35.977787,-16.450365,-33.323803,-16.321701,-31.768452,-21.612656,-35.987953,-16.582928,-12.552629,-179.20032,-45.722649,9.6577539,-47.492645,141.0757,-33.284752,-16.394047,-45.644241,9.669672,-14.702121,9.3348694,-34.96674,-15.458118,-31.820688,-21.722771,-47.570442,140.7234,-35.061138,-15.539161,-16.499311,147.83679
2516500000,-16.676117,11.554681,-36.120148,-17.227291,-33.376339,-17.406591,-31.730734,-23.014803,-36.134861,-17.398779,-12.522636,-179.27473,-45.82489,8.1585026,-47.697735,135.88039,-33.336304,-17.476168,-45.747261,8.1744375,-14.659959,8.911047,-34.96389,-17.444803,-31.780804,-23.141972,-47.77005,135.62611,-35.061375,-17.530642,-16.511318,147.40195
2517000000,-16.699245,11.455245,-36.266369,-17.758636,-33.424255,-18.406546,-31.70912,-24.429083,-36.289284,-17.944571,-12.492414,-179.36761,-45.995411,6.5130839,-47.913368,131.0239,-33.382504,-18.495617,-45.904625,6.6247034,-14.619268,8.5017405,-34.981087,-19.450953,-31.759493,-24.566185,-47.977566,130.8387,-35.078751,-19.549282,-16.521753,146.95998
2517500000,-16.725554,11.408504,-36.400295,-18.189281,-33.478333,-19.28504,-31.695957,-25.852007,-36.427341,-18.377831,-12.459755,-179.45386,-46.29763,5.0988469,-48.098217,126.28021,-33.436108,-19.354578,-46.197727,5.1669369,-14.578567,8.1134844,-35.01445,-21.414921,-31.747051,-25.99345,-48.160095,126.11219,-35.113773,-21.518051,-16.529814,146.51398
2518000000,-16.745966,11.42564,-36.5144,-18.449791,-33.507095,-20.052111,-31.695196,-27.262568,-36.547386,-18.659489,-12.427034,-179.55815,-46.668072,4.2270617,-48.26012,121.62864,-33.465427,-20.124983,-46.567074,4.2411685,-14.538404,7.7490335,-35.058022,-23.340569,-31.745626,-27.416283,-48.325214,121.46923,-35.162331,-23.439861,-16.535151,146.07558
2518500000,-16.76296,11.501259,-36.610676,-18.701775,-33.51305,-20.865856,-31.70689,-28.662237,-36.65168,-18.883541,-12.393971,-179.67354,-47.083225,3.9820294,-48.406826,117.03924,-33.471985,-20.935791,-46.975319,3.8931954,-14.496119,7.4037185,-35.108963,-25.209362,-31.757126,-28.80785,-48.470558,116.95734,-35.214397,-25.280579,-16.537256,145.61678
2519000000,-16.772245,11.614031,-36.692516,-18.877489,-33.50901,-21.79355,-31.726034,-29.997005,-36.737049,-19.026016,-12.35945,-179.7907,-47.537697,3.9413862,-48.545856,112.60169,-33.464882,-21.846874,-47.434483,3.8891997,-14.452184,7.0746126,-35.167309,-27.059036,-31.778105,-30.149382,-48.615078,112.47008,-35.274082,-27.132952,-16.536699,145.1503
2519500000,-16.77075,11.755467,-36.754768,-19.048018,-33.505737,-22.796658,-31.750572,-31.244249,-36.801525,-19.159386,-12.325873,-179.92509,-48.064861,4.7854071,-48.687958,108.25558,-33.463104,-22.871546,-47.963802,4.7639966,-14.403874,6.7543492,-35.236408,-28.903915,-31.80327,-31.407061,-48.749153,108.23148,-35.345482,-28.955156,-16.533344,144.67856
2520000000,-16.761669,11.898893,-36.804325,-19.245026,-33.513599,-23.884869,-31.772453,-32.409885,-36.848145,-19.330648,-12.293895,179.92439,-48.574577,6.6720629,-48.8381,104.05882,-33.46825,-23.967344,-48.459908,6.5456843,-14.352935,6.4372525,-35.319805,-30.69455,-31.8253,-32.592224,-48.883801,104.07108,-35.426235,-30.724825,-16.528511,144.18066
2520500000,-16.74419,12.041997,-36.842083,-19.406143,-33.530968,-24.953581,-31.782555,-33.564724,-36.884518,-19.484705,-12.260563,179.782,-49.044388,9.2779818,-48.981678,100.23601,-33.486641,-25.05084,-48.917969,9.1494598,-14.298612,6.1071057,-35.411976,-32.402168,-31.835175,-33.740456,-49.018013,100.30467,-35.51828,-32.421455,-16.523027,143.65831
2521000000,-16.720991,12.169628,-36.860832,-19.572832,-33.550064,-26.007576,-31.785748,-34.704655,-36.902912,-19.650553,-12.230704,179.60783,-49.426449,12.730968,-49.11776,96.909119,-33.506584,-26.092936,-49.303963,12.512362,-14.241712,5.7624335,-35.508823,-34.013126,-31.841875,-34.90818,-49.145702,97.003563,-35.61084,-34.019131,-16.517853,143.11591
2521500000,-16.688284,12.282104,-36.865875,-19.779949,-33.569138,-27.012211,-31.779535,-35.873798,-36.904488,-19.874271,-12.199786,179.43185,-49.704567,16.634912,-49.239906,94.048691,-33.526573,-27.087608,-49.580067,16.410172,-14.184267,5.3841977,-35.600258,-35.57616,-31.837393,-36.074303,-49.246696,94.238396,-35.696968,-35.577591,-16.51704,142.54767
2522000000,-16.649578,12.367578,-36.85545,-20.023592,-33.584232,-28.027948,-31.763298,-37.131897,-36.894947,-20.105566,-12.168936,179.24176,-49.887798,21.25248,-49.264568,91.830833,-33.53907,-28.136162,-49.781509,20.937529,-14.126198,4.9829221,-35.696636,-37.150898,-31.824671,-37.337681,-49.265919,92.033646,-35.792381,-37.171593,-16.519814,141.96239
2522500000,-16.604641,12.438186,-36.824276,-20.360151,-33.598976,-29.056707,-31.74777,-38.479183,-36.863861,-20.445179,-12.14058,179.03156,-49.860207,26.134401,-49.195774,89.785103,-33.556293,-29.151299,-49.762981,25.730127,-14.071685,4.558075,-35.801735,-38.652363,-31.812237,-38.678589,-49.196842,89.939156,-35.89658,-38.694607,-16.527128,141.36839
2523000000,-16.552214,12.483593,-36.784214,-20.903957,-33.604233,-30.086315,-31.73703,-39.945278,-36.825924,-20.976049,-12.11464,178.80553,-49.716511,30.612663,-49.027626,87.827202,-33.563316,-30.1999,-49.628906,30.180294,-14.018826,4.1212993,-35.908146,-40.142277,-31.803867,-40.131237,-49.022594,87.903122,-36.002823,-40.191227,-16.538513,140.78671
2523500000,-16.494083,12.508711,-36.755753,-21.553358,-33.607483,-31.195339,-31.741741,-41.489166,-36.7957,-21.614658,-12.089736,178.5829,-49.451622,35.00285,-48.77153,85.546684,-33.57048,-31.302719,-49.377651,34.527168,-13.968973,3.6723008,-36.0233,-41.588749,-31.811768,-41.695602,-48.766678,85.616585,-36.119301,-41.675552,-16.553612,140.23819
2524000000,-16.43247,12.510235,-36.741638,-22.265862,-33.611675,-32.34296,-31.766138,-43.100616,-36.779011,-22.309458,-12.069962,178.34296,-49.054508,38.900032,-48.458374,82.931114,-33.575142,-32.449718,-48.991684,38.451973,-13.923135,3.2184367,-36.150253,-42.95874,-31.832275,-43.292599,-48.452011,82.953659,-36.247272,-43.072994,-16.570524,139.69127
2524500000,-16.368435,12.47534,-36.729038,-22.950821,-33.613808,-33.56448,-31.80801,-44.703445,-36.766827,-23.00193,-12.051362,178.10617,-48.549885,41.954929,-48.155163,79.908562,-33.57988,-33.660374,-48.505428,41.641689,-13.877875,2.7713716,-36.286102,-44.267605,-31.873919,-44.893543,-48.152374,79.872894,-36.380356,-44.353893,-16.589598,139.18069
2525000000,-16.293344,12.423123,-36.717064,-23.666271,-33.620541,-34.860771,-31.862427,-46.305622,-36.751564,-23.707047,-12.035216,177.86528,-48.036732,44.166885,-47.849792,76.751312,-33.589226,-34.974026,-47.998554,43.875515,-13.834108,2.3269696,-36.419502,-45.470394,-31.92868,-46.513252,-47.852234,76.740677,-36.51823,-45.551319,-16.610668,138.6916
2525500000,-16.216202,12.308764,-36.711788,-24.417702,-33.630219,-36.263847,-31.935215,-47.934723,-36.744949,-24.455681,-12.021604,177.63409,-47.511612,46.17165,-47.543495,73.478424,-33.600967,-36.35865,-47.481873,46.083698,-13.789179,1.87142,-36.555893,-46.603527,-32.002705,-48.141464,-47.557213,73.472969,-36.657249,-46.67202,-16.630884,138.22865
2526000000,-16.135176,12.131779,-36.705132,-25.113632,-33.65942,-37.783089,-32.031029,-49.508999,-36.737484,-25.173645,-12.010762,177.39304,-46.940136,47.346825,-47.264267,70.013947,-33.631001,-37.896358,-46.902889,47.291012,-13.751183,1.4046743,-36.702087,-47.590267,-32.102158,-49.721684,-47.27916,69.963676,-36.802666,-47.660374,-16.650579,137.79062
2526500000,-16.048035,11.893981,-36.686481,-25.886087,-33.705963,-39.34058,-32.148609,-51.034943,-36.722549,-25.961069,-12.002164,177.1552,-46.404877,47.846836,-47.011917,66.556061,-33.681179,-39.448956,-46.360695,47.840363,-13.7166,0.9537816,-36.841602,-48.424709,-32.223232,-51.240124,-47.03783,66.513168,-36.938339,-48.509495,-16.670357,137.35323
2527000000,-15.959556,11.569583,-36.680294,-26.753325,-33.773045,-40.936829,-32.291054,-52.453991,-36.714619,-26.850887,-11.996259,176.91771,-45.922295,47.837292,-46.785511,63.18354,-33.750515,-41.023632,-45.872261,47.931442,-13.684274,0.52191734,-36.968296,-49.183529,-32.368649,-52.63488,-46.810555,63.146629,-37.067116,-49.256355,-16.688221,136.94432
