!CSV A.01.01
!Keysight Technologies,N5222B,MY58422327,A.13.60.06
!Date: Monday, March 28, 2022 15:22:59
!Source: Standard

BEGIN CH1_DATA
Freq(Hz),S11(DB),S11(DEG),S12(DB),S12(DEG),S13(DB),S13(DEG),S14(DB),S14(DEG),S21(DB),S21(DEG),S22(DB),S22(DEG),S23(DB),S23(DEG),S24(DB),S24(DEG),S31(DB),S31(DEG),S32(DB),S32(DEG),S33(DB),S33(DEG),S34(DB),S34(DEG),S41(DB),S41(DEG),S42(DB),S42(DEG),S43(DB),S43(DEG),S44(DB),S44(DEG)
2500000000,-17.109627,24.100008,-32.836887,19.036884,-35.529758,14.149653,-31.244061,5.7152405,-32.897099,18.965086,-13.50001,-175.64108,-40.876396,13.775719,-44.810123,-69.434143,-35.504803,14.125838,-40.813759,13.804662,-16.399179,23.067408,-37.092625,19.848436,-31.298182,5.5274215,-44.807495,-69.847305,-37.178658,19.659998,-16.499554,165.1478
2500500000,-17.093058,23.774038,-32.934914,17.681219,-35.495312,13.799595,-31.30678,4.3613868,-32.992542,17.636097,-13.458645,-175.73817,-41.031956,12.758985,-44.751122,-71.819794,-35.46851,13.759567,-40.971405,12.753927,-16.345322,22.59107,-37.044659,19.218962,-31.361134,4.1698742,-44.755913,-72.33712,-37.135464,19.037052,-16.491304,164.78232
2501000000,-17.073259,23.453814,-33.040257,16.365379,-35.451736,13.422997,-31.377245,3.0270364,-33.097393,16.324078,-13.415658,-175.81973,-41.193661,11.701553,-44.687241,-74.360191,-35.423622,13.36319,-41.136852,11.646432,-16.289751,22.106539,-37.008316,18.400276,-31.43239,2.8342183,-44.712894,-74.888435,-37.09491,18.234577,-16.481878,164.40308
2501500000,-17.048565,23.145695,-33.143654,15.163649,-35.405739,13.087507,-31.456989,1.7658094,-33.199802,15.107985,-13.375148,-175.9164,-41.373577,10.778681,-44.638447,-76.902901,-35.380032,13.015565,-41.317245,10.71811,-16.237829,21.61356,-36.983124,17.524078,-31.511929,1.6066735,-44.679493,-77.428993,-37.075191,17.388817,-16.468904,164.02736
2502000000,-17.023872,22.813084,-33.239639,13.995255,-35.350945,12.755838,-31.538345,0.55985326,-33.293835,13.949524,-13.335321,-176.01062,-41.553265,9.9897223,-44.566586,-79.444542,-35.326508,12.689709,-41.507771,9.9271784,-16.188681,21.123596,-36.982258,16.62817,-31.59568,0.38018352,-44.622463,-79.95369,-37.070152,16.486588,-16.45508,163.63156
2502500000,-16.994488,22.476179,-33.332321,12.873688,-35.292175,12.416107,-31.624283,-0.57593709,-33.385727,12.816592,-13.294162,-176.10243,-41.711483,9.3442211,-44.47559,-82.000237,-35.271179,12.331697,-41.671684,9.239974,-16.143652,20.650623,-37.000832,15.847518,-31.683472,-0.74583215,-44.547688,-82.406136,-37.089863,15.696992,-16.44034,163.20897
2503000000,-16.960438,22.118099,-33.413349,11.780821,-35.232155,12.148976,-31.712782,-1.6710682,-33.465973,11.738897,-13.255644,-176.22069,-41.853565,8.7356386,-44.362808,-84.79705,-35.215084,12.033272,-41.820812,8.6217651,-16.099537,20.201324,-37.028645,15.220414,-31.771671,-1.840189,-44.450584,-85.109955,-37.114155,15.092838,-16.425207,162.78157
2503500000,-16.929731,21.723282,-33.479588,10.658871,-35.166595,11.958586,-31.804369,-2.6848652,-33.530109,10.623764,-13.217463,-176.34135,-41.965469,8.0057077,-44.227287,-87.698875,-35.152058,11.848747,-41.93185,7.8911309,-16.057684,19.779745,-37.040886,14.813038,-31.865273,-2.8592598,-44.31498,-87.916199,-37.125072,14.708724,-16.41003,162.34218
2504000000,-16.896502,21.313055,-33.543358,9.5076008,-35.077137,11.859052,-31.897699,-3.6248541,-33.592712,9.4989634,-13.179119,-176.46565,-42.070499,7.086843,-44.073978,-90.874329,-35.066719,11.741497,-42.040112,6.9875598,-16.013542,19.385656,-37.034912,14.487167,-31.958612,-3.8036146,-44.167522,-91.005814,-37.114944,14.369754,-16.39467,161.86969
2504500000,-16.863115,20.893484,-33.602348,8.3442955,-34.959396,11.758344,-31.989676,-4.4953594,-33.648235,8.3161612,-13.143282,-176.60562,-42.181881,5.8747277,-43.907291,-94.379997,-34.947083,11.661371,-42.161167,5.7930613,-15.966448,19.014835,-36.998898,14.241861,-32.05304,-4.6597815,-43.998322,-94.431137,-37.07687,14.113714,-16.376879,161.39438
2505000000,-16.827337,20.471888,-33.657749,7.0984917,-34.809536,11.581746,-32.07378,-5.2586689,-33.700577,7.0622826,-13.110497,-176.76405,-42.337444,4.5470295,-43.751064,-98.252014,-34.802769,11.523039,-42.326435,4.4962378,-15.917509,18.638638,-36.936127,14.001913,-32.138809,-5.4340725,-43.826347,-98.23658,-37.016251,13.873425,-16.360975,160.87289
2505500000,-16.790142,20.029581,-33.716637,5.8399234,-34.630009,11.249131,-32.155056,-5.9727945,-33.757187,5.7712092,-13.078629,-176.91521,-42.531647,3.111939,-43.612549,-102.52176,-34.621124,11.17275,-42.527828,3.1255448,-15.864669,18.268179,-36.83984,13.675637,-32.219307,-6.1404996,-43.67823,-102.45421,-36.921478,13.526336,-16.34532,160.3382
2506000000,-16.754045,19.569719,-33.777615,4.5108852,-34.437683,10.665142,-32.229733,-6.6409192,-33.814278,4.4087114,-13.050118,-177.07484,-42.766907,1.6682826,-43.491749,-107.15782,-34.426716,10.61417,-42.763062,1.7225962,-15.81061,17.899424,-36.728664,13.225005,-32.294346,-6.799808,-43.551586,-107.02026,-36.80756,13.056814,-16.330153,159.76646
2506500000,-16.718277,19.105316,-33.845066,3.0838892,-34.246223,9.8871546,-32.296597,-7.2262487,-33.88176,2.965905,-13.024619,-177.24146,-43.056957,0.21394064,-43.41328,-112.15524,-34.230499,9.8214817,-43.052593,0.31747475,-15.755022,17.521585,-36.602051,12.643502,-32.362877,-7.3621097,-43.466259,-112.05276,-36.683826,12.473492,-16.317181,159.17822
2507000000,-16.686647,18.630785,-33.929581,1.6657767,-34.051811,8.8686943,-32.347713,-7.7492185,-33.967518,1.5292239,-12.999496,-177.38515,-43.419533,-1.0121928,-43.393044,-117.44843,-34.035,8.8162508,-43.408909,-0.88553625,-15.696499,17.137745,-36.471325,11.951916,-32.411507,-7.8751979,-43.444519,-117.34666,-36.554386,11.783221,-16.308058,158.56335
2507500000,-16.651173,18.175123,-34.022758,0.26555452,-33.873203,7.6346831,-32.384342,-8.2856703,-34.062809,0.12258009,-12.977845,-177.53281,-43.83448,-1.8334593,-43.435974,-122.86804,-33.853504,7.5847144,-43.82008,-1.6933464,-15.638025,16.75148,-36.330582,11.121727,-32.445118,-8.4132671,-43.488827,-122.78985,-36.417805,10.948107,-16.301769,157.94006
2508000000,-16.621044,17.700193,-34.127533,-1.1284281,-33.71487,6.2386003,-32.414082,-8.8471146,-34.167297,-1.2833059,-12.956243,-177.66301,-44.281822,-2.1378253,-43.53973,-128.35281,-33.693672,6.1993713,-44.263355,-1.9892559,-15.580137,16.362846,-36.193523,10.155135,-32.473766,-8.9741039,-43.587498,-128.2471,-36.283386,10.006389,-16.298712,157.31032
2508500000,-16.592821,17.225641,-34.239571,-2.4618144,-33.576519,4.7363644,-32.439125,-9.3933611,-34.280079,-2.62836,-12.933721,-177.77196,-44.744164,-1.8323665,-43.686661,-133.82567,-33.555099,4.7056856,-44.722614,-1.7034602,-15.51837,15.983343,-36.058384,9.1257639,-32.498585,-9.5387831,-43.73317,-133.66626,-36.150181,8.9527168,-16.298326,156.67276
2509000000,-16.572474,16.731794,-34.359978,-3.7736809,-33.465683,3.1707139,-32.458145,-9.9255152,-34.400082,-3.9349105,-12.913956,-177.89249,-45.182491,-0.85566467,-43.86813,-139.20853,-33.440144,3.1392512,-45.165592,-0.74347627,-15.455843,15.5984,-35.926628,8.0107508,-32.517426,-10.06555,-43.918953,-139.03668,-36.020584,7.860291,-16.29891,156.03957
2509500000,-16.556742,16.256945,-34.490829,-5.0309515,-33.372524,1.5699617,-32.465572,-10.404231,-34.529911,-5.1947646,-12.89083,-177.99911,-45.562508,0.65030074,-44.07785,-144.51549,-33.346191,1.5613059,-45.545582,0.75946468,-15.390924,15.207208,-35.792297,6.8311424,-32.525017,-10.563187,-44.126091,-144.35754,-35.887943,6.7001104,-16.301323,155.40129
2510000000,-16.54973,15.792116,-34.633442,-6.2371387,-33.299789,-0.062243234,-32.456867,-10.905248,-34.669785,-6.4056115,-12.866357,-178.09514,-45.867817,2.5684896,-44.315842,-149.7997,-33.270569,-0.043527599,-45.863026,2.569566,-15.325158,14.805121,-35.658432,5.5474663,-32.516941,-11.061569,-44.356079,-149.63136,-35.752785,5.4479647,-16.307041,154.75105
2510500000,-16.553867,15.344263,-34.789143,-7.2971139,-33.245998,-1.7063315,-32.434097,-11.445001,-34.824459,-7.4881935,-12.843672,-178.20525,-46.11985,4.7260389,-44.566898,-155.04985,-33.213364,-1.6818352,-46.118916,4.7754664,-15.260075,14.380363,-35.521263,4.2024527,-32.495239,-11.599005,-44.606503,-154.87383,-35.61755,4.1148539,-16.313238,154.13155
2511000000,-16.558214,14.945265,-34.939526,-8.1787663,-33.213467,-3.3439214,-32.403877,-12.046439,-34.97958,-8.3950834,-12.820674,-178.30589,-46.254944,7.1849895,-44.8325,-160.28859,-33.175632,-3.3181756,-46.275761,7.3836932,-15.194572,13.94445,-35.386547,2.7136347,-32.465878,-12.198409,-44.863052,-160.10027,-35.479359,2.6281276,-16.322802,153.49857
2511500000,-16.56311,14.585184,-35.072571,-8.9095545,-33.200413,-4.9184666,-32.368763,-12.703351,-35.115959,-9.1259899,-12.796724,-178.39034,-46.283237,9.5822735,-45.122929,-165.60423,-33.158463,-4.9239397,-46.303261,9.8715248,-15.130329,13.489458,-35.25605,1.0876995,-32.431511,-12.841291,-45.149704,-165.39197,-35.348057,1.0147312,-16.33539,152.87601
2512000000,-16.569019,14.245731,-35.184624,-9.5902596,-33.194275,-6.4495621,-32.329578,-13.387815,-35.23246,-9.7935314,-12.772586,-178.48662,-46.21492,11.582139,-45.4333,-170.7823,-33.151386,-6.4621286,-46.232784,11.938816,-15.07222,13.008334,-35.145039,-0.6646505,-32.391094,-13.516294,-45.463242,-170.62785,-35.236099,-0.7450158,-16.351486,152.26653
2512500000,-16.572006,13.909908,-35.280033,-10.303555,-33.211025,-7.9311404,-32.285908,-14.080042,-35.32832,-10.50248,-12.748867,-178.57869,-46.069931,13.330062,-45.753452,-175.98366,-33.167744,-7.9619284,-46.087898,13.8312,-15.014793,12.538693,-35.044834,-2.4393868,-32.344898,-14.201433,-45.787571,-175.8466,-35.1325,-2.5352166,-16.367777,151.68748
2513000000,-16.574263,13.574103,-35.363289,-11.06238,-33.230499,-9.2968206,-32.227455,-14.81015,-35.414501,-11.226543,-12.724309,-178.65419,-45.860626,14.458032,-46.087593,178.90144,-33.189632,-9.3333025,-45.857891,15.061124,-14.962306,12.062949,-34.957901,-4.3282495,-32.286564,-14.928236,-46.129673,179.00204,-35.049614,-4.438302,-16.385607,151.11713
2513500000,-16.577551,13.239977,-35.442333,-11.894042,-33.252632,-10.597091,-32.161667,-15.621323,-35.492043,-12.036986,-12.69943,-178.72993,-45.608337,14.737348,-46.438179,173.96388,-33.211658,-10.648825,-45.603397,15.400762,-14.912422,11.59029,-34.892487,-6.2431703,-32.217159,-15.73259,-46.487423,173.96397,-34.983097,-6.3605275,-16.405228,150.5672
2514000000,-16.586531,12.899397,-35.520416,-12.798441,-33.272247,-11.835317,-32.08828,-16.543736,-35.566486,-12.911671,-12.673204,-178.80145,-45.394463,14.3182,-46.77095,169.11559,-33.231995,-11.88129,-45.363369,14.944206,-14.86322,11.125553,-34.838974,-8.1666803,-32.143093,-16.657303,-46.814003,169.19373,-34.932968,-8.2825651,-16.426638,150.02499
2514500000,-16.595488,12.586827,-35.606888,-13.80557,-33.295918,-13.079325,-32.01453,-17.560246,-35.652908,-13.876077,-12.646279,-178.8779,-45.242786,13.25909,-47.076241,164.23677,-33.255039,-13.1258,-45.197289,13.790153,-14.817545,10.664211,-34.801575,-10.114342,-32.066662,-17.68198,-47.123798,164.33308,-34.896248,-10.216658,-16.446768,149.524
2515000000,-16.608009,12.301732,-35.716919,-14.776822,-33.322289,-14.281792,-31.941996,-18.684189,-35.757973,-14.854661,-12.619105,-178.95204,-45.181927,11.879892,-47.388218,159.40508,-33.279526,-14.344613,-45.128723,12.379312,-14.772511,10.21524,-34.776394,-12.033576,-31.994005,-18.810913,-47.437172,159.46408,-34.874027,-12.127211,-16.46516,149.04367
2515500000,-16.62632,12.044694,-35.830639,-15.667662,-33.35421,-15.492194,-31.874268,-19.880735,-35.869762,-15.738262,-12.59172,-179.02748,-45.198212,10.488049,-47.664486,154.60439,-33.309181,-15.559818,-45.140057,10.913607,-14.728107,9.7774382,-34.759457,-13.904349,-31.925896,-20.020849,-47.706078,154.67252,-34.857704,-13.99744,-16.48077,148.58958
2516000000,-16.648636,11.82961,-35.953186,-16.524582,-33.39436,-16.650284,-31.813303,-21.190115,-35.98978,-16.633093,-12.561272,-179.09256,-45.280499,8.9731026,-47.918472,149.54222,-33.349316,-16.720753,-45.219212,9.4864311,-14.683763,9.3494787,-34.741043,-15.822664,-31.866562,-21.333117,-47.963867,149.6062,-34.839912,-15.899503,-16.494331,148.11983
2516500000,-16.67259,11.6912,-36.095909,-17.313639,-33.443626,-17.749233,-31.765055,-22.566677,-36.132111,-17.448673,-12.530239,-179.16641,-45.422535,7.5641556,-48.201984,144.3812,-33.39497,-17.821348,-45.362606,8.0575523,-14.639851,8.9196043,-34.736446,-17.805622,-31.818577,-22.710613,-48.248505,144.39929,-34.833344,-17.877993,-16.50433,147.69402
2517000000,-16.693708,11.610996,-36.245869,-17.849298,-33.484623,-18.766912,-31.731335,-23.980371,-36.278938,-17.99815,-12.499319,-179.25578,-45.61908,6.2049289,-48.496777,139.60312,-33.438782,-18.850685,-45.556564,6.76788,-14.597658,8.4969797,-34.750153,-19.807947,-31.787682,-24.112463,-48.5308,139.60468,-34.848297,-19.887308,-16.512148,147.25801
2517500000,-16.717398,11.58152,-36.380943,-18.273199,-33.535789,-19.649578,-31.70801,-25.413757,-36.418968,-18.417278,-12.465693,-179.33931,-45.922935,5.0214372,-48.744225,134.75674,-33.489738,-19.74571,-45.852783,5.6272244,-14.556552,8.096015,-34.784771,-21.796886,-31.763145,-25.548494,-48.782772,134.79581,-34.881626,-21.859926,-16.517303,146.81551
2518000000,-16.734623,11.615715,-36.497692,-18.524727,-33.561012,-20.437798,-31.697905,-26.842598,-36.532703,-18.67807,-12.431745,-179.44376,-46.286694,4.3578501,-48.981064,130.04005,-33.515385,-20.542181,-46.21122,5.04141,-14.516409,7.7190437,-34.831696,-23.692781,-31.751368,-26.997869,-49.013,130.10825,-34.926434,-23.762562,-16.519754,146.37115
2518500000,-16.746628,11.703956,-36.587772,-18.748497,-33.564846,-21.262016,-31.698868,-28.270609,-36.631626,-18.886982,-12.397822,-179.55951,-46.675373,4.2298379,-49.188103,125.34982,-33.521206,-21.373318,-46.578281,4.9038153,-14.475096,7.3640814,-34.886181,-25.522186,-31.755098,-28.417696,-49.215919,125.42857,-34.981815,-25.599932,-16.520329,145.90482
2519000000,-16.750626,11.81402,-36.665478,-18.924438,-33.557552,-22.207502,-31.711836,-29.643076,-36.709126,-19.050419,-12.362824,-179.6803,-47.09893,4.4320469,-49.375069,120.6533,-33.515915,-22.313528,-46.96925,5.0037832,-14.431704,7.0275598,-34.945797,-27.335222,-31.769037,-29.802134,-49.403736,120.78236,-35.040035,-27.422165,-16.517521,145.42754
2519500000,-16.745398,11.945034,-36.722179,-19.110117,-33.554985,-23.250227,-31.727203,-30.933159,-36.769398,-19.222095,-12.32875,-179.8148,-47.561687,5.3963552,-49.548767,116.06209,-33.513271,-23.351217,-47.426888,5.8256383,-14.384433,6.7022138,-35.016068,-29.120417,-31.786751,-31.085312,-49.583744,116.14889,-35.11301,-29.201174,-16.512819,144.94115
2520000000,-16.73262,12.072576,-36.765057,-19.323833,-33.565647,-24.348459,-31.740482,-32.156502,-36.812496,-19.436211,-12.296328,-179.96773,-48.00589,7.0530024,-49.72987,111.47666,-33.524597,-24.442642,-47.851944,7.3225484,-14.334555,6.3825278,-35.094486,-30.853409,-31.799526,-32.310299,-49.752171,111.61234,-35.193188,-30.920509,-16.507284,144.42928
2520500000,-16.711845,12.193988,-36.800625,-19.564421,-33.58432,-25.403584,-31.745274,-33.375885,-36.84708,-19.670908,-12.262568,179.88721,-48.406761,9.4322662,-49.909035,107.20204,-33.540291,-25.502731,-48.259335,9.4723711,-14.281057,6.0506978,-35.18383,-32.496956,-31.804695,-33.513302,-49.921696,107.29961,-35.282669,-32.554691,-16.501505,143.89325
2521000000,-16.687614,12.297471,-36.821957,-19.806995,-33.599144,-26.456053,-31.745266,-34.615192,-36.868481,-19.901594,-12.232401,179.7106,-48.745098,12.310619,-50.060894,103.35558,-33.559608,-26.557926,-48.610352,12.246696,-14.224364,5.6997018,-35.270741,-34.026505,-31.803106,-34.764606,-50.066147,103.38041,-35.370426,-34.099678,-16.497185,143.33791
2521500000,-16.654213,12.39036,-36.8316,-20.080351,-33.615044,-27.45344,-31.741055,-35.858524,-36.88187,-20.193027,-12.20089,179.53186,-49.004768,15.610447,-50.198196,99.89463,-33.575172,-27.565334,-48.893524,15.516756,-14.167385,5.3178701,-35.35265,-35.543819,-31.797775,-36.008049,-50.196068,99.855225,-35.449738,-35.598881,-16.496872,142.76106
2522000000,-16.614202,12.462775,-36.835178,-20.354853,-33.623409,-28.502848,-31.730667,-37.190636,-36.886383,-20.453915,-12.169674,179.3383,-49.21703,19.569746,-50.242279,96.96328,-33.58456,-28.598553,-49.103973,19.365866,-14.110486,4.9112968,-35.436275,-37.108017,-31.786596,-37.337212,-50.252357,96.874359,-35.532253,-37.129539,-16.500692,142.16927
2522500000,-16.569027,12.515288,-36.814625,-20.684832,-33.633251,-29.553194,-31.723366,-38.590736,-36.868534,-20.751612,-12.140793,179.12337,-49.268673,23.86264,-50.205349,94.319771,-33.59446,-29.678999,-49.161579,23.624598,-14.057158,4.4807076,-35.530109,-38.59454,-31.779245,-38.747021,-50.226234,94.12413,-35.62336,-38.619984,-16.509399,141.57568
2523000000,-16.51613,12.541959,-36.785873,-21.189754,-33.636684,-30.644733,-31.720978,-40.085957,-36.8395,-21.218508,-12.114568,178.89217,-49.193825,28.040396,-50.066685,91.71328,-33.599213,-30.759706,-49.108135,27.841198,-14.00568,4.0438685,-35.621037,-40.086498,-31.777925,-40.253315,-50.093876,91.502411,-35.713783,-40.114845,-16.521639,140.99551
2523500000,-16.457718,12.547698,-36.765068,-21.786812,-33.639408,-31.800022,-31.733347,-41.668823,-36.81789,-21.80266,-12.089952,178.66643,-49.008469,32.360725,-49.840656,88.944214,-33.604103,-31.925821,-48.946922,32.027637,-13.957463,3.5983388,-35.725662,-41.567608,-31.792091,-41.831745,-49.876785,88.677567,-35.816097,-41.611336,-16.537687,140.44975
2524000000,-16.396044,12.531065,-36.750637,-22.399975,-33.647915,-33.014057,-31.763788,-43.269314,-36.800697,-22.414936,-12.070327,178.42261,-48.65799,36.264278,-49.570343,85.755035,-33.612148,-33.156567,-48.616692,36.121128,-13.913054,3.150681,-35.840687,-42.985161,-31.822155,-43.4398,-49.600491,85.514412,-35.929329,-43.02837,-16.554897,139.90935
2524500000,-16.332352,12.479427,-36.734394,-23.019215,-33.65572,-34.294312,-31.810654,-44.883469,-36.781761,-23.034212,-12.05222,178.18187,-48.196911,39.512039,-49.28997,82.299553,-33.62339,-34.424465,-48.171864,39.385098,-13.867968,2.7108364,-35.966049,-44.345726,-31.868839,-45.030907,-49.32375,82.122238,-36.053402,-44.370304,-16.574162,139.4075
2525000000,-16.258081,12.41304,-36.713108,-23.674688,-33.669895,-35.641026,-31.868996,-46.478783,-36.759274,-23.719704,-12.036266,177.94017,-47.725494,41.770798,-49.001263,78.85833,-33.640633,-35.79953,-47.68615,41.709225,-13.824142,2.2750785,-36.091465,-45.578148,-31.927574,-46.617073,-49.025333,78.616646,-36.176487,-45.627758,-16.594536,138.92628
2525500000,-16.181948,12.280379,-36.693615,-24.385117,-33.693073,-37.077301,-31.942936,-48.068497,-36.74577,-24.453445,-12.023547,177.70836,-47.235363,43.901455,-48.71196,75.212502,-33.667068,-37.230598,-47.198963,43.950768,-13.779211,1.8216192,-36.217815,-46.74638,-32.003498,-48.220253,-48.718616,74.9646,-36.307522,-46.82011,-16.613634,138.47003
2526000000,-16.102459,12.089973,-36.674351,-25.116329,-33.738476,-38.59948,-32.038601,-49.638744,-36.7272,-25.182352,-12.013555,177.46832,-46.68082,45.130352,-48.430141,71.396858,-33.710201,-38.746166,-46.643791,45.166721,-13.740643,1.3575563,-36.354984,-47.788994,-32.099335,-49.796104,-48.435226,71.102623,-36.444508,-47.875259,-16.631535,138.03691
2526500000,-16.017405,11.840661,-36.647083,-25.95075,-33.79837,-40.12394,-32.155685,-51.166203,-36.705547,-25.980665,-12.005256,177.23483,-46.16441,45.736954,-48.176826,67.628609,-33.773746,-40.272861,-46.12323,45.822617,-13.706074,0.91065377,-36.479439,-48.703739,-32.216576,-51.315399,-48.19228,67.228539,-36.571705,-48.793476,-16.6493,137.59854
2527000000,-15.931356,11.508927,-36.637344,-26.87442,-33.879745,-41.624474,-32.297791,-52.574001,-36.693527,-26.882917,-11.999381,177.00179,-45.702126,45.856632,-47.95134,63.969475,-33.8545,-41.800003,-45.653111,45.935444,-13.673045,0.47646484,-36.599678,-49.56255,-32.36113,-52.72171,-47.972122,63.591198,-36.693855,-49.616936,-16.664852,137.18837
