!CSV A.01.01
!Keysight Technologies,N5222B,MY58422327,A.13.60.06
!Date: Monday, March 28, 2022 15:23:33
!Source: Standard

BEGIN CH1_DATA
Freq(Hz),S11(DB),S11(DEG),S12(DB),S12(DEG),S13(DB),S13(DEG),S14(DB),S14(DEG),S21(DB),S21(DEG),S22(DB),S22(DEG),S23(DB),S23(DEG),S24(DB),S24(DEG),S31(DB),S31(DEG),S32(DB),S32(DEG),S33(DB),S33(DEG),S34(DB),S34(DEG),S41(DB),S41(DEG),S42(DB),S42(DEG),S43(DB),S43(DEG),S44(DB),S44(DEG)
2500000000,-17.108498,23.925045,-32.867825,19.500809,-35.408104,15.352252,-31.124426,6.1341743,-32.886543,19.362749,-13.478345,-175.72466,-41.008385,12.123897,-46.354031,-73.324936,-35.388058,15.81712,-40.955986,12.224921,-16.397633,23.129128,-37.447838,20.273455,-31.178083,5.7442427,-46.317894,-73.50576,-37.529678,20.177687,-16.477385,164.77623
2500500000,-17.09201,23.593536,-32.955677,18.186884,-35.371231,14.94863,-31.189569,4.7295856,-32.981049,18.002979,-13.437554,-175.81909,-41.152348,10.900661,-46.323151,-75.775101,-35.338501,15.421128,-41.0966,11.012034,-16.343103,22.662094,-37.394287,19.586494,-31.247414,4.3384347,-46.285053,-75.964615,-37.474804,19.481354,-16.469137,164.39586
2501000000,-17.072462,23.268417,-33.053864,16.868158,-35.325638,14.532404,-31.263098,3.3590424,-33.08527,16.649582,-13.395082,-175.89865,-41.318024,9.643569,-46.286636,-78.38932,-35.278618,14.952159,-41.255589,9.7473764,-16.286226,22.189686,-37.353668,18.696741,-31.324841,2.9789357,-46.247311,-78.575378,-37.432884,18.587774,-16.459957,164.00456
2501500000,-17.048674,22.96389,-33.149822,15.640797,-35.27742,14.116424,-31.347847,2.0796363,-33.185867,15.418092,-13.354849,-175.99422,-41.512985,8.5117693,-46.251038,-80.884575,-35.219398,14.552852,-41.441822,8.6175327,-16.232737,21.698008,-37.328815,17.772516,-31.412035,1.7161406,-46.222179,-81.013809,-37.412472,17.641905,-16.448233,163.61461
2502000000,-17.024633,22.632051,-33.240231,14.44488,-35.223919,13.735314,-31.434565,0.86456734,-33.283051,14.227638,-13.315155,-176.08588,-41.710411,7.5806646,-46.181759,-83.291603,-35.157364,14.113213,-41.636044,7.6448131,-16.181295,21.211699,-37.326759,16.798052,-31.503151,0.49049655,-46.147884,-83.498764,-37.412998,16.651556,-16.43516,163.20587
2502500000,-16.996271,22.293898,-33.327568,13.295924,-35.169403,13.32561,-31.524698,-0.27053884,-33.375267,13.090315,-13.274535,-176.17578,-41.89621,6.8147006,-46.062912,-85.748322,-35.093361,13.672838,-41.81686,6.8178229,-16.133347,20.732456,-37.350048,15.88063,-31.598158,-0.6277684,-46.042717,-85.958183,-37.438641,15.756716,-16.421869,162.77051
2503000000,-16.963783,21.932709,-33.406147,12.200295,-35.123402,13.00097,-31.613274,-1.3438358,-33.459175,12.009709,-13.236259,-176.29282,-42.067043,6.1184831,-45.9231,-88.457458,-35.0396,13.251839,-41.981976,6.1000552,-16.087431,20.267441,-37.388828,15.158425,-31.692167,-1.699775,-45.9021,-88.72979,-37.484016,15.038916,-16.40834,162.32994
2503500000,-16.935896,21.538937,-33.470722,11.077153,-35.067764,12.810434,-31.703127,-2.3672299,-33.526379,10.893016,-13.198101,-176.41455,-42.202782,5.3384037,-45.738178,-91.325043,-34.979298,12.977816,-42.119934,5.3213611,-16.043571,19.824575,-37.424503,14.653141,-31.788136,-2.6786907,-45.719238,-91.641159,-37.521198,14.574157,-16.395262,161.8754
2504000000,-16.904966,21.133682,-33.528942,9.9199057,-34.987965,12.724711,-31.794067,-3.3223114,-33.59037,9.765667,-13.1597,-176.54005,-42.333237,4.4458427,-45.522652,-94.573799,-34.897991,12.815358,-42.254616,4.3893342,-15.999146,19.405746,-37.442154,14.263025,-31.88246,-3.590616,-45.516464,-94.861015,-37.537605,14.23206,-16.382425,161.38844
2504500000,-16.875139,20.727564,-33.583195,8.7209148,-34.875351,12.65775,-31.883127,-4.1925912,-33.646404,8.5959597,-13.124804,-176.68169,-42.466583,3.2783859,-45.28928,-98.176758,-34.785992,12.682661,-42.390682,3.19508,-15.952986,19.007778,-37.430485,14.038353,-31.973221,-4.4213858,-45.290874,-98.490173,-37.526947,14.013653,-16.367636,160.9021
2505000000,-16.841339,20.328522,-33.635193,7.4314303,-34.728413,12.528891,-31.965069,-4.9725828,-33.70113,7.3483477,-13.092232,-176.8392,-42.641045,2.0362232,-45.058838,-102.23624,-34.643967,12.491782,-42.565075,1.904711,-15.905977,18.6094,-37.391613,13.893719,-32.05479,-5.1766119,-45.063046,-102.57966,-37.488632,13.85975,-16.354984,160.37875
2505500000,-16.805862,19.914293,-33.694321,6.1221981,-34.548946,12.240809,-32.046009,-5.7133617,-33.75758,6.0779786,-13.060878,-176.98831,-42.840229,0.6885494,-44.847126,-106.74431,-34.469704,12.138862,-42.767826,0.55022573,-15.856273,18.218271,-37.317646,13.668205,-32.134289,-5.9048653,-44.856308,-107.08356,-37.412075,13.647395,-16.342058,159.83942
2506000000,-16.76989,19.487022,-33.75301,4.7529569,-34.349625,11.723224,-32.116821,-6.417778,-33.816502,4.7549896,-13.03242,-177.14497,-43.078304,-0.73347193,-44.65654,-111.68051,-34.278202,11.585385,-43.001953,-0.85942101,-15.805984,17.837923,-37.220818,13.323758,-32.206711,-6.5910439,-44.668667,-112.02859,-37.314022,13.32236,-16.32992,159.26859
2506500000,-16.732428,19.0522,-33.820885,3.3035052,-34.148392,10.951304,-32.186119,-7.0209794,-33.8811,3.3485498,-13.006787,-177.31215,-43.370003,-2.1784673,-44.505142,-117.05387,-34.083591,10.792395,-43.299374,-2.340884,-15.753938,17.454975,-37.112133,12.851706,-32.275909,-7.1819944,-44.525845,-117.34731,-37.203468,12.886769,-16.319715,158.68004
2507000000,-16.698299,18.607311,-33.905109,1.8541234,-33.945625,9.9497271,-32.237373,-7.5819454,-33.960121,1.9375921,-12.981951,-177.45233,-43.738468,-3.4422321,-44.415966,-122.69457,-33.888302,9.7679501,-43.662701,-3.7033439,-15.699716,17.074875,-36.993343,12.310787,-32.325802,-7.7163048,-44.4375,-122.97508,-37.079762,12.340293,-16.313196,158.06502
2507500000,-16.65929,18.168058,-34.001266,0.42817625,-33.758194,8.7176294,-32.274021,-8.1502924,-34.045109,0.53461808,-12.95974,-177.60074,-44.164066,-4.3881078,-44.387997,-128.50008,-33.708755,8.5477886,-44.102837,-4.6093016,-15.644483,16.69927,-36.862537,11.669916,-32.364506,-8.2553377,-44.412228,-128.76949,-36.945946,11.690766,-16.309448,157.44179
2508000000,-16.626144,17.703445,-34.105995,-0.99653131,-33.590675,7.3279042,-32.306747,-8.7333288,-34.142441,-0.89484948,-12.9374,-177.73334,-44.631371,-4.7132206,-44.412971,-134.30682,-33.544018,7.1529579,-44.582737,-4.9366069,-15.589243,16.326706,-36.729958,10.908032,-32.396076,-8.8183222,-44.4412,-134.60159,-36.809097,10.9332,-16.309359,156.81245
2508500000,-16.594759,17.238791,-34.22419,-2.3674538,-33.442909,5.8096156,-32.335426,-9.3117743,-34.253395,-2.2726529,-12.914994,-177.84573,-45.103489,-4.4169793,-44.478848,-140.12611,-33.40099,5.6560974,-45.070435,-4.6376348,-15.529223,15.968043,-36.591671,10.095674,-32.423,-9.371563,-44.504833,-140.42244,-36.66729,10.089077,-16.312073,156.17815
2509000000,-16.570702,16.753336,-34.349537,-3.6897814,-33.322453,4.1806216,-32.359043,-9.8540964,-34.370052,-3.6230397,-12.895224,-177.96983,-45.570492,-3.4198499,-44.57803,-145.87794,-33.281055,4.0604467,-45.536533,-3.6586123,-15.467916,15.601962,-36.448437,9.1934958,-32.443954,-9.8860798,-44.607033,-146.19069,-36.522675,9.1619139,-16.31539,155.55066
2509500000,-16.55064,16.276802,-34.483677,-4.9408069,-33.226868,2.5318453,-32.369759,-10.354041,-34.499271,-4.9052048,-12.872784,-178.08038,-45.965729,-1.8012257,-44.695686,-151.57779,-33.183159,2.4339495,-45.948677,-1.968291,-15.403471,15.23165,-36.292961,8.2053022,-32.451431,-10.3586,-44.726032,-151.89362,-36.370674,8.1523485,-16.321257,154.92206
2510000000,-16.539465,15.80772,-34.627506,-6.1178694,-33.151371,0.83736676,-32.365456,-10.858061,-34.642513,-6.1555829,-12.848813,-178.17703,-46.275089,0.15447848,-44.830933,-157.28418,-33.104931,0.7432484,-46.256805,0.038003221,-15.336455,14.851153,-36.130344,7.0820622,-32.442791,-10.829908,-44.859707,-157.48805,-36.212502,7.0069304,-16.330153,154.28021
2510500000,-16.538671,15.344488,-34.782116,-7.1562262,-33.097481,-0.86072159,-32.345371,-11.37643,-34.794075,-7.2294283,-12.826303,-178.28754,-46.518681,2.1663897,-44.976158,-162.96562,-33.045391,-0.95721775,-46.507774,2.2790964,-15.269658,14.439358,-35.961727,5.8223314,-32.420021,-11.350275,-45.00808,-163.20314,-36.050686,5.7413259,-16.339334,153.67384
2511000000,-16.539824,14.924746,-34.928864,-8.0001297,-33.065933,-2.5604534,-32.314335,-11.982513,-34.944347,-8.1169844,-12.803559,-178.3856,-46.673397,4.5711837,-45.132141,-168.6678,-33.011597,-2.6458852,-46.654324,4.8024306,-15.201763,14.010279,-35.794319,4.3986387,-32.384853,-11.938482,-45.169674,-168.88429,-35.887352,4.3244205,-16.351902,153.05949
2511500000,-16.543049,14.531978,-35.056789,-8.7277632,-33.052914,-4.1861277,-32.278687,-12.653167,-35.074608,-8.8699217,-12.778985,-178.46779,-46.722244,6.8404584,-45.306149,-174.48227,-32.996376,-4.3074389,-46.686188,7.1672239,-15.135874,13.559546,-35.634476,2.790689,-32.345879,-12.58126,-45.349506,-174.6418,-35.726398,2.7052021,-16.367313,152.45985
2512000000,-16.548592,14.165692,-35.161427,-9.4349585,-33.048027,-5.752296,-32.238266,-13.370978,-35.179062,-9.5810165,-12.754308,-178.56288,-46.684685,8.8494272,-45.503006,179.81419,-32.990002,-5.8636026,-46.626709,9.153266,-15.076505,13.078823,-35.494263,0.97015697,-32.30061,-13.281728,-45.54594,179.69753,-35.585361,0.89047188,-16.384695,151.87776
2512500000,-16.553347,13.815273,-35.249283,-10.189171,-33.068913,-7.2665787,-32.197884,-14.108259,-35.267426,-10.346281,-12.729799,-178.65617,-46.584332,10.579265,-45.716072,174.13681,-33.011395,-7.4007258,-46.513332,10.911129,-15.018534,12.606355,-35.369831,-0.92546493,-32.252834,-14.011475,-45.757393,173.98906,-35.461346,-0.99939018,-16.401663,151.32329
2513000000,-16.556936,13.471238,-35.328712,-11.013719,-33.091339,-8.6717253,-32.145981,-14.882874,-35.346176,-11.154487,-12.704328,-178.73894,-46.414684,11.745712,-45.942745,168.53627,-33.036179,-8.7870903,-46.332806,12.035109,-14.96499,12.1267,-35.268333,-2.9238257,-32.194603,-14.776629,-45.984306,168.42122,-35.361343,-2.9911072,-16.419609,150.77963
2513500000,-16.560781,13.136651,-35.403797,-11.944041,-33.118168,-10.020784,-32.087658,-15.713123,-35.418377,-12.092839,-12.679071,-178.82274,-46.211548,12.237713,-46.186546,163.15897,-33.06382,-10.111605,-46.121025,12.451769,-14.915245,11.651269,-35.194462,-4.9510341,-32.127655,-15.630559,-46.231983,163.02139,-35.289276,-5.0316072,-16.438417,150.25267
2514000000,-16.56871,12.795792,-35.482391,-12.926146,-33.14666,-11.311743,-32.025528,-16.64785,-35.497883,-13.092978,-12.652405,-178.90515,-46.030659,12.038733,-46.417255,157.94763,-33.090195,-11.369204,-45.937962,12.163947,-14.866539,11.184847,-35.135105,-6.9794517,-32.057999,-16.57329,-46.457539,157.87543,-35.234516,-7.052434,-16.458033,149.72894
2514500000,-16.57621,12.480233,-35.575394,-14.031797,-33.180332,-12.582852,-31.961147,-17.63229,-35.594028,-14.194138,-12.625759,-178.99106,-45.918327,11.219839,-46.615349,152.79672,-33.120842,-12.611878,-45.818455,11.304488,-14.820894,10.725566,-35.096958,-9.0002985,-31.988186,-17.60644,-46.657887,152.74721,-35.197613,-9.0734434,-16.476965,149.2428
2515000000,-16.585865,12.179671,-35.696442,-15.084208,-33.218826,-13.781435,-31.895761,-18.714849,-35.713894,-15.249189,-12.599209,-179.07623,-45.877785,10.208993,-46.821167,147.74442,-33.148178,-13.812982,-45.778461,10.254133,-14.776204,10.277574,-35.073151,-10.998515,-31.920799,-18.718582,-46.859058,147.68472,-35.17709,-11.051883,-16.493624,148.77298
2515500000,-16.602142,11.894276,-35.825836,-16.052294,-33.260597,-14.950911,-31.833498,-19.887026,-35.843254,-16.209064,-12.572656,-179.16188,-45.900806,9.123105,-47.00219,142.78903,-33.182831,-14.996036,-45.801384,9.1717377,-14.732987,9.8466425,-35.058689,-12.911487,-31.856499,-19.929909,-47.036354,142.79373,-35.163292,-12.956124,-16.507103,148.32384
2516000000,-16.624397,11.6444,-35.968163,-16.968967,-33.304604,-16.013077,-31.775738,-21.153921,-35.983822,-17.140181,-12.544024,-179.23238,-45.966698,8.0208778,-47.154766,137.83052,-33.222759,-16.11858,-45.862679,8.0178041,-14.688636,9.4269381,-35.042149,-14.838361,-31.798803,-21.203989,-47.186752,137.80502,-35.148548,-14.86804,-16.519104,147.85837
2516500000,-16.649557,11.468533,-36.13018,-17.775707,-33.351452,-17.010031,-31.729269,-22.491146,-36.145416,-17.937614,-12.514632,-179.30934,-46.086666,6.8829036,-47.328331,132.85126,-33.26564,-17.174419,-45.984753,6.8414125,-14.644128,9.0091143,-35.03381,-16.826998,-31.752121,-22.572243,-47.349506,132.75783,-35.140297,-16.841911,-16.527853,147.43736
2517000000,-16.673046,11.354906,-36.298058,-18.295439,-33.384865,-17.956921,-31.696806,-23.867386,-36.311268,-18.451517,-12.485082,-179.40428,-46.249271,5.7049131,-47.506462,128.17352,-33.300182,-18.176743,-46.163094,5.6409006,-14.601425,8.5965691,-35.043331,-18.855131,-31.719648,-23.970619,-47.534653,128.00931,-35.151669,-18.833496,-16.534924,147.0023
2517500000,-16.701342,11.295128,-36.451355,-18.660152,-33.422153,-18.790831,-31.67333,-25.272999,-36.463078,-18.849787,-12.452701,-179.48825,-46.530003,4.6138387,-47.663628,123.64417,-33.339176,-19.071455,-46.431625,4.5757346,-14.558481,8.2044125,-35.07156,-20.843822,-31.695917,-25.392031,-47.686848,123.46194,-35.181099,-20.815893,-16.538811,146.56026
2518000000,-16.722965,11.308805,-36.58572,-18.827269,-33.434299,-19.577188,-31.664831,-26.675486,-36.59557,-19.076551,-12.420481,-179.59288,-46.850906,4.0081987,-47.793297,119.31294,-33.353909,-19.906055,-46.751194,3.9971697,-14.516424,7.828022,-35.111897,-22.796185,-31.685553,-26.806301,-47.833813,119.07816,-35.220276,-22.75351,-16.54088,146.11926
2518500000,-16.740656,11.380637,-36.694584,-18.926476,-33.424469,-20.410065,-31.667154,-28.060249,-36.70792,-19.221992,-12.387897,-179.70731,-47.199524,3.8371696,-47.899464,115.07603,-33.349018,-20.815697,-47.096325,3.7931559,-14.473523,7.4700236,-35.162682,-24.667969,-31.686756,-28.22151,-47.943008,114.89351,-35.268379,-24.621223,-16.539719,145.65179
2519000000,-16.751143,11.487236,-36.774971,-18.966372,-33.403114,-21.39784,-31.677778,-29.399031,-36.795601,-19.290091,-12.353565,-179.82144,-47.590584,3.8175046,-47.991325,110.94785,-33.337837,-21.843971,-47.481598,3.7708433,-14.428292,7.1259508,-35.219456,-26.529676,-31.697939,-29.57752,-48.027626,110.74228,-35.322987,-26.489986,-16.536367,145.17162
2519500000,-16.751831,11.625131,-36.830872,-19.001467,-33.391338,-22.517202,-31.692812,-30.652517,-36.858734,-19.373686,-12.320183,-179.95012,-48.040649,4.3529687,-48.071003,106.89507,-33.333809,-23.003117,-47.944626,4.3276758,-14.380091,6.7912054,-35.286701,-28.357122,-31.712053,-30.865007,-48.104813,106.69457,-35.388824,-28.316549,-16.530912,144.68063
2520000000,-16.743673,11.766632,-36.866791,-19.131376,-33.388958,-23.703671,-31.702007,-31.850191,-36.904274,-19.505325,-12.288088,179.90311,-48.500607,5.6815267,-48.140488,102.85669,-33.344078,-24.192047,-48.413734,5.6214833,-14.329948,6.4638267,-35.364155,-30.13806,-31.721754,-32.102493,-48.185905,102.73241,-35.465481,-30.119076,-16.525082,144.16789
2520500000,-16.727282,11.90631,-36.894409,-19.269009,-33.400295,-24.900789,-31.701635,-33.051098,-36.937294,-19.641644,-12.254301,179.7618,-48.964508,7.6761541,-48.229275,99.129723,-33.366734,-25.398096,-48.872826,7.6415091,-14.276412,6.1275868,-35.452656,-31.83795,-31.724428,-33.337395,-48.274353,99.074577,-35.552372,-31.808977,-16.51927,143.62903
2521000000,-16.705288,12.031583,-36.903831,-19.44779,-33.424305,-26.071621,-31.69986,-34.282845,-36.956287,-19.799509,-12.223742,179.58606,-49.384815,10.489397,-48.29858,95.749893,-33.398914,-26.550735,-49.294292,10.477146,-14.219769,5.7775168,-35.540215,-33.429714,-31.726345,-34.605396,-48.342804,95.757904,-35.637547,-33.424099,-16.514734,143.07079
2521500000,-16.673086,12.140859,-36.907482,-19.697838,-33.449764,-27.184862,-31.692734,-35.518379,-36.963799,-20.023441,-12.192541,179.40506,-49.747295,14.019086,-48.366505,92.773033,-33.434891,-27.639893,-49.650471,13.941547,-14.163393,5.3942499,-35.623035,-34.994556,-31.724691,-35.86668,-48.404827,92.77903,-35.721321,-35.002476,-16.514723,142.49124
2522000000,-16.63472,12.22933,-36.902233,-19.977224,-33.472099,-28.315626,-31.680414,-36.824894,-36.960888,-20.238476,-12.161416,179.21126,-50.016087,18.468412,-48.367908,90.276054,-33.466564,-28.717609,-49.92411,18.347153,-14.105994,4.9887848,-35.709564,-36.572346,-31.717258,-37.200623,-48.39856,90.167419,-35.809063,-36.586815,-16.518518,141.89655
2522500000,-16.590899,12.293273,-36.874821,-20.286537,-33.502819,-29.420321,-31.671535,-38.212513,-36.935738,-20.559818,-12.132706,178.99704,-50.11721,23.374369,-48.304787,87.912399,-33.501373,-29.766689,-49.997349,23.219818,-14.052696,4.5605078,-35.801281,-38.090462,-31.712664,-38.59063,-48.344124,87.780121,-35.901848,-38.127914,-16.527018,141.30179
2523000000,-16.539301,12.334599,-36.840908,-20.767105,-33.523876,-30.491646,-31.666826,-39.685772,-36.905899,-21.037413,-12.107039,178.76663,-50.038197,28.299175,-48.165619,85.680992,-33.525436,-30.801004,-49.928768,28.093836,-14.000518,4.1258745,-35.895771,-39.60141,-31.710159,-40.087219,-48.207794,85.519783,-35.99559,-39.645412,-16.539324,140.72092
2523500000,-16.482519,12.358208,-36.813122,-21.332802,-33.537548,-31.611124,-31.676573,-41.237503,-36.882633,-21.598135,-12.08245,178.54141,-49.813183,33.111366,-47.959995,83.30471,-33.545727,-31.860346,-49.703804,32.865482,-13.951118,3.6795225,-35.995949,-41.106331,-31.723362,-41.661209,-48.005409,83.128937,-36.100243,-41.161987,-16.554873,140.17139
2524000000,-16.422655,12.357193,-36.793369,-21.928478,-33.554741,-32.755447,-31.704126,-42.808659,-36.867527,-22.189651,-12.062996,178.29796,-49.427231,37.515667,-47.712605,80.656517,-33.565308,-32.938721,-49.3116,37.153267,-13.905827,3.2266622,-36.110104,-42.570946,-31.753689,-43.269096,-47.766861,80.518326,-36.213718,-42.620117,-16.572201,139.62732
2524500000,-16.360966,12.329453,-36.768955,-22.569637,-33.569485,-33.98827,-31.746019,-44.383324,-36.851524,-22.774258,-12.044452,178.05708,-48.905693,41.015274,-47.463329,77.786728,-33.574905,-34.107983,-48.803627,40.662529,-13.860011,2.7785826,-36.234005,-43.953552,-31.802233,-44.849312,-47.519798,77.740341,-36.339127,-43.991077,-16.591467,139.11961
2525000000,-16.286507,12.285468,-36.743027,-23.22728,-33.586117,-35.272373,-31.798752,-45.94593,-36.825798,-23.399225,-12.028644,177.813,-48.350964,43.24213,-47.205452,74.867424,-33.590515,-35.34824,-48.257202,43.06673,-13.815514,2.3343844,-36.357567,-45.256805,-31.863266,-46.424629,-47.264793,74.892967,-36.46574,-45.275452,-16.612169,138.63319
2525500000,-16.208956,12.175517,-36.718296,-23.952709,-33.607525,-36.640408,-31.865831,-47.529434,-36.811726,-24.11179,-12.015825,177.57941,-47.81377,45.328289,-46.933052,71.942291,-33.60585,-36.699333,-47.724403,45.133865,-13.770548,1.8741707,-36.486496,-46.517368,-31.939966,-47.98513,-46.999649,71.955681,-36.59779,-46.530315,-16.631735,138.17194
2526000000,-16.127279,11.998078,-36.694252,-24.684322,-33.649006,-38.121296,-31.955225,-49.068996,-36.788982,-24.777,-12.005793,177.33527,-47.238132,46.460583,-46.668976,68.754669,-33.637074,-38.177673,-47.154037,46.223072,-13.732571,1.4001154,-36.631962,-47.638618,-32.034111,-49.526073,-46.728863,68.815842,-36.741245,-47.633484,-16.650249,137.73485
2526500000,-16.040382,11.749906,-36.663654,-25.497789,-33.70792,-39.622776,-32.062462,-50.578434,-36.761703,-25.562189,-11.998432,177.09802,-46.717777,46.931885,-46.412231,65.507484,-33.691006,-39.698933,-46.640232,46.721439,-13.698179,0.94425315,-36.771854,-48.607697,-32.146561,-50.993759,-46.477882,65.676262,-36.874496,-48.578316,-16.668783,137.28798
2527000000,-15.953157,11.41424,-36.64336,-26.441904,-33.783398,-41.114761,-32.193542,-51.997177,-36.746143,-26.454412,-11.993562,176.86285,-46.257278,47.113762,-46.180817,62.251671,-33.76635,-41.237453,-46.173752,46.844006,-13.666671,0.5086996,-36.903347,-49.472878,-32.28059,-52.368843,-46.244034,62.449799,-37.006645,-49.446743,-16.685705,136.87398
