!CSV A.01.01
!Keysight Technologies,N5222B,MY58422327,A.13.60.06
!Date: Monday, March 28, 2022 15:24:08
!Source: Standard

BEGIN CH1_DATA
Freq(Hz),S11(DB),S11(DEG),S12(DB),S12(DEG),S13(DB),S13(DEG),S14(DB),S14(DEG),S21(DB),S21(DEG),S22(DB),S22(DEG),S23(DB),S23(DEG),S24(DB),S24(DEG),S31(DB),S31(DEG),S32(DB),S32(DEG),S33(DB),S33(DEG),S34(DB),S34(DEG),S41(DB),S41(DEG),S42(DB),S42(DEG),S43(DB),S43(DEG),S44(DB),S44(DEG)
2500000000,-17.11705,24.199432,-32.839142,19.514038,-35.59095,13.208632,-31.257528,5.5831804,-32.969486,19.512323,-13.49587,-175.64862,-40.872314,13.383126,-44.993694,-70.429428,-35.638496,13.04914,-40.882355,13.227442,-16.376226,23.077126,-37.171303,19.721956,-31.251736,6.2126784,-45.066044,-69.64109,-37.296059,20.087725,-16.512129,165.12212
2500500000,-17.100235,23.865725,-32.930679,18.136189,-35.566452,12.840875,-31.326914,4.2623439,-33.061508,18.236748,-13.454839,-175.74437,-40.999001,12.185004,-44.948353,-72.802612,-35.617119,12.750848,-41.01532,12.09858,-16.323303,22.607042,-37.116913,19.065632,-31.302761,4.8632412,-45.006428,-71.877663,-37.219791,19.492289,-16.50375,164.77057
2501000000,-17.081196,23.544287,-33.034958,16.765858,-35.537968,12.463452,-31.405029,2.9766946,-33.16058,16.960796,-13.411996,-175.82317,-41.143253,10.94834,-44.905418,-75.313202,-35.584202,12.442622,-41.16576,10.874999,-16.268446,22.132584,-37.070087,18.227411,-31.36179,3.5055704,-44.943275,-74.38588,-37.158051,18.678507,-16.493052,164.40294
2501500000,-17.057457,23.242842,-33.137863,15.47773,-35.499634,12.151808,-31.491371,1.7953167,-33.253963,15.78038,-13.371141,-175.9164,-41.32085,9.7871284,-44.873665,-77.7873,-35.543873,12.196143,-41.341301,9.7817669,-16.215374,21.647627,-37.045547,17.317915,-31.430836,2.2177756,-44.895611,-76.841049,-37.115177,17.765623,-16.479063,164.0336
2502000000,-17.033119,22.922132,-33.240917,14.250463,-35.456833,11.891275,-31.576996,0.67067331,-33.34161,14.614146,-13.330574,-176.00937,-41.497936,8.8264875,-44.81546,-80.237251,-35.494022,11.971543,-41.524784,8.8250446,-16.164942,21.166513,-37.042877,16.365227,-31.504095,0.94254619,-44.826496,-79.340225,-37.093887,16.799925,-16.464111,163.64407
2502500000,-17.003277,22.591366,-33.341061,13.077008,-35.405441,11.582683,-31.663929,-0.37786141,-33.428196,13.459284,-13.289237,-176.10226,-41.668392,7.9959803,-44.734798,-82.728554,-35.439198,11.708025,-41.696705,8.0495129,-16.118816,20.690166,-37.066105,15.513536,-31.583405,-0.25488731,-44.735607,-81.812889,-37.09919,15.893034,-16.448393,163.22887
2503000000,-16.96929,22.236477,-33.433548,11.97661,-35.361435,11.331911,-31.74761,-1.3710721,-33.512482,12.367065,-13.250106,-176.22136,-41.829433,7.2192206,-44.639,-85.415741,-35.386215,11.503853,-41.853172,7.309916,-16.073,20.234877,-37.101776,14.845055,-31.667156,-1.3945732,-44.632938,-84.501289,-37.121574,15.11131,-16.431938,162.80505
2503500000,-16.938452,21.843754,-33.515209,10.869825,-35.304123,11.211278,-31.833881,-2.3048148,-33.580521,11.263813,-13.211573,-176.34679,-41.956768,6.3401051,-44.509964,-88.173744,-35.322487,11.394342,-41.982609,6.5011482,-16.029558,19.803667,-37.126469,14.409341,-31.754143,-2.4622993,-44.490585,-87.25592,-37.140423,14.582157,-16.415424,162.36563
2504000000,-16.905403,21.435356,-33.588997,9.7628336,-35.22261,11.196468,-31.915134,-3.1794186,-33.644165,10.134958,-13.173444,-176.47408,-42.089539,5.3290482,-44.365341,-91.211296,-35.234795,11.408933,-42.109364,5.5797257,-15.985586,19.398478,-37.133511,14.085623,-31.840988,-3.479919,-44.326218,-90.27002,-37.144524,14.146513,-16.398756,161.89467
2504500000,-16.873678,21.015642,-33.656727,8.6332836,-35.110008,11.179245,-31.994427,-3.9840627,-33.703449,8.995595,-13.137753,-176.6187,-42.232449,4.0948057,-44.194752,-94.564346,-35.116138,11.393699,-42.233711,4.3603621,-15.93881,19.008654,-37.114937,13.866334,-31.929302,-4.4138627,-44.137039,-93.669785,-37.124268,13.843643,-16.379728,161.42081
2505000000,-16.839014,20.605392,-33.718067,7.4353671,-34.966282,11.106072,-32.065575,-4.7215652,-33.754662,7.7818542,-13.105072,-176.77919,-42.412193,2.7252345,-44.019669,-98.324074,-34.964348,11.329968,-42.409603,2.9945436,-15.890482,18.62237,-37.063747,13.717348,-32.01088,-5.2613463,-43.942879,-97.517532,-37.083828,13.590151,-16.362507,160.89996
2505500000,-16.80369,20.175768,-33.781593,6.2251201,-34.78825,10.880685,-32.130402,-5.4421983,-33.809113,6.5527291,-13.073746,-176.93137,-42.634972,1.3357756,-43.866245,-102.50404,-34.779907,11.124131,-42.621689,1.5922056,-15.840392,18.241282,-36.975426,13.481467,-32.089207,-6.0520883,-43.770817,-101.82331,-37.003899,13.298698,-16.345137,160.36316
2506000000,-16.769009,19.740685,-33.844402,4.9593344,-34.590958,10.421859,-32.190407,-6.1414604,-33.861637,5.2598081,-13.045429,-177.09081,-42.891071,-0.070086382,-43.727303,-107.06207,-34.573147,10.666567,-42.866592,0.15487641,-15.788474,17.865608,-36.86562,13.144539,-32.162792,-6.8228927,-43.622017,-106.56219,-36.90374,12.912515,-16.328783,159.78728
2506500000,-16.732944,19.301685,-33.913845,3.6072483,-34.389149,9.7426653,-32.245632,-6.7806334,-33.918842,3.8739018,-13.020193,-177.25784,-43.210476,-1.408157,-43.632145,-111.99764,-34.359215,9.9773254,-43.176609,-1.2506995,-15.734767,17.490059,-36.740826,12.64957,-32.232735,-7.5011206,-43.528049,-111.72548,-36.786758,12.406828,-16.315104,159.19414
2507000000,-16.699739,18.8629,-33.997818,2.2525587,-34.182842,8.8110619,-32.287262,-7.3787465,-33.993149,2.4644651,-12.995054,-177.40219,-43.585484,-2.464915,-43.588722,-117.24666,-34.142273,9.0258179,-43.56134,-2.4109154,-15.678686,17.114958,-36.603851,12.042676,-32.290367,-8.1404409,-43.494915,-117.16815,-36.659103,11.823709,-16.305262,158.57069
2507500000,-16.660921,18.436932,-34.088158,0.92043084,-33.985538,7.6327415,-32.319454,-7.9969273,-34.075726,1.0539098,-12.973491,-177.55119,-44.008606,-3.1356862,-43.607037,-122.72141,-33.938065,7.8100996,-43.995056,-3.0881531,-15.62101,16.740824,-36.455002,11.284306,-32.338585,-8.7774305,-43.529381,-122.76095,-36.516563,11.071701,-16.298584,157.93849
2508000000,-16.625826,17.988085,-34.189457,-0.40647474,-33.808468,6.2798052,-32.348644,-8.6333036,-34.170067,-0.37549064,-12.951745,-177.68358,-44.46019,-3.2663074,-43.685101,-128.25998,-33.757736,6.4326544,-44.451069,-3.1850228,-15.56334,16.364607,-36.305847,10.374308,-32.384052,-9.4107647,-43.633163,-128.4104,-36.375694,10.184009,-16.295538,157.3019
2508500000,-16.59156,17.528835,-34.297478,-1.6960915,-33.6558,4.7402625,-32.375786,-9.2503242,-34.278378,-1.7349354,-12.929538,-177.79779,-44.910435,-2.808037,-43.814243,-133.84483,-33.598412,4.9082961,-44.899323,-2.6328731,-15.501438,15.994109,-36.16436,9.3562002,-32.425022,-10.002845,-43.785545,-134.00438,-36.23484,9.1814985,-16.294998,156.65392
2509000000,-16.564539,17.038359,-34.411739,-2.9335554,-33.530312,3.1164048,-32.398205,-9.8258324,-34.394737,-3.0627575,-12.909976,-177.9223,-45.325077,-1.7381557,-43.992718,-139.37656,-33.467918,3.2668815,-45.313675,-1.4865829,-15.438308,15.61165,-36.021721,8.2495222,-32.460884,-10.535292,-43.975845,-139.48114,-36.096409,8.0876064,-16.295841,156.01367
2509500000,-16.542191,16.550076,-34.530945,-4.1587539,-33.432251,1.4465039,-32.410286,-10.353412,-34.52298,-4.3528857,-12.888019,-178.03362,-45.678078,-0.18123211,-44.194897,-144.82906,-33.36095,1.5888348,-45.65868,0.10802929,-15.372128,15.222873,-35.879272,7.0705528,-32.483299,-11.019864,-44.186176,-144.92891,-35.954544,6.9026141,-16.299049,155.36935
2510000000,-16.528969,16.056973,-34.658958,-5.3226075,-33.35453,-0.24356623,-32.406876,-10.893593,-34.658943,-5.5691533,-12.864778,-178.13042,-45.951637,1.5699842,-44.43486,-150.23239,-33.275982,-0.14108855,-45.931583,1.9028763,-15.305067,14.818398,-35.734055,5.7932839,-32.487309,-11.487544,-44.427391,-150.28773,-35.817501,5.6292968,-16.305458,154.71251
2510500000,-16.529097,15.572904,-34.796291,-6.3929119,-33.304028,-1.9492872,-32.390339,-11.446283,-34.807018,-6.5995984,-12.842985,-178.23795,-46.192959,3.5086453,-44.686363,-155.57201,-33.215984,-1.8914108,-46.136314,3.8470323,-15.239298,14.392423,-35.592941,4.4141822,-32.474857,-11.98704,-44.687126,-155.63002,-35.68018,4.2599182,-16.313044,154.0865
2511000000,-16.53253,15.132612,-34.934303,-7.3066292,-33.274338,-3.6134236,-32.364124,-12.065239,-34.946785,-7.4872456,-12.820956,-178.32997,-46.341534,5.7568517,-44.961483,-160.87326,-33.179844,-3.6259477,-46.275558,6.0496402,-15.17296,13.950076,-35.452614,2.916244,-32.452591,-12.551881,-44.958035,-160.90726,-35.5457,2.7873464,-16.3241,153.45332
2511500000,-16.538363,14.735419,-35.055855,-8.0949821,-33.263824,-5.2265491,-32.335407,-12.743692,-35.067055,-8.2474222,-12.797343,-178.40608,-46.37608,7.9869552,-45.253239,-166.1281,-33.164951,-5.3163319,-46.310333,8.1471338,-15.108793,13.487743,-35.319599,1.2694592,-32.424225,-13.177316,-45.244335,-166.22812,-35.41486,1.1892697,-16.338173,152.83696
2512000000,-16.546507,14.369984,-35.159229,-8.8678246,-33.260204,-6.7286901,-32.301579,-13.442762,-35.166561,-9.0244789,-12.773288,-178.49178,-46.320583,9.9167423,-45.559731,-171.1962,-33.163685,-6.9258313,-46.268204,9.8900557,-15.051242,12.998537,-35.205208,-0.50450516,-32.390926,-13.826401,-45.555351,-171.4765,-35.304783,-0.55038768,-16.354465,152.24019
2512500000,-16.553053,14.027191,-35.248066,-9.7023478,-33.275234,-8.1795568,-32.264576,-14.158582,-35.250729,-9.8589067,-12.74896,-178.57622,-46.211067,11.550027,-45.870499,-176.35275,-33.183708,-8.4838676,-46.171532,11.439137,-14.995704,12.524926,-35.102077,-2.3048935,-32.349907,-14.511854,-45.872234,-176.69423,-35.200466,-2.3089809,-16.370787,151.66823
2513000000,-16.557842,13.69838,-35.333431,-10.564536,-33.293423,-9.5257788,-32.214634,-14.881943,-35.330551,-10.767514,-12.723336,-178.64699,-46.019291,12.594597,-46.187561,178.59627,-33.213593,-9.9138031,-45.996521,12.495042,-14.942513,12.050347,-35.015354,-4.1698294,-32.298763,-15.223804,-46.204582,178.10666,-35.112274,-4.1729827,-16.388075,151.10434
2513500000,-16.561911,13.381093,-35.415165,-11.502815,-33.309704,-10.831239,-32.157761,-15.668612,-35.412415,-11.772972,-12.697394,-178.71931,-45.800217,12.930818,-46.513496,173.54131,-33.245735,-11.261343,-45.794762,12.851382,-14.893278,11.577371,-34.946457,-6.0697246,-32.239674,-16.024153,-46.539043,173.07751,-35.039452,-6.0621099,-16.406713,150.55893
2514000000,-16.569469,13.055368,-35.505192,-12.476272,-33.329624,-12.108874,-32.092522,-16.554417,-35.503872,-12.828342,-12.669798,-178.79227,-45.615437,12.499028,-46.821068,168.66698,-33.276123,-12.532881,-45.626419,12.56345,-14.844286,11.115142,-34.887222,-7.9895568,-32.17609,-16.897047,-46.861599,168.15562,-34.978809,-7.9843135,-16.427002,150.01886
2514500000,-16.575491,12.750873,-35.60936,-13.511917,-33.348446,-13.368542,-32.022606,-17.51058,-35.611732,-13.944342,-12.641675,-178.87383,-45.481155,11.499294,-47.110531,163.66087,-33.310875,-13.791184,-45.503345,11.708831,-14.79777,10.652817,-34.838284,-9.9316654,-32.109501,-17.861231,-47.162243,163.10211,-34.934158,-9.9290257,-16.445929,149.51466
2515000000,-16.583046,12.460284,-35.735725,-14.492904,-33.377064,-14.619953,-31.953825,-18.563023,-35.744549,-14.973537,-12.613863,-178.95377,-45.442745,10.273901,-47.404541,158.67656,-33.348232,-14.976489,-45.460403,10.620131,-14.752797,10.19941,-34.805943,-11.906161,-32.044579,-18.899942,-47.454105,158.07079,-34.904949,-11.883319,-16.463917,149.03059
2515500000,-16.596214,12.183517,-35.861694,-15.368291,-33.411499,-15.850698,-31.884693,-19.718508,-35.883076,-15.892876,-12.586082,-179.03456,-45.471073,8.99265,-47.67617,153.75885,-33.388222,-16.132711,-45.469337,9.3982792,-14.708758,9.7569675,-34.782642,-13.82312,-31.979374,-20.03508,-47.722931,153.1076,-34.882736,-13.786485,-16.479048,148.57094
2516000000,-16.615767,11.937683,-35.993256,-16.209015,-33.455124,-17.018879,-31.82032,-20.974455,-36.031364,-16.751163,-12.556006,-179.09998,-45.554089,7.6667252,-47.928871,148.56151,-33.432835,-17.225971,-45.533165,8.1178665,-14.664983,9.3256388,-34.764194,-15.785091,-31.92222,-21.264713,-47.958832,147.98131,-34.862289,-15.720925,-16.492239,148.09689
2516500000,-16.637945,11.762316,-36.143677,-16.954912,-33.507671,-18.085018,-31.768497,-22.310684,-36.198193,-17.504023,-12.525172,-179.17767,-45.705338,6.2962537,-48.219307,143.27831,-33.477726,-18.234745,-45.65696,6.7971277,-14.62128,8.895359,-34.758167,-17.823853,-31.87364,-22.564699,-48.222527,142.62431,-34.854374,-17.718163,-16.502354,147.66714
2517000000,-16.659454,11.64296,-36.2971,-17.430735,-33.550465,-19.104654,-31.728514,-23.696983,-36.367275,-17.934183,-12.494594,-179.27429,-45.901665,4.9745903,-48.509937,138.37796,-33.516014,-19.199198,-45.830029,5.4705205,-14.579131,8.4705191,-34.773865,-19.877481,-31.837698,-23.896469,-48.528782,137.60532,-34.86861,-19.732214,-16.510025,147.22198
2517500000,-16.685081,11.57724,-36.438198,-17.803057,-33.603127,-19.958319,-31.699026,-25.121946,-36.523022,-18.23522,-12.461632,-179.36311,-46.205299,3.7768359,-48.76506,133.5554,-33.557499,-20.048483,-46.124825,4.2027698,-14.538481,8.0710125,-34.809536,-21.890797,-31.810612,-25.265104,-48.801651,132.59247,-34.896801,-21.726364,-16.515158,146.7699
2518000000,-16.706219,11.576752,-36.555302,-18.019518,-33.624756,-20.730661,-31.684595,-26.557924,-36.652813,-18.31395,-12.428516,-179.47073,-46.571445,3.1098666,-49.027168,128.91882,-33.5755,-20.818346,-46.48587,3.4725547,-14.498081,7.6875682,-34.859238,-23.817947,-31.793489,-26.639111,-49.071301,127.82211,-34.937576,-23.636181,-16.518162,146.31931
2518500000,-16.72266,11.639324,-36.654026,-18.192541,-33.623524,-21.558176,-31.68256,-27.995174,-36.756149,-18.335722,-12.395346,-179.58917,-46.969631,2.869307,-49.236664,124.31094,-33.56728,-21.644266,-46.884926,3.1935804,-14.456963,7.325376,-34.915886,-25.65745,-31.788834,-28.025438,-49.301769,123.18095,-34.982826,-25.525673,-16.519073,145.84392
2519000000,-16.732134,11.736646,-36.73447,-18.292377,-33.611553,-22.478872,-31.693401,-29.378744,-36.829502,-18.288128,-12.361256,-179.70755,-47.415901,2.8865049,-49.424984,119.79221,-33.548466,-22.631397,-47.330185,3.2266724,-14.414095,6.9825292,-34.977077,-27.50448,-31.796288,-29.360077,-49.518799,118.62703,-35.038776,-27.405714,-16.517759,145.35675
2519500000,-16.732046,11.861201,-36.790054,-18.416548,-33.603485,-23.525063,-31.709618,-30.689651,-36.870682,-18.270643,-12.327987,-179.83974,-47.940819,3.7506776,-49.597374,115.34777,-33.536217,-23.745955,-47.842381,4.1061287,-14.367725,6.6504197,-35.046761,-29.321238,-31.807253,-30.628389,-49.714645,114.21372,-35.106564,-29.265455,-16.514364,144.86118
2520000000,-16.725021,11.990976,-36.82909,-18.594343,-33.604446,-24.640192,-31.71936,-31.927343,-36.892727,-18.364153,-12.296149,-179.98714,-48.452583,5.4690747,-49.773201,110.98238,-33.539749,-24.935658,-48.336815,5.8907585,-14.318707,6.3252306,-35.128033,-31.071535,-31.812918,-31.832293,-49.899284,109.97229,-35.187386,-31.088863,-16.511028,144.34508
2520500000,-16.70853,12.121943,-36.858742,-18.787807,-33.6115,-25.753036,-31.723879,-33.16317,-36.899288,-18.522732,-12.262333,179.87379,-48.940376,8.131341,-49.932774,106.946,-33.558392,-26.120178,-48.789139,8.4418859,-14.266315,5.9916058,-35.219814,-32.743656,-31.812233,-33.028683,-50.064899,105.99626,-35.280823,-32.811783,-16.508091,143.80856
2521000000,-16.687786,12.241739,-36.875027,-18.994209,-33.626549,-26.852074,-31.725004,-34.407959,-36.893509,-18.776485,-12.231466,179.70163,-49.345375,11.722902,-50.060925,103.22475,-33.586796,-27.288939,-49.181072,11.787251,-14.211345,5.6402378,-35.313946,-34.323811,-31.807726,-34.25293,-50.203629,102.48796,-35.377522,-34.442406,-16.506002,143.26172
2521500000,-16.656866,12.352348,-36.881252,-19.268938,-33.642551,-27.925339,-31.719812,-35.660423,-36.882519,-19.128885,-12.199784,179.52507,-49.62516,15.932933,-50.17384,99.977837,-33.615173,-28.39072,-49.460293,15.753999,-14.155445,5.2577672,-35.399441,-35.869507,-31.796225,-35.484932,-50.300308,99.255333,-35.470612,-36.005188,-16.507883,142.69298
2522000000,-16.619318,12.44298,-36.878532,-19.529417,-33.652016,-29.033068,-31.709536,-36.997047,-36.871998,-19.521578,-12.16791,179.33182,-49.778057,20.818672,-50.190697,97.166344,-33.64426,-29.494677,-49.621567,20.389887,-14.099704,4.8530602,-35.492176,-37.43763,-31.779566,-36.822624,-50.316818,96.530975,-35.568405,-37.588333,-16.513313,142.11394
2522500000,-16.576056,12.512348,-36.852913,-19.846704,-33.667355,-30.153168,-31.70447,-38.41497,-36.847309,-19.97407,-12.138705,179.11807,-49.709198,25.838736,-50.117611,94.541718,-33.676666,-30.574776,-49.585079,25.122597,-14.047785,4.4257994,-35.593033,-38.952824,-31.767769,-38.226135,-50.242546,94.015175,-35.672474,-39.080158,-16.522041,141.5322
2523000000,-16.524515,12.562575,-36.823463,-20.339857,-33.675964,-31.264198,-31.705463,-39.909508,-36.822201,-20.55751,-12.112269,178.88692,-49.485538,30.239693,-49.948471,91.938972,-33.701454,-31.613163,-49.412445,29.433714,-13.997195,3.9933577,-35.694672,-40.440136,-31.762251,-39.747189,-50.068172,91.429138,-35.775631,-40.547451,-16.534739,140.96426
2523500000,-16.4671,12.590704,-36.798023,-20.906694,-33.686546,-32.461853,-31.723373,-41.472424,-36.810589,-21.230307,-12.087195,178.65855,-49.182251,34.250046,-49.692524,89.007523,-33.71986,-32.69455,-49.137447,33.541405,-13.949337,3.5502295,-35.808662,-41.906624,-31.774393,-41.333157,-49.812798,88.574554,-35.889687,-42.017876,-16.550394,140.42937
2524000000,-16.404884,12.596992,-36.780926,-21.505762,-33.701469,-33.677372,-31.756582,-43.049732,-36.805538,-21.879284,-12.067517,178.41412,-48.753288,37.724442,-49.398418,85.728157,-33.737274,-33.803959,-48.735893,37.072315,-13.905974,3.1061618,-35.934868,-43.276863,-31.806437,-42.937901,-49.513081,85.468765,-36.014282,-43.424194,-16.567579,139.89738
2524500000,-16.34182,12.569532,-36.761086,-22.096373,-33.714714,-34.972538,-31.80508,-44.608055,-36.799587,-22.486765,-12.049307,178.17145,-48.256626,40.427555,-49.125984,82.163437,-33.752483,-34.976513,-48.260574,39.8983,-13.862103,2.6723022,-36.065392,-44.548439,-31.853756,-44.515377,-49.208664,81.987755,-36.143005,-44.725697,-16.586624,139.40323
2525000000,-16.266319,12.528555,-36.732273,-22.749393,-33.734596,-36.326908,-31.862202,-46.165462,-36.786003,-23.140015,-12.033364,177.92909,-47.769062,42.165131,-48.842491,78.637451,-33.765469,-36.230965,-47.791565,41.861641,-13.819129,2.2433505,-36.192989,-45.699894,-31.913864,-46.082233,-48.911034,78.478455,-36.271122,-45.934002,-16.606762,138.92995
2525500000,-16.18824,12.420047,-36.712208,-23.473848,-33.762196,-37.780582,-31.934656,-47.710537,-36.779072,-23.84041,-12.020367,177.69614,-47.307819,43.859802,-48.562061,75.013718,-33.780571,-37.58197,-47.328087,43.674511,-13.774413,1.8016412,-36.317009,-46.82383,-31.987623,-47.633556,-48.612606,74.841537,-36.403175,-47.080849,-16.625481,138.47989
2526000000,-16.106201,12.247048,-36.685516,-24.169813,-33.811897,-39.308559,-32.026917,-49.239567,-36.764076,-24.505474,-12.010445,177.45377,-46.784317,44.898521,-48.286381,71.24099,-33.813828,-39.083572,-46.811985,44.821613,-13.735442,1.3476771,-36.451569,-47.801273,-32.079716,-49.137115,-48.329407,71.031349,-36.545635,-48.104153,-16.643089,138.05704
2526500000,-16.017706,12.004883,-36.652836,-24.979883,-33.877586,-40.821915,-32.137897,-50.714664,-36.742847,-25.268143,-12.002697,177.21962,-46.312214,45.373539,-48.04298,67.559669,-33.867767,-40.583443,-46.325748,45.444218,-13.69999,0.90768576,-36.569977,-48.665981,-32.18977,-50.60112,-48.073513,67.324135,-36.677933,-48.977135,-16.660227,137.6291
2527000000,-15.928618,11.677236,-36.637245,-25.898109,-33.962769,-42.337967,-32.271023,-52.097755,-36.733231,-26.144344,-11.997481,176.9864,-45.875362,45.481899,-47.809536,64.000473,-33.941425,-42.102894,-45.878719,45.637905,-13.666215,0.482034,-36.684258,-49.483879,-32.320492,-51.961197,-47.844158,63.787971,-36.807091,-49.7509,-16.674911,137.22632
