!CSV A.01.01
!Keysight Technologies,N5222B,MY58422327,A.13.60.06
!Date: Monday, March 28, 2022 15:50:58
!Source: Standard

BEGIN CH1_DATA
Freq(Hz),S11(DB),S11(DEG),S12(DB),S12(DEG),S13(DB),S13(DEG),S14(DB),S14(DEG),S21(DB),S21(DEG),S22(DB),S22(DEG),S23(DB),S23(DEG),S24(DB),S24(DEG),S31(DB),S31(DEG),S32(DB),S32(DEG),S33(DB),S33(DEG),S34(DB),S34(DEG),S41(DB),S41(DEG),S42(DB),S42(DEG),S43(DB),S43(DEG),S44(DB),S44(DEG)
2500000000,-16.800989,25.903851,-32.543278,6.0253367,-38.021095,-11.843405,-31.884602,24.715975,-32.619305,6.1256127,-13.485799,-172.68285,-39.495041,25.360867,-45.148739,-158.53598,-38.005569,-11.974278,-39.48177,25.560518,-15.59941,23.461805,-34.883736,-35.938007,-31.95162,24.542595,-45.177605,-159.88292,-34.941151,-36.133907,-16.585043,166.82066
2500500000,-16.776274,25.534517,-32.620945,4.6574516,-38.088684,-11.913749,-31.986538,23.573616,-32.697914,4.7424555,-13.435913,-172.82106,-39.630875,23.994152,-44.979397,-159.41083,-38.077991,-12.031657,-39.617977,24.257126,-15.55292,22.901245,-34.929829,-36.496254,-32.051991,23.420839,-45.032661,-160.64043,-34.991787,-36.724033,-16.573771,166.44724
2501000000,-16.747774,25.168371,-32.70858,3.3150713,-38.148338,-11.945444,-32.095497,22.525702,-32.783958,3.3906672,-13.384583,-172.94521,-39.787643,22.597363,-44.776329,-160.254,-38.139233,-11.991342,-39.768036,22.879879,-15.506709,22.345531,-34.960648,-37.191444,-32.159767,22.382967,-44.858631,-161.36301,-35.029102,-37.457523,-16.561224,166.06012
2501500000,-16.714472,24.799866,-32.789692,2.0831788,-38.20734,-11.82223,-32.207569,21.631493,-32.867359,2.1592102,-13.336191,-173.08492,-39.958118,21.289268,-44.577663,-161.23372,-38.205837,-11.785779,-39.942913,21.629248,-15.463661,21.790163,-34.999123,-37.947968,-32.269604,21.498749,-44.678703,-162.19072,-35.070133,-38.215057,-16.547029,165.6682
2502000000,-16.681877,24.400726,-32.861694,0.88737094,-38.264164,-11.616344,-32.316956,20.822052,-32.940834,0.97709435,-13.288868,-173.2215,-40.152561,20.03949,-44.367245,-162.09865,-38.258118,-11.480252,-40.129105,20.412716,-15.423187,21.247658,-35.037373,-38.801559,-32.375736,20.694012,-44.474239,-162.87938,-35.116222,-39.065853,-16.532728,165.26314
2502500000,-16.645508,23.99118,-32.933956,-0.27477953,-38.309826,-11.354907,-32.422588,20.132711,-33.009338,-0.18819265,-13.241129,-173.36041,-40.344707,18.900623,-44.141811,-162.93616,-38.298786,-11.097572,-40.319942,19.349806,-15.386452,20.724104,-35.093876,-39.666878,-32.477871,20.02154,-44.243473,-163.53964,-35.177177,-39.963642,-16.518902,164.84081
2503000000,-16.605797,23.558529,-32.996441,-1.3970628,-38.359173,-10.98195,-32.520813,19.549789,-33.068459,-1.3039184,-13.196974,-173.52234,-40.544102,17.812412,-43.885143,-163.88094,-38.335144,-10.628542,-40.509953,18.363569,-15.350826,20.222879,-35.161106,-40.538158,-32.574402,19.428303,-43.984966,-164.31801,-35.253719,-40.841164,-16.504026,164.41832
2503500000,-16.569544,23.089766,-33.042839,-2.524065,-38.410625,-10.415106,-32.607494,19.065685,-33.112423,-2.4444711,-13.153921,-173.68585,-40.732887,16.767881,-43.615398,-164.74767,-38.365494,-9.9619684,-40.692905,17.33378,-15.31625,19.748123,-35.241886,-41.296162,-32.659824,18.943567,-43.702999,-165.12448,-35.341557,-41.580467,-16.489597,163.9877
2504000000,-16.530777,22.600597,-33.084393,-3.6735554,-38.423889,-9.5090513,-32.682102,18.673664,-33.152405,-3.6100919,-13.111199,-173.84555,-40.931068,15.711247,-43.315399,-165.67351,-38.362469,-9.0527487,-40.879272,16.340664,-15.280492,19.301943,-35.321186,-41.96188,-32.733372,18.533516,-43.394299,-165.98831,-35.427284,-42.251499,-16.474934,163.52625
2504500000,-16.491961,22.097521,-33.120899,-4.8676767,-38.390381,-8.4839983,-32.743076,18.340714,-33.184692,-4.7991619,-13.071271,-174.01793,-41.132286,14.570586,-42.96793,-166.70757,-38.301224,-8.0177927,-41.063934,15.221456,-15.241905,18.883858,-35.402592,-42.52523,-32.792702,18.190327,-43.046589,-166.98036,-35.513649,-42.770782,-16.457598,163.06656
2505000000,-16.450575,21.579357,-33.147911,-6.1123247,-38.309425,-7.4218435,-32.782127,18.083408,-33.209686,-6.0503283,-13.034406,-174.20338,-41.364029,13.477237,-42.591,-167.95427,-38.196129,-6.986433,-41.277519,14.099981,-15.201083,18.462822,-35.479473,-42.996468,-32.831825,17.91379,-42.661137,-168.20505,-35.595688,-43.194202,-16.441692,162.57162
2505500000,-16.410219,21.025406,-33.175022,-7.379209,-38.154758,-6.4004049,-32.803307,17.813745,-33.234818,-7.3357897,-12.998961,-174.37952,-41.620552,12.380875,-42.177433,-169.54118,-38.02309,-6.1320353,-41.520931,12.927494,-15.157138,18.0459,-35.541367,-43.370468,-32.855545,17.622528,-42.242393,-169.75951,-35.658138,-43.525116,-16.424686,162.05968
2506000000,-16.373102,20.456768,-33.196114,-8.7474031,-37.958553,-5.7019677,-32.812481,17.526207,-33.2509,-8.7344933,-12.966956,-174.55788,-41.899742,11.329246,-41.748955,-171.43839,-37.807598,-5.5816841,-41.786823,11.726641,-15.111808,17.632484,-35.589569,-43.67754,-32.866428,17.312565,-41.799744,-171.66666,-35.704411,-43.799149,-16.40797,161.50923
2506500000,-16.338228,19.879889,-33.223431,-10.248225,-37.728233,-5.2213187,-32.804585,17.268929,-33.278019,-10.282199,-12.937954,-174.74022,-42.21928,10.321269,-41.304806,-173.78139,-37.571609,-5.3183823,-42.104496,10.597321,-15.065086,17.208521,-35.622704,-43.970634,-32.8633,17.043325,-41.354675,-174.04459,-35.736397,-44.066292,-16.393236,160.93994
2507000000,-16.309639,19.302227,-33.267113,-11.777127,-37.471024,-5.1506433,-32.776192,16.970198,-33.325146,-11.86833,-12.909061,-174.89432,-42.584332,9.5563154,-40.874439,-176.63939,-37.317047,-5.4238195,-42.480408,9.7244139,-15.017274,16.785463,-35.639946,-44.225323,-32.838234,16.740057,-40.922897,-176.89911,-35.754848,-44.319546,-16.381899,160.34499
2507500000,-16.277702,18.745354,-33.321491,-13.314013,-37.212585,-5.4302416,-32.729996,16.588259,-33.388016,-13.449163,-12.883125,-175.04784,-42.980869,9.1884842,-40.484501,-179.89316,-37.074295,-5.8572354,-42.894066,9.2612391,-14.969168,16.365194,-35.637749,-44.479404,-32.799427,16.358446,-40.532185,179.8428,-35.756657,-44.583763,-16.372713,159.73376
2508000000,-16.251659,18.177977,-33.386337,-14.884417,-36.969814,-5.9911957,-32.677509,16.091732,-33.46106,-15.037371,-12.856417,-175.17897,-43.388744,9.2801828,-40.142685,176.5714,-36.854843,-6.575335,-43.322403,9.4015903,-14.920985,15.947235,-35.622829,-44.804367,-32.754326,15.899618,-40.188641,176.30605,-35.744453,-44.892235,-16.367115,159.11082
2508500000,-16.227613,17.609169,-33.461777,-16.433361,-36.755405,-6.8135705,-32.6222,15.539514,-33.550449,-16.562313,-12.828226,-175.28845,-43.799965,9.9082451,-39.853489,172.808,-36.655899,-7.4575891,-43.736767,10.099886,-14.870546,15.54236,-35.603935,-45.188648,-32.702808,15.384433,-39.898319,172.55458,-35.727787,-45.253452,-16.365299,158.47713
2509000000,-16.211323,17.024569,-33.549923,-17.978575,-36.558262,-7.757575,-32.563126,14.925679,-33.646706,-18.04274,-12.801275,-175.40518,-44.16404,11.052312,-39.621796,168.95634,-36.485214,-8.4465523,-44.107525,11.29984,-14.819936,15.130553,-35.578693,-45.597,-32.646492,14.824059,-39.665985,168.70432,-35.702511,-45.617752,-16.364973,157.85043
2509500000,-16.200321,16.458738,-33.650871,-19.495438,-36.385468,-8.8454905,-32.49802,14.26797,-33.747734,-19.468195,-12.770544,-175.51471,-44.467525,12.550212,-39.444607,165.1265,-36.332794,-9.4910688,-44.416306,12.923614,-14.767524,14.722782,-35.550819,-46.01416,-32.578468,14.234748,-39.485657,164.87195,-35.67371,-45.99371,-16.367722,157.22202
2510000000,-16.198368,15.901048,-33.762142,-20.949394,-36.234024,-10.009824,-32.428856,13.550594,-33.8563,-20.8396,-12.737928,-175.61575,-44.709961,14.240644,-39.306797,161.38666,-36.197529,-10.573059,-44.644791,14.698112,-14.712959,14.318521,-35.518902,-46.423264,-32.502392,13.562251,-39.34256,161.11958,-35.634781,-46.343132,-16.373631,156.58087
2510500000,-16.206789,15.355681,-33.889744,-22.296339,-36.106838,-11.241981,-32.356453,12.741334,-33.973919,-22.127823,-12.70605,-175.73206,-44.889046,16.091208,-39.195915,157.73344,-36.075943,-11.694231,-44.811962,16.556723,-14.658451,13.904829,-35.472107,-46.80138,-32.4193,12.801749,-39.229992,157.48203,-35.586449,-46.70385,-16.381001,155.97395
2511000000,-16.217279,14.849265,-34.02224,-23.505079,-36.000015,-12.485825,-32.285439,11.867043,-34.093769,-23.298969,-12.67341,-175.83922,-44.990669,18.027651,-39.102295,154.2123,-35.974224,-12.840914,-44.89703,18.477512,-14.602066,13.478539,-35.410088,-47.183643,-32.338497,11.941923,-39.135193,153.93382,-35.516205,-47.079979,-16.392525,155.3587
2511500000,-16.230539,14.375451,-34.143002,-24.546263,-35.913776,-13.718932,-32.21653,10.948504,-34.202602,-24.329363,-12.63916,-175.93637,-45.001396,19.778261,-39.022736,150.69934,-35.884666,-13.957658,-44.901833,20.237261,-14.546436,13.037498,-35.328629,-47.658451,-32.260277,11.00785,-39.055511,150.41586,-35.428974,-47.555733,-16.407776,154.76318
2512000000,-16.246761,13.926974,-34.246696,-25.527796,-35.827454,-14.908138,-32.150833,9.9966536,-34.29493,-25.323492,-12.604176,-176.0499,-44.953304,21.230707,-38.968513,147.23445,-35.791584,-15.063303,-44.830566,21.60376,-14.495925,12.571677,-35.239235,-48.249203,-32.184456,10.032041,-39.003872,146.98555,-35.335567,-48.182987,-16.426407,154.19208
2512500000,-16.26285,13.487576,-34.331333,-26.515211,-35.768841,-16.150391,-32.081417,9.0329103,-34.372715,-26.348011,-12.568895,-176.16698,-44.871799,22.455336,-38.926975,143.80725,-35.721859,-16.242603,-44.747005,22.737295,-14.445951,12.120265,-35.146954,-48.875153,-32.110252,9.0203342,-38.962212,143.56865,-35.238281,-48.842571,-16.444971,153.66101
2513000000,-16.279524,13.059762,-34.408432,-27.52936,-35.71468,-17.293697,-32.0051,8.0166988,-34.442581,-27.40349,-12.532454,-176.27679,-44.735973,23.213894,-38.904152,140.4556,-35.657112,-17.34576,-44.616699,23.323299,-14.398912,11.666723,-35.046165,-49.591103,-32.027962,7.9516287,-38.937557,140.21716,-35.133358,-49.610554,-16.464401,153.14993
2513500000,-16.299555,12.638256,-34.478584,-28.611822,-35.667847,-18.41507,-31.925392,6.8896275,-34.51046,-28.516088,-12.495527,-176.39651,-44.591621,23.328903,-38.901917,137.19357,-35.595261,-18.462513,-44.480419,23.358662,-14.353745,11.220952,-34.942444,-50.416401,-31.947586,6.7657351,-38.933609,136.93385,-35.027424,-50.481102,-16.483904,152.66554
2514000000,-16.325426,12.218506,-34.549366,-29.727898,-35.617359,-19.526793,-31.851055,5.6594734,-34.576302,-29.690779,-12.457965,-176.52235,-44.470764,22.878239,-38.905174,134.06407,-35.534081,-19.584745,-44.379639,22.865084,-14.307692,10.789741,-34.835438,-51.31818,-31.874624,5.4747639,-38.937408,133.79704,-34.924126,-51.41394,-16.50341,152.19608
2514500000,-16.354027,11.838991,-34.625008,-30.930786,-35.57452,-20.659283,-31.784653,4.3484311,-34.650921,-30.926414,-12.420464,-176.6575,-44.427074,22.008734,-38.91111,130.96165,-35.483349,-20.767145,-44.354649,21.986954,-14.263219,10.354621,-34.728981,-52.327007,-31.812202,4.1101527,-38.94183,130.71638,-34.820202,-52.448479,-16.52029,151.77072
2515000000,-16.386265,11.492913,-34.712795,-32.118793,-35.542179,-21.827705,-31.729473,2.9478836,-34.739388,-32.156166,-12.383744,-176.79863,-44.470322,21.045107,-38.927307,127.95126,-35.441738,-21.963934,-44.404697,21.050613,-14.21764,9.9258699,-34.625118,-53.435574,-31.764629,2.7019835,-38.958015,127.69104,-34.723473,-53.584427,-16.533398,151.36639
2515500000,-16.424963,11.185823,-34.79945,-33.263756,-35.519112,-22.96526,-31.686592,1.5167023,-34.831306,-33.34037,-12.347449,-176.94513,-44.558159,20.186546,-38.94022,125.01074,-35.413509,-23.204567,-44.514839,20.255857,-14.171547,9.500926,-34.528778,-54.585529,-31.7288,1.256808,-38.974384,124.73192,-34.633236,-54.737339,-16.541651,150.98323
2516000000,-16.471003,10.932512,-34.889549,-34.448116,-35.507942,-24.061281,-31.657911,0.040511686,-34.924629,-34.530849,-12.309396,-177.08676,-44.697304,19.332504,-38.950012,122.00259,-35.404659,-24.359762,-44.671715,19.553432,-14.124979,9.0737762,-34.431198,-55.795269,-31.705441,-0.22087109,-38.990833,121.73293,-34.541729,-55.933075,-16.546177,150.57986
2516500000,-16.51869,10.771412,-34.992958,-35.631611,-35.503876,-25.063484,-31.644905,-1.4470413,-35.033775,-35.756462,-12.271711,-177.24107,-44.90551,18.63658,-38.978863,119.01112,-35.408428,-25.454073,-44.869934,19.026804,-14.078315,8.6346083,-34.337387,-57.088707,-31.696444,-1.6903604,-39.032505,118.70502,-34.449848,-57.195007,-16.545517,150.21037
2517000000,-16.564241,10.684015,-35.108929,-36.688255,-35.491642,-26.04661,-31.646523,-2.9027216,-35.155323,-36.800037,-12.235664,-177.41753,-45.132114,18.151833,-39.039604,116.07834,-35.40377,-26.468365,-45.096191,18.742889,-14.033682,8.1937141,-34.25246,-58.464916,-31.703146,-3.1272733,-39.09296,115.81074,-34.366467,-58.572151,-16.542412,149.823
2517500000,-16.614298,10.670121,-35.216961,-37.718128,-35.502384,-26.8927,-31.659565,-4.35004,-35.272564,-37.817631,-12.198334,-177.58659,-45.476425,18.030109,-39.109947,113.22272,-35.419464,-27.334278,-45.414654,18.857759,-13.989524,7.7672076,-34.178562,-59.876396,-31.718836,-4.53866,-39.1548,113.01411,-34.292553,-59.971172,-16.535864,149.42062
2518000000,-16.656307,10.745288,-35.323647,-38.660564,-35.483303,-27.632883,-31.685516,-5.7364535,-35.382473,-38.722054,-12.162477,-177.77203,-45.832447,18.684008,-39.186153,110.49811,-35.41325,-28.081982,-45.729221,19.617729,-13.946553,7.3516836,-34.111256,-61.290806,-31.746149,-5.8992648,-39.228683,110.33387,-34.22578,-61.379337,-16.52669,149.00786
2518500000,-16.692093,10.895473,-35.427616,-39.603558,-35.447456,-28.360033,-31.722145,-7.0437016,-35.486332,-39.627567,-12.127524,-177.96199,-46.148785,20.024408,-39.271835,107.92572,-35.381859,-28.801546,-46.00584,20.939026,-13.904127,6.9446878,-34.046402,-62.701958,-31.782328,-7.1723552,-39.301876,107.75648,-34.161324,-62.782471,-16.514921,148.56012
2519000000,-16.718401,11.086514,-35.530693,-40.496845,-35.40131,-29.210567,-31.762987,-8.2456713,-35.586636,-40.502956,-12.091918,-178.14844,-46.448345,21.746489,-39.353691,105.45489,-35.338322,-29.604803,-46.250061,22.488775,-13.860867,6.5528302,-33.978588,-64.170891,-31.820316,-8.3560076,-39.371521,105.2521,-34.095818,-64.257874,-16.501347,148.08966
2519500000,-16.731396,11.315117,-35.62817,-41.361046,-35.354202,-30.11009,-31.802029,-9.3379574,-35.684361,-41.374382,-12.057136,-178.34775,-46.705601,24.16044,-39.429771,103.03402,-35.286598,-30.472906,-46.469704,24.573887,-13.815125,6.165925,-33.915295,-65.708015,-31.853493,-9.4296856,-39.445274,102.79502,-34.033089,-65.767693,-16.487345,147.60387
2520000000,-16.735462,11.540982,-35.725117,-42.252796,-35.308189,-31.025785,-31.829515,-10.367264,-35.77861,-42.263054,-12.023739,-178.55809,-46.855873,26.912224,-39.51228,100.65361,-35.238785,-31.419233,-46.60891,26.963135,-13.768902,5.7804103,-33.86013,-67.301239,-31.87784,-10.461505,-39.520607,100.34476,-33.979584,-67.359375,-16.474464,147.09705
2520500000,-16.729778,11.767877,-35.825043,-43.067955,-35.258595,-31.972982,-31.84667,-11.385858,-35.875687,-43.118252,-11.989837,-178.76543,-46.895763,29.82992,-39.600346,98.401482,-35.190517,-32.386963,-46.667271,29.560537,-13.722094,5.3931031,-33.817467,-68.960602,-31.891792,-11.481811,-39.620819,98.033951,-33.93568,-68.983292,-16.462172,146.57304
2521000000,-16.718739,11.981389,-35.917816,-43.874386,-35.20826,-32.947803,-31.858505,-12.406524,-35.971058,-43.939056,-11.959597,-179.00465,-46.848064,32.680294,-39.694073,96.273071,-35.13982,-33.395775,-46.640636,32.081429,-13.673364,5.0013728,-33.784309,-70.631821,-31.9023,-12.522591,-39.721676,95.887894,-33.900112,-70.63401,-16.451191,146.0394
2521500000,-16.696602,12.187482,-36.008884,-44.677254,-35.153507,-33.935223,-31.861198,-13.431464,-36.065796,-44.732666,-11.928769,-179.2466,-46.719906,35.308804,-39.786907,94.293961,-35.088322,-34.40358,-46.571964,34.420757,-13.624258,4.5909777,-33.755692,-72.301262,-31.901398,-13.577716,-39.823734,93.906982,-33.868767,-72.287659,-16.443453,145.49216
2522000000,-16.667419,12.375942,-36.104553,-45.419205,-35.090004,-34.982185,-31.854456,-14.527515,-36.165207,-45.47118,-11.89881,-179.50229,-46.552872,37.74221,-39.86105,92.499191,-35.027248,-35.474659,-46.472466,36.841827,-13.574345,4.1710739,-33.732906,-74.02977,-31.896299,-14.704858,-39.900333,92.164146,-33.845272,-74.021149,-16.43874,144.92966
2522500000,-16.631535,12.549609,-36.187634,-46.085205,-35.027336,-36.084511,-31.848713,-15.688018,-36.250156,-46.093655,-11.872594,-179.7731,-46.323612,39.818844,-39.914593,90.80706,-34.968277,-36.616421,-46.298149,39.181034,-13.526807,3.7339056,-33.726402,-75.782768,-31.891975,-15.902936,-39.956703,90.492027,-33.835842,-75.764915,-16.436739,144.36604
2523000000,-16.586727,12.707922,-36.255154,-46.783985,-34.957607,-37.255596,-31.848913,-16.937023,-36.316154,-46.776669,-11.84915,179.9451,-46.078564,41.567932,-39.938995,89.167282,-34.903248,-37.809563,-46.072952,41.159168,-13.479766,3.2906241,-33.730068,-77.561821,-31.895363,-17.179066,-39.980808,88.898376,-33.835007,-77.54129,-16.437235,143.80821
2523500000,-16.534456,12.848783,-36.319302,-47.523994,-34.88686,-38.510326,-31.861578,-18.262064,-36.380665,-47.513294,-11.827889,179.67386,-45.823944,43.160625,-39.942371,87.473976,-34.842064,-39.121315,-45.818161,42.931122,-13.434497,2.8403511,-33.750168,-79.360085,-31.913151,-18.512468,-39.982353,87.226662,-33.852448,-79.320427,-16.440437,143.27406
2524000000,-16.477697,12.973255,-36.387707,-48.294388,-34.821507,-39.838264,-31.895527,-19.590014,-36.450058,-48.263924,-11.811723,179.39285,-45.547691,44.538773,-39.928181,85.715736,-34.785316,-40.502327,-45.530891,44.458691,-13.391976,2.3860502,-33.787979,-81.137299,-31.948168,-19.848799,-39.965828,85.462517,-33.885674,-81.088661,-16.445831,142.73149
2524500000,-16.417509,13.065557,-36.448689,-49.041424,-34.751472,-41.285229,-31.94451,-20.857597,-36.513725,-48.980484,-11.79636,179.11992,-45.243935,45.56633,-39.916634,83.834717,-34.729038,-41.952381,-45.230713,45.582024,-13.349024,1.932713,-33.84483,-82.86187,-31.998568,-21.126669,-39.950771,83.61718,-33.935081,-82.813316,-16.454216,142.22021
2525000000,-16.343876,13.146082,-36.499065,-49.790237,-34.691864,-42.854904,-32.002071,-22.070515,-36.569698,-49.754555,-11.783348,178.84984,-44.972031,46.337978,-39.902702,81.964638,-34.683193,-43.505657,-44.951813,46.414284,-13.30607,1.484647,-33.91317,-84.475327,-32.062298,-22.340693,-39.933819,81.761627,-33.996208,-84.440453,-16.464916,141.72156
2525500000,-16.26676,13.169494,-36.55302,-50.670403,-34.639328,-44.495731,-32.072365,-23.218437,-36.623638,-50.624531,-11.772494,178.59509,-44.679783,47.387287,-39.880348,80.059807,-34.642899,-45.1231,-44.65667,47.526394,-13.261212,1.0121748,-33.985367,-85.978088,-32.13443,-23.474077,-39.908554,79.872612,-34.062683,-86.010712,-16.47621,141.25375
2526000000,-16.182665,13.134268,-36.612919,-51.541416,-34.59771,-46.300953,-32.152351,-24.24407,-36.691517,-51.463181,-11.764028,178.32951,-44.353168,47.919525,-39.865326,78.107643,-34.617039,-46.872341,-44.329136,48.16658,-13.222987,0.52234805,-34.06509,-87.412567,-32.2146,-24.511366,-39.885071,77.912857,-34.137775,-87.507103,-16.48646,140.81799
2526500000,-16.089649,13.034087,-36.671646,-52.485622,-34.583652,-48.20071,-32.236019,-25.175348,-36.75108,-52.347736,-11.757369,178.07239,-44.057705,48.242744,-39.85265,76.203705,-34.605907,-48.648766,-44.017754,48.568436,-13.18847,0.043587737,-34.143253,-88.736092,-32.300831,-25.427271,-39.873657,75.978516,-34.215466,-88.898026,-16.496965,140.38295
2527000000,-15.993634,12.843719,-36.742126,-53.509678,-34.590569,-50.105064,-32.320496,-25.952877,-36.816166,-53.321037,-11.753331,177.82014,-43.767799,48.552784,-39.8433,74.30249,-34.612774,-50.490585,-43.723717,48.906055,-13.15637,-0.42348093,-34.215118,-90.002846,-32.388054,-26.20701,-39.862423,74.067299,-34.296352,-90.216896,-16.50519,139.9754
