!CSV A.01.01
!Keysight Technologies,N5222B,MY58422327,A.13.60.06
!Date: Monday, March 28, 2022 15:51:48
!Source: Standard

BEGIN CH1_DATA
Freq(Hz),S11(DB),S11(DEG),S12(DB),S12(DEG),S13(DB),S13(DEG),S14(DB),S14(DEG),S21(DB),S21(DEG),S22(DB),S22(DEG),S23(DB),S23(DEG),S24(DB),S24(DEG),S31(DB),S31(DEG),S32(DB),S32(DEG),S33(DB),S33(DEG),S34(DB),S34(DEG),S41(DB),S41(DEG),S42(DB),S42(DEG),S43(DB),S43(DEG),S44(DB),S44(DEG)
2500000000,-16.947678,26.183323,-32.258137,10.919087,-36.557095,-21.821257,-32.268101,25.965551,-32.283752,10.530369,-13.480504,-172.83844,-40.694023,16.348639,-44.973118,-159.5968,-36.551006,-21.652822,-40.661209,16.086956,-15.488266,24.643867,-34.558208,-33.721542,-32.316582,25.890453,-44.943554,-158.95482,-34.63847,-33.691921,-16.587612,167.14946
2500500000,-16.923641,25.836151,-32.337254,9.5135717,-36.639374,-22.28656,-32.359016,24.930506,-32.36681,9.0933895,-13.431759,-172.97545,-40.843834,14.763285,-44.814438,-160.96419,-36.641445,-22.100737,-40.818027,14.574042,-15.441224,24.049185,-34.598812,-34.239998,-32.408058,24.848343,-44.770741,-160.24599,-34.673431,-34.246296,-16.573833,166.7919
2501000000,-16.894899,25.486689,-32.425259,8.1524229,-36.728073,-22.656792,-32.458843,23.970673,-32.457832,7.7048941,-13.382364,-173.0956,-41.017815,13.119075,-44.64584,-162.26823,-36.736416,-22.436037,-40.994545,13.014707,-15.395067,23.457434,-34.618633,-34.899994,-32.502922,23.885036,-44.58778,-161.51782,-34.694515,-34.929893,-16.55817,166.41566
2501500000,-16.861593,25.136423,-32.506031,6.8911781,-36.832439,-22.876816,-32.55484,23.145267,-32.54425,6.4344802,-13.335172,-173.22609,-41.213089,11.535531,-44.484184,-163.60405,-36.839931,-22.615463,-41.188038,11.535939,-15.352895,22.871307,-34.640659,-35.6469,-32.600323,23.071386,-44.417221,-162.86607,-34.717613,-35.690758,-16.540802,166.03059
2502000000,-16.828854,24.754816,-32.580261,5.659543,-36.937321,-22.920666,-32.65086,22.38176,-32.625374,5.2110171,-13.289019,-173.35178,-41.422577,10.019895,-44.325668,-164.80775,-36.938515,-22.628035,-41.398041,10.104962,-15.313425,22.301931,-34.665833,-36.481976,-32.691872,22.301161,-44.251526,-164.15038,-34.747055,-36.55172,-16.52326,165.62457
2502500000,-16.793037,24.35886,-32.652439,4.457119,-37.025665,-22.836523,-32.739666,21.730902,-32.702255,4.0171585,-13.241804,-173.4772,-41.640049,8.5608339,-44.157982,-165.88898,-37.026146,-22.516382,-41.603477,8.7386141,-15.277955,21.753036,-34.702606,-37.355679,-32.780968,21.645891,-44.085529,-165.3326,-34.788231,-37.443497,-16.506821,165.19916
2503000000,-16.753967,23.943308,-32.716904,3.3011701,-37.116287,-22.617832,-32.81757,21.16025,-32.772758,2.8986824,-13.197803,-173.62645,-41.860874,7.1633139,-43.962757,-166.97108,-37.109097,-22.292152,-41.819454,7.3564434,-15.2439,21.231733,-34.758781,-38.208942,-32.860004,21.046978,-43.893097,-166.44902,-34.846863,-38.307869,-16.490559,164.7731
2503500000,-16.719057,23.492851,-32.768387,2.1463234,-37.20293,-22.218172,-32.89035,20.660835,-32.831074,1.7556789,-13.154296,-173.77876,-42.075466,5.6983738,-43.754848,-167.90979,-37.191853,-21.874371,-42.026039,5.9255853,-15.210811,20.741796,-34.82159,-38.961723,-32.932297,20.518105,-43.684361,-167.41959,-34.915176,-39.066139,-16.474625,164.34602
2504000000,-16.68152,23.027239,-32.816856,0.99759907,-37.26202,-21.493597,-32.955185,20.208767,-32.882301,0.62235332,-13.110762,-173.92671,-42.3092,4.2267981,-43.516796,-168.83044,-37.247929,-21.221794,-42.245682,4.4334683,-15.176764,20.28315,-34.88179,-39.644333,-32.99638,20.05591,-43.440746,-168.41862,-34.978626,-39.758305,-16.457804,163.88652
2504500000,-16.644102,22.553135,-32.859905,-0.16794136,-37.273491,-20.63822,-33.010143,19.84539,-32.927277,-0.50478965,-13.069859,-174.09235,-42.554287,2.5852833,-43.224491,-169.80862,-37.257004,-20.396282,-42.478016,2.7503424,-15.139534,19.851583,-34.938118,-40.229488,-33.052143,19.671841,-43.158871,-169.41219,-35.038177,-40.33493,-16.438322,163.43488
2505000000,-16.603319,22.072458,-32.894146,-1.3848749,-37.236763,-19.741623,-33.04562,19.548279,-32.95998,-1.6824036,-13.031662,-174.27487,-42.834972,0.91345853,-42.894531,-170.91959,-37.2295,-19.533213,-42.755352,1.0144898,-15.10033,19.422731,-34.99329,-40.733837,-33.087311,19.343788,-42.828053,-170.57434,-35.096264,-40.835468,-16.419245,162.94734
2505500000,-16.562944,21.562481,-32.924282,-2.618809,-37.142162,-18.944599,-33.067108,19.261944,-32.988258,-2.8717997,-12.99501,-174.45099,-43.153336,-0.88631922,-42.521526,-172.37372,-37.136692,-18.702326,-43.073517,-0.79790586,-15.057367,19.001268,-35.029022,-41.198219,-33.111572,19.034756,-42.453728,-172.0121,-35.136131,-41.28323,-16.39883,162.43523
2506000000,-16.523811,21.03966,-32.948299,-3.9586065,-37.004032,-18.388493,-33.07761,18.977097,-33.011539,-4.1720233,-12.961909,-174.63377,-43.51366,-2.682796,-42.117294,-174.1283,-37.000317,-18.074137,-43.4338,-2.6043456,-15.012533,18.587318,-35.05537,-41.625679,-33.123962,18.735044,-42.060139,-173.77231,-35.164883,-41.69873,-16.378422,161.87813
2506500000,-16.484972,20.504511,-32.97979,-5.4292812,-36.844063,-18.009705,-33.068531,18.747135,-33.037224,-5.6014533,-12.932211,-174.82077,-43.933853,-4.4660897,-41.702606,-176.30998,-36.833019,-17.664038,-43.851162,-4.3978291,-14.965679,18.161222,-35.067982,-42.061745,-33.119976,18.491718,-41.647038,-175.94873,-35.180756,-42.1161,-16.359789,161.2995
2507000000,-16.450211,19.960667,-33.031528,-6.9000559,-36.656971,-17.939461,-33.035751,18.441847,-33.076313,-7.0698423,-12.903398,-174.98326,-44.43491,-6.1362286,-41.291286,-178.9346,-36.636803,-17.55302,-44.356045,-6.0211916,-14.918048,17.733973,-35.071682,-42.485294,-33.091335,18.198757,-41.247112,-178.61159,-35.187836,-42.524235,-16.344845,160.6893
2507500000,-16.413069,19.434814,-33.086624,-8.3766727,-36.471413,-18.18931,-32.986832,18.044903,-33.12661,-8.5440884,-12.877719,-175.14241,-45.011269,-7.398695,-40.913387,178.03368,-36.443047,-17.77606,-44.926186,-7.256609,-14.869551,17.310999,-35.062542,-42.899796,-33.047024,17.806328,-40.867901,178.37689,-35.182369,-42.932602,-16.33284,160.06015
2508000000,-16.381735,18.887024,-33.152134,-9.8915939,-36.294399,-18.673544,-32.934147,17.549776,-33.188992,-10.041624,-12.851964,-175.27711,-45.652439,-8.1882973,-40.571037,174.68808,-36.264534,-18.259144,-45.546627,-8.0060835,-14.821341,16.890011,-35.045052,-43.390999,-32.993977,17.325783,-40.521008,175.00484,-35.166576,-43.396351,-16.325422,159.4153
2508500000,-16.351589,18.332064,-33.229286,-11.351501,-36.137177,-19.363834,-32.880783,16.994984,-33.26022,-11.52825,-12.824725,-175.38541,-46.348698,-8.3177481,-40.276371,171.06755,-36.100536,-18.953316,-46.221127,-8.0668411,-14.770264,16.483959,-35.022652,-43.909946,-32.94265,16.792021,-40.229298,171.42477,-35.14563,-43.894207,-16.322895,158.75731
2509000000,-16.330502,17.753277,-33.314426,-12.817621,-36.00491,-20.144825,-32.826088,16.423676,-33.341015,-13.001404,-12.798404,-175.50217,-47.056511,-7.5213146,-40.030224,167.29684,-35.959846,-19.773785,-46.911221,-7.3685036,-14.718077,16.073744,-34.998928,-44.466805,-32.889221,16.215664,-39.986164,167.70546,-35.121391,-44.411713,-16.323271,158.10425
2509500000,-16.314634,17.183149,-33.411682,-14.24216,-35.889961,-20.986153,-32.763622,15.826094,-33.434742,-14.4477,-12.768322,-175.60966,-47.739872,-5.9804583,-39.840466,163.51634,-35.840561,-20.666172,-47.573551,-5.9310303,-14.662964,15.664981,-34.970875,-44.995399,-32.826977,15.626607,-39.796227,163.92369,-35.094269,-44.912296,-16.327166,157.45525
2510000000,-16.308588,16.621687,-33.517838,-15.599165,-35.782963,-21.853016,-32.691593,15.177845,-33.540176,-15.832117,-12.735828,-175.70731,-48.379498,-3.6846433,-39.69622,159.8114,-35.737831,-21.570562,-48.191288,-3.7479241,-14.606563,15.255468,-34.936661,-45.520187,-32.756329,14.993946,-39.648731,160.2355,-35.058399,-45.405087,-16.335274,156.80211
2510500000,-16.314737,16.074196,-33.634899,-16.853832,-35.69046,-22.789003,-32.612942,14.448763,-33.656689,-17.113716,-12.704055,-175.81935,-48.967987,-0.57089871,-39.578316,156.174,-35.644283,-22.540524,-48.769035,-0.86639613,-14.548521,14.832656,-34.888962,-46.018337,-32.673519,14.276555,-39.528858,156.58356,-35.008133,-45.87534,-16.344801,156.18951
2511000000,-16.323849,15.567184,-33.751141,-17.980154,-35.612206,-23.744944,-32.53093,13.628035,-33.773506,-18.247896,-12.67128,-175.92427,-49.451065,3.4005208,-39.481678,152.62502,-35.570518,-23.493986,-49.236324,2.8753924,-14.489602,14.388141,-34.826019,-46.532299,-32.592236,13.460963,-39.435486,153.00574,-34.93882,-46.392696,-16.357691,155.57819
2511500000,-16.33552,15.097858,-33.855659,-18.967669,-35.552658,-24.704489,-32.450809,12.735047,-33.877663,-19.251081,-12.636591,-176.0179,-49.731945,7.813179,-39.40918,149.10017,-35.508793,-24.45055,-49.547287,7.110393,-14.431486,13.924201,-34.744026,-47.1245,-32.512745,12.572992,-39.356209,149.43248,-34.85548,-46.980278,-16.373407,154.99619
2512000000,-16.350588,14.656092,-33.944088,-19.919912,-35.490665,-25.600471,-32.371754,11.791782,-33.967285,-20.224003,-12.600508,-176.1308,-49.839092,12.114157,-39.359943,145.64117,-35.44677,-25.345087,-49.667316,11.167416,-14.379249,13.434141,-34.660946,-47.874756,-32.434647,11.640273,-39.306141,145.9545,-34.765881,-47.721798,-16.391273,154.4346
2512500000,-16.364502,14.235508,-34.015179,-20.893301,-35.442024,-26.513128,-32.293694,10.844123,-34.039742,-21.226255,-12.564733,-176.24812,-49.798538,16.170902,-39.322491,142.23283,-35.404072,-26.304123,-49.664532,15.073348,-14.328437,12.95738,-34.576134,-48.653557,-32.35535,10.681613,-39.273335,142.54608,-34.676807,-48.520561,-16.407942,153.90961
2513000000,-16.377619,13.822523,-34.076801,-21.897594,-35.402122,-27.375242,-32.207405,9.8176489,-34.105103,-22.239492,-12.527538,-176.36276,-49.579586,19.471447,-39.304379,138.88814,-35.361305,-27.144886,-49.484982,18.191803,-14.281106,12.481829,-34.484634,-49.535973,-32.271889,9.6806154,-39.259464,139.2196,-34.583138,-49.424252,-16.425161,153.40079
2513500000,-16.392729,13.412122,-34.133415,-22.98674,-35.358883,-28.167925,-32.118824,8.6905003,-34.164463,-23.32188,-12.490586,-176.48709,-49.291447,21.44035,-39.305222,135.65703,-35.314857,-27.966465,-49.232899,20.101999,-14.236342,12.018268,-34.397274,-50.493,-32.181644,8.5495462,-39.261612,135.99506,-34.496048,-50.407749,-16.441864,152.91208
2514000000,-16.413481,12.992724,-34.193859,-24.131058,-35.306515,-28.988729,-32.036705,7.4490504,-34.223942,-24.454203,-12.452703,-176.62122,-49.037338,22.207224,-39.313381,132.55461,-35.262264,-28.774603,-49.006767,20.871737,-14.190454,11.566894,-34.30925,-51.521694,-32.097504,7.3282175,-39.268284,132.87865,-34.410275,-51.448536,-16.459236,152.4325
2514500000,-16.436335,12.599861,-34.25787,-25.334732,-35.24897,-29.846319,-31.960989,6.1194301,-34.291157,-25.685514,-12.415308,-176.76587,-48.89996,21.923685,-39.315994,129.46873,-35.204258,-29.621113,-48.892838,20.833296,-14.146306,11.114428,-34.225468,-52.582966,-32.020554,6.0039878,-39.275772,129.80893,-34.324726,-52.533142,-16.474192,151.99266
2515000000,-16.464939,12.235723,-34.335976,-26.544413,-35.190098,-30.749058,-31.900909,4.7019615,-34.371655,-26.911295,-12.379345,-176.91315,-48.901478,21.485985,-39.333836,126.50527,-35.146221,-30.530188,-48.905697,20.437546,-14.100941,10.673504,-34.143185,-53.731369,-31.95911,4.5993414,-39.296177,126.7917,-34.246391,-53.664257,-16.486422,151.57289
2515500000,-16.500872,11.905081,-34.416729,-27.736414,-35.141586,-31.727804,-31.853079,3.2392623,-34.45319,-28.102322,-12.344049,-177.06729,-48.988548,21.070778,-39.349728,123.53645,-35.096615,-31.510111,-49.024372,20.07692,-14.0551,10.234014,-34.070438,-54.871326,-31.909451,3.1378794,-39.315403,123.88745,-34.172722,-54.813381,-16.49445,151.17917
2516000000,-16.54533,11.629271,-34.503059,-28.964176,-35.103714,-32.727894,-31.818846,1.7322898,-34.541897,-29.34992,-12.307353,-177.21338,-49.1861,20.609066,-39.36528,120.54178,-35.057911,-32.49448,-49.241215,19.746889,-14.009233,9.7935162,-33.99041,-56.046028,-31.874567,1.6398071,-39.333031,120.92645,-34.089729,-55.971493,-16.499224,150.76619
2516500000,-16.592981,11.444076,-34.607323,-30.185949,-35.073917,-33.691902,-31.805286,0.21492913,-34.649166,-30.57103,-12.271334,-177.36748,-49.50584,20.558811,-39.408062,117.51517,-35.028069,-33.469025,-49.566814,19.832312,-13.963064,9.3500242,-33.906956,-57.293388,-31.859064,0.11226926,-39.366318,117.98641,-34.005398,-57.227444,-16.498672,150.38985
2517000000,-16.641235,11.335955,-34.725231,-31.234606,-35.036671,-34.661716,-31.808643,-1.28241,-34.772549,-31.610849,-12.236633,-177.54163,-49.895802,21.081947,-39.47192,114.6254,-34.992397,-34.413433,-49.939507,20.483187,-13.918737,8.8999491,-33.829784,-58.645725,-31.859615,-1.4006476,-39.421692,115.10597,-33.925541,-58.567215,-16.495573,149.99435
2517500000,-16.692684,11.307508,-34.835205,-32.245033,-35.021503,-35.562717,-31.825033,-2.7235298,-34.887234,-32.600727,-12.200419,-177.70911,-50.437515,22.671934,-39.538525,111.82546,-34.976418,-35.299931,-50.474495,22.02886,-13.875662,8.4702044,-33.760765,-60.012146,-31.875868,-2.8616881,-39.486073,112.30032,-33.853539,-59.950485,-16.489193,149.58765
2518000000,-16.739574,11.378844,-34.940208,-33.17141,-34.990395,-36.372509,-31.856829,-4.1063704,-34.999332,-33.472702,-12.165145,-177.89334,-50.958744,25.77968,-39.622543,109.14686,-34.945557,-36.07172,-50.983833,25.005606,-13.832278,8.0531425,-33.693073,-61.41901,-31.907429,-4.2423873,-39.569061,109.56001,-33.785988,-61.367897,-16.47942,149.17537
2518500000,-16.780231,11.538758,-35.038357,-34.070965,-34.942844,-37.207336,-31.898989,-5.3706355,-35.101074,-34.316242,-12.130776,-178.08266,-51.351124,30.21372,-39.696545,106.63403,-34.894436,-36.867447,-51.394798,29.338882,-13.789643,7.644628,-33.630375,-62.849224,-31.950062,-5.5249081,-39.650848,106.98986,-33.721931,-62.817577,-16.467184,148.72282
2519000000,-16.810003,11.758322,-35.134773,-34.931343,-34.89043,-38.155346,-31.944099,-6.5093851,-35.193905,-35.123241,-12.09583,-178.27002,-51.585781,35.319901,-39.780342,104.16865,-34.835701,-37.76738,-51.697296,34.453476,-13.745253,7.2517519,-33.568832,-64.337105,-31.994398,-6.673172,-39.730995,104.53571,-33.659145,-64.318665,-16.452595,148.24803
2519500000,-16.825987,12.018729,-35.224037,-35.791225,-34.838539,-39.161972,-31.979773,-7.5149841,-35.281757,-35.914574,-12.062312,-178.46776,-51.633976,41.514782,-39.868481,101.83431,-34.779144,-38.774853,-51.801849,40.606297,-13.698379,6.8621082,-33.513618,-65.882835,-32.030819,-7.6734095,-39.816116,102.14458,-33.605545,-65.875458,-16.436634,147.75642
2520000000,-16.829971,12.285413,-35.312061,-36.668293,-34.799103,-40.212585,-32.000488,-8.4530487,-35.360256,-36.731621,-12.030895,-178.68097,-51.383156,47.506809,-39.949833,99.519562,-34.727776,-39.842251,-51.603886,47.075428,-13.650271,6.473834,-33.467243,-67.482407,-32.052799,-8.6294937,-39.907944,99.799042,-33.557335,-67.49334,-16.422224,147.23691
2520500000,-16.822786,12.546082,-35.401798,-37.510601,-34.758369,-41.26173,-32.005161,-9.4094677,-35.44009,-37.55513,-11.998245,-178.8848,-50.912144,52.531101,-40.040646,97.336708,-34.682152,-40.902897,-51.132915,52.674534,-13.600884,6.0825739,-33.431225,-69.141449,-32.05703,-9.5711851,-40.006027,97.611374,-33.523911,-69.131157,-16.408876,146.69687
2521000000,-16.80875,12.7906,-35.48695,-38.325626,-34.720112,-42.314632,-31.999693,-10.38528,-35.517982,-38.388809,-11.969226,-179.11685,-50.328003,56.402508,-40.12582,95.319008,-34.642654,-42.022629,-50.521439,57.000568,-13.549418,5.682456,-33.40514,-70.793549,-32.055252,-10.563571,-40.097019,95.594299,-33.494354,-70.779076,-16.397522,146.15039
2521500000,-16.783915,13.023738,-35.575119,-39.140648,-34.680408,-43.333092,-31.98649,-11.408693,-35.595089,-39.212463,-11.93966,-179.34895,-49.71534,58.953964,-40.212086,93.42498,-34.601372,-43.079594,-49.877651,59.934315,-13.497346,5.259644,-33.384045,-72.447205,-32.044968,-11.577173,-40.185532,93.741737,-33.46983,-72.43354,-16.389465,145.58791
2522000000,-16.751823,13.234966,-35.661362,-39.897514,-34.630543,-44.402225,-31.970879,-12.515492,-35.677105,-39.997364,-11.910724,-179.59366,-49.126488,60.832561,-40.275711,91.703148,-34.550652,-44.189358,-49.241184,62.157024,-13.445091,4.8217473,-33.369335,-74.140724,-32.029007,-12.674911,-40.245537,92.052452,-33.453869,-74.150925,-16.384451,145.01068
2522500000,-16.712566,13.430263,-35.735077,-40.581856,-34.580048,-45.515377,-31.955761,-13.712144,-35.745125,-40.74231,-11.884736,-179.85268,-48.564079,62.094208,-40.315617,90.093117,-34.502834,-45.360287,-48.612568,63.508423,-13.395591,4.3618469,-33.365341,-75.862175,-32.012627,-13.853951,-40.285278,90.444443,-33.44693,-75.873657,-16.382702,144.43306
2523000000,-16.664314,13.608324,-35.800213,-41.334656,-34.52277,-46.697525,-31.949179,-14.985567,-35.803856,-41.567257,-11.861103,179.87703,-48.061661,62.835178,-40.324844,88.511711,-34.450668,-46.57983,-48.054523,64.201553,-13.346881,3.8982327,-33.371284,-77.600761,-32.005726,-15.112497,-40.290588,88.845261,-33.449978,-77.636162,-16.382963,143.86259
2523500000,-16.608076,13.767751,-35.867512,-42.143661,-34.470638,-47.975086,-31.956604,-16.305058,-35.870274,-42.465473,-11.838923,179.61629,-47.593639,63.466412,-40.304733,86.86264,-34.403831,-47.871223,-47.532917,64.682617,-13.300455,3.4251332,-33.390877,-79.361122,-32.013031,-16.41868,-40.272114,87.169777,-33.46677,-79.421425,-16.386196,143.31244
2524000000,-16.545944,13.908578,-35.936592,-42.942562,-34.417618,-49.307507,-31.982073,-17.613359,-35.942616,-43.36697,-11.821845,179.34396,-47.136204,63.89621,-40.262558,85.097984,-34.357941,-49.200588,-47.037888,64.865494,-13.257585,2.9512734,-33.426693,-81.09449,-32.037209,-17.719833,-40.238789,85.364861,-33.502365,-81.193352,-16.391743,142.75862
2524500000,-16.480322,14.011022,-36.006901,-43.70837,-34.364788,-50.740494,-32.020992,-18.873795,-36.023388,-44.214863,-11.805277,179.07697,-46.684921,64.009537,-40.224701,83.172836,-34.314491,-50.603706,-46.579205,64.78775,-13.213251,2.4815826,-33.475235,-82.755501,-32.073566,-18.971712,-40.202545,83.448891,-33.553307,-82.887108,-16.400063,142.2363
2525000000,-16.400333,14.091723,-36.06918,-44.490788,-34.323074,-52.255436,-32.070732,-20.085291,-36.098103,-45.042034,-11.790671,178.81026,-46.302322,63.874767,-40.191795,81.227776,-34.273212,-52.098503,-46.184711,64.449066,-13.16952,2.0113044,-33.532543,-84.34449,-32.119724,-20.199118,-40.172474,81.4832,-33.61594,-84.517578,-16.410463,141.72723
2525500000,-16.317253,14.103778,-36.138954,-45.354408,-34.287628,-53.834091,-32.12896,-21.235094,-36.182312,-45.936481,-11.778767,178.55197,-45.923275,64.133186,-40.151825,79.1791,-34.23912,-53.646111,-45.799408,64.523338,-13.124301,1.5215275,-33.592842,-85.881027,-32.178177,-21.366615,-40.140217,79.488762,-33.682072,-86.051659,-16.421129,141.24168
2526000000,-16.229544,14.04412,-36.212826,-46.152897,-34.260113,-55.545856,-32.196869,-22.261604,-36.269791,-46.722584,-11.76968,178.28282,-45.519241,63.906651,-40.124237,77.051888,-34.212551,-55.332539,-45.404655,64.183945,-13.085303,1.0128793,-33.659576,-87.35585,-32.245213,-22.42178,-40.117981,77.405739,-33.75243,-87.526169,-16.431438,140.78584
2526500000,-16.134754,13.920729,-36.285019,-46.983173,-34.253674,-57.336712,-32.271065,-23.187099,-36.352917,-47.510555,-11.762834,178.02341,-45.161057,63.600639,-40.113281,74.945694,-34.205395,-57.103508,-45.043053,63.684246,-13.049678,0.51286006,-33.730194,-88.769386,-32.318748,-23.377258,-40.108601,75.334343,-33.8265,-88.919571,-16.441771,140.32851
2527000000,-16.038563,13.707435,-36.365276,-47.84684,-34.266636,-59.146721,-32.345943,-23.939692,-36.442276,-48.321617,-11.758701,177.76695,-44.827843,63.271,-40.111034,72.899857,-34.218525,-58.899769,-44.712864,63.218285,-13.017025,0.021846566,-33.801521,-90.128464,-32.395206,-24.163591,-40.107048,73.342148,-33.901062,-90.242264,-16.450451,139.89427
