!CSV A.01.01
!Keysight Technologies,N5222B,MY58422327,A.13.60.06
!Date: Monday, March 28, 2022 15:53:23
!Source: Standard

BEGIN CH1_DATA
Freq(Hz),S11(DB),S11(DEG),S12(DB),S12(DEG),S13(DB),S13(DEG),S14(DB),S14(DEG),S21(DB),S21(DEG),S22(DB),S22(DEG),S23(DB),S23(DEG),S24(DB),S24(DEG),S31(DB),S31(DEG),S32(DB),S32(DEG),S33(DB),S33(DEG),S34(DB),S34(DEG),S41(DB),S41(DEG),S42(DB),S42(DEG),S43(DB),S43(DEG),S44(DB),S44(DEG)
2500000000,-16.928984,26.203737,-32.189358,9.6565247,-36.880146,-22.432346,-32.014652,26.781897,-32.255688,9.5374079,-13.482993,-172.75742,-40.732841,23.654964,-47.770481,-171.79163,-36.885555,-21.729883,-40.613144,23.856915,-15.509252,24.210022,-34.766594,-34.50882,-32.078724,26.473404,-47.965336,-172.12094,-34.827183,-34.45039,-16.432369,166.8551
2500500000,-16.906605,25.833757,-32.260033,8.1669636,-37.001579,-22.729048,-32.101139,25.649193,-32.328896,8.0560894,-13.434118,-172.88933,-40.929001,22.441442,-47.570824,-172.06699,-36.987556,-21.978727,-40.805206,22.646141,-15.461333,23.631361,-34.797142,-35.079399,-32.169609,25.347046,-47.761261,-172.29286,-34.860172,-35.031021,-16.420532,166.47314
2501000000,-16.880571,25.470993,-32.34222,6.7039595,-37.11581,-22.934048,-32.196129,24.580244,-32.4132,6.625206,-13.383436,-173.00266,-41.149849,21.200422,-47.3214,-172.40454,-37.086494,-22.154898,-41.016243,21.408812,-15.413508,23.053955,-34.814232,-35.820328,-32.267498,24.307392,-47.503094,-172.5694,-34.877197,-35.768219,-16.408104,166.07877
2501500000,-16.850698,25.117044,-32.426121,5.3456883,-37.234333,-22.957199,-32.294895,23.664124,-32.495728,5.2966805,-13.334833,-173.12842,-41.39386,20.119694,-47.072536,-173.03281,-37.191181,-22.16976,-41.250111,20.303333,-15.368996,22.472578,-34.832542,-36.669041,-32.366264,23.411411,-47.236565,-173.05389,-34.899479,-36.624851,-16.393559,165.68555
2502000000,-16.82148,24.735186,-32.504574,4.0417633,-37.346592,-22.766832,-32.393803,22.830448,-32.574333,4.008986,-13.286689,-173.25076,-41.645081,19.194622,-46.804035,-173.51376,-37.286385,-22.065214,-41.496521,19.364973,-15.327781,21.902681,-34.859074,-37.653614,-32.46677,22.575211,-46.95187,-173.53278,-34.924522,-37.607811,-16.378706,165.28328
2502500000,-16.788342,24.35129,-32.582371,2.7920685,-37.443031,-22.49456,-32.487938,22.122372,-32.650345,2.763834,-13.237202,-173.37585,-41.892891,18.466293,-46.538906,-174.00638,-37.37064,-21.891811,-41.7416,18.576897,-15.290701,21.347784,-34.902073,-38.724167,-32.562435,21.887577,-46.666828,-174.0699,-34.97068,-38.679329,-16.362921,164.86433
2503000000,-16.751398,23.946558,-32.65572,1.6177131,-37.541519,-22.13423,-32.57605,21.507576,-32.719559,1.586437,-13.190526,-173.52859,-42.135498,17.864777,-46.233181,-174.58794,-37.459824,-21.649767,-41.986561,17.914486,-15.255422,20.817417,-34.973297,-39.788788,-32.65427,21.283979,-46.356461,-174.69069,-35.041031,-39.730267,-16.345961,164.44553
2503500000,-16.717314,23.513649,-32.712261,0.44942591,-37.636433,-21.578611,-32.657284,20.990194,-32.774639,0.40922937,-13.144609,-173.68922,-42.360626,17.247602,-45.913651,-175.1653,-37.557072,-21.185242,-42.214031,17.294262,-15.222075,20.313124,-35.064705,-40.720612,-32.738358,20.784882,-46.023521,-175.30696,-35.131554,-40.661034,-16.328535,164.01695
2504000000,-16.680023,23.071089,-32.765339,-0.71777594,-37.702499,-20.741016,-32.725922,20.556267,-32.825382,-0.7763027,-13.098933,-173.85037,-42.590435,16.641863,-45.56385,-175.76337,-37.627373,-20.400955,-42.43642,16.695936,-15.188669,19.840134,-35.162476,-41.510979,-32.812107,20.366076,-45.665966,-176.0296,-35.226341,-41.465759,-16.309784,163.55327
2504500000,-16.641811,22.618692,-32.808735,-1.8999826,-37.727676,-19.68964,-32.784595,20.185827,-32.868347,-1.9712628,-13.056712,-174.03102,-42.816887,15.931362,-45.161598,-176.51385,-37.65313,-19.404512,-42.658127,15.965965,-15.153945,19.399817,-35.264858,-42.132801,-32.871231,20.051971,-45.25872,-176.80188,-35.325459,-42.107456,-16.287704,163.08574
2505000000,-16.598839,22.156193,-32.840088,-3.1465163,-37.705791,-18.587719,-32.822617,19.920368,-32.902916,-3.2430625,-13.01762,-174.22868,-43.078632,15.268963,-44.727055,-177.49767,-37.629543,-18.323456,-42.911892,15.252166,-15.116916,18.968287,-35.35965,-42.616364,-32.91037,19.790754,-44.813046,-177.88553,-35.423492,-42.600754,-16.266724,162.5726
2505500000,-16.556108,21.662468,-32.873096,-4.41188,-37.609085,-17.453508,-32.844307,19.630497,-32.938927,-4.5216541,-12.980232,-174.41779,-43.355251,14.600864,-44.253479,-178.86697,-37.538231,-17.244339,-43.186676,14.559566,-15.076245,18.547546,-35.431026,-42.947552,-32.930862,19.549221,-44.33215,-179.27792,-35.4991,-42.956913,-16.245399,162.03911
2506000000,-16.512955,21.152899,-32.900146,-5.7846131,-37.465279,-16.566984,-32.856789,19.356619,-32.969574,-5.8687148,-12.946965,-174.61404,-43.666183,14.017177,-43.75354,179.38123,-37.39711,-16.386541,-43.492161,14.004524,-15.033049,18.136,-35.485397,-43.230251,-32.938183,19.296688,-43.839031,178.90782,-35.554253,-43.21381,-16.225122,161.46278
2506500000,-16.470131,20.620869,-32.933567,-7.2478485,-37.286652,-15.880075,-32.849419,19.125031,-33.007065,-7.3336015,-12.916747,-174.81517,-44.007099,13.599442,-43.251598,177.1629,-37.224007,-15.708824,-43.823757,13.543858,-14.988661,17.722164,-35.519669,-43.470047,-32.929169,19.099941,-43.340431,176.62064,-35.589844,-43.471443,-16.206934,160.86412
2507000000,-16.431877,20.07336,-32.979454,-8.7510033,-37.071072,-15.515328,-32.818581,18.865971,-33.055874,-8.8113546,-12.887794,-174.98918,-44.396935,13.527073,-42.756763,174.37424,-37.007908,-15.383746,-44.204605,13.332145,-14.941393,17.306532,-35.533993,-43.710888,-32.894238,18.852962,-42.860111,173.79324,-35.607559,-43.694042,-16.192791,160.23653
2507500000,-16.39024,19.528385,-33.036434,-10.254618,-36.842415,-15.509686,-32.770374,18.522438,-33.112999,-10.305203,-12.862113,-175.16342,-44.809719,13.887131,-42.316872,171.09691,-36.786457,-15.400092,-44.606602,13.657474,-14.892863,16.89205,-35.529167,-43.956444,-32.84193,18.515709,-42.422184,170.5645,-35.604115,-43.925724,-16.181509,159.59486
2508000000,-16.355272,18.958191,-33.100937,-11.793064,-36.618706,-15.814238,-32.711948,18.093533,-33.17712,-11.817122,-12.836215,-175.31558,-45.202072,14.775757,-41.932503,167.58327,-36.56839,-15.760068,-44.999447,14.391921,-14.844258,16.477104,-35.507427,-44.25753,-32.783207,18.093174,-42.038685,167.01492,-35.582169,-44.242805,-16.174314,158.94298
2508500000,-16.323507,18.376728,-33.175159,-13.307965,-36.40675,-16.408651,-32.650707,17.601738,-33.251812,-13.326538,-12.809488,-175.44058,-45.57066,16.119581,-41.598156,163.83621,-36.367947,-16.337973,-45.36562,15.688375,-14.79293,16.07304,-35.473053,-44.671867,-32.717831,17.60107,-41.715576,163.27373,-35.554607,-44.641251,-16.170874,158.27583
2509000000,-16.300697,17.77187,-33.260376,-14.833527,-36.21648,-17.181118,-32.583355,17.068596,-33.333656,-14.822129,-12.784165,-175.57191,-45.883869,17.961231,-41.33073,159.98961,-36.188114,-17.113621,-45.691952,17.42511,-14.740309,15.664018,-35.43861,-45.140194,-32.647064,17.061775,-41.451962,159.45827,-35.516842,-45.09663,-16.169422,157.61295
2509500000,-16.284826,17.176622,-33.356915,-16.339228,-36.053726,-18.118494,-32.504543,16.495943,-33.427704,-16.304871,-12.754951,-175.69286,-46.115311,20.086216,-41.118858,156.19716,-36.027706,-17.999126,-45.93626,19.525621,-14.685508,15.255028,-35.401588,-45.620369,-32.564327,16.467728,-41.233356,155.6498,-35.478722,-45.576233,-16.171057,156.95329
2510000000,-16.279646,16.587458,-33.466331,-17.790411,-35.907425,-19.129295,-32.415981,15.840316,-33.53487,-17.779457,-12.723713,-175.80415,-46.267742,22.303602,-40.948368,152.49988,-35.88636,-19.007063,-46.098717,21.636282,-14.628827,14.841718,-35.35873,-46.131836,-32.474125,15.808434,-41.066643,151.94131,-35.4356,-46.067577,-16.176756,156.28143
2510500000,-16.287109,16.014742,-33.58606,-19.152704,-35.783924,-20.279436,-32.322296,15.073203,-33.654076,-19.119919,-12.693548,-175.93146,-46.354343,24.530924,-40.8064,148.93445,-35.762024,-20.085094,-46.191494,23.848965,-14.572252,14.412021,-35.308239,-46.606201,-32.377224,15.042375,-40.929531,148.35147,-35.388145,-46.573463,-16.183418,155.6423
2511000000,-16.2974,15.485255,-33.708916,-20.379038,-35.687687,-21.453428,-32.231834,14.197541,-33.775913,-20.343445,-12.662657,-176.05017,-46.358345,26.811241,-40.682812,145.48355,-35.665333,-21.195454,-46.189583,26.066231,-14.514835,13.968505,-35.243176,-47.124485,-32.282448,14.141792,-40.807209,144.88512,-35.32111,-47.078789,-16.193859,154.99619
2511500000,-16.311996,14.996381,-33.822052,-21.483227,-35.617027,-22.605997,-32.142544,13.258287,-33.888954,-21.449619,-12.630016,-176.15747,-46.268383,28.793283,-40.572712,142.05789,-35.589676,-22.311451,-46.119465,27.920591,-14.457457,13.506875,-35.158794,-47.690014,-32.192387,13.177404,-40.704311,141.45969,-35.238148,-47.651936,-16.207497,154.36644
2512000000,-16.330366,14.535328,-33.925762,-22.561668,-35.554035,-23.666138,-32.055214,12.268992,-33.990437,-22.518272,-12.596865,-176.28241,-46.122478,30.218529,-40.487843,138.68233,-35.518852,-23.30825,-45.986221,29.340652,-14.407222,13.019073,-35.067394,-48.392998,-32.105038,12.175255,-40.630466,138.11923,-35.147198,-48.377724,-16.224684,153.75516
2512500000,-16.348661,14.103345,-34.015903,-23.637781,-35.506207,-24.754913,-31.96896,11.256883,-34.081261,-23.607882,-12.563745,-176.41162,-45.945892,31.33584,-40.416862,135.37477,-35.466637,-24.38032,-45.826805,30.462143,-14.357392,12.548459,-34.974773,-49.181202,-32.018879,11.149019,-40.564735,134.83429,-35.05537,-49.15937,-16.242634,153.17781
2513000000,-16.367506,13.685263,-34.103176,-24.75029,-35.463345,-25.720516,-31.875496,10.169174,-34.166073,-24.702215,-12.530074,-176.53586,-45.741898,31.712542,-40.366367,132.12189,-35.414688,-25.32728,-45.633369,30.950626,-14.310874,12.075827,-34.877708,-50.055134,-31.927389,10.040716,-40.517017,131.63422,-34.955734,-50.052544,-16.263134,152.61821
2513500000,-16.387304,13.282688,-34.188473,-25.914137,-35.420197,-26.658339,-31.779846,8.9877815,-34.252579,-25.83876,-12.496768,-176.66756,-45.55674,31.498367,-40.326038,128.91483,-35.363529,-26.289221,-45.468853,30.740875,-14.267272,11.608436,-34.788116,-51.034821,-31.833439,8.831728,-40.485073,128.51973,-34.862755,-51.031174,-16.285128,152.08803
2514000000,-16.412781,12.883536,-34.278599,-27.082453,-35.372906,-27.592546,-31.691072,7.6879244,-34.34,-26.964912,-12.462844,-176.80354,-45.440506,30.756891,-40.301884,125.8695,-35.308628,-27.2491,-45.364033,30.087622,-14.223587,11.156546,-34.69817,-52.080498,-31.747461,7.5095677,-40.462139,125.55379,-34.772999,-52.095016,-16.307953,151.57748
2514500000,-16.439528,12.519127,-34.377583,-28.296864,-35.326164,-28.562147,-31.612543,6.2913823,-34.432518,-28.134245,-12.43014,-176.94508,-45.405857,29.698755,-40.278206,122.86346,-35.257912,-28.245766,-45.347195,29.049721,-14.181821,10.710414,-34.611103,-53.190464,-31.670162,6.0936933,-40.431488,122.64564,-34.687057,-53.190678,-16.32835,151.11363
2515000000,-16.470446,12.186451,-34.49192,-29.458334,-35.286179,-29.536289,-31.545057,4.8176112,-34.539303,-29.269028,-12.39823,-177.08635,-45.468948,28.698977,-40.262051,119.93517,-35.212296,-29.271353,-45.416748,28.136009,-14.138688,10.27779,-34.529747,-54.376873,-31.607224,4.6021395,-40.409531,119.7895,-34.608547,-54.371861,-16.345078,150.6777
2515500000,-16.508865,11.894065,-34.604454,-30.524071,-35.250462,-30.568768,-31.493196,3.2877629,-34.644032,-30.364805,-12.367141,-177.22849,-45.582516,27.84692,-40.247463,117.10226,-35.179272,-30.334175,-45.540356,27.429186,-14.095157,9.8508444,-34.454922,-55.552345,-31.560827,3.0695155,-40.38422,117.0034,-34.531639,-55.547577,-16.356791,150.26653
2516000000,-16.552067,11.663417,-34.717533,-31.595558,-35.224976,-31.571901,-31.458303,1.7020218,-34.751846,-31.472126,-12.334329,-177.35745,-45.749088,27.133692,-40.227325,114.26611,-35.155739,-31.377016,-45.713383,26.886623,-14.050692,9.4242802,-34.371708,-56.758221,-31.530077,1.4877254,-40.35191,114.1899,-34.451134,-56.74921,-16.364931,149.83397
2516500000,-16.596867,11.521809,-34.841084,-32.617165,-35.207558,-32.51862,-31.442806,0.11439521,-34.875843,-32.541836,-12.301479,-177.49187,-45.977352,26.60239,-40.220871,111.37208,-35.143505,-32.341507,-45.932808,26.532337,-14.0054,8.9925594,-34.28706,-58.041,-31.517025,-0.080800079,-40.341297,111.20827,-34.36705,-58.070896,-16.368217,149.44031
2517000000,-16.639393,11.455029,-34.972374,-33.448849,-35.183247,-33.459003,-31.446188,-1.4241326,-35.008846,-33.422295,-12.269235,-177.6434,-46.245415,26.346695,-40.241863,108.57865,-35.123356,-33.273426,-46.192825,26.427654,-13.961917,8.5571146,-34.210659,-59.434387,-31.523222,-1.5990374,-40.356747,108.36862,-34.290668,-59.481441,-16.369081,149.02692
2517500000,-16.68351,11.446797,-35.084724,-34.232964,-35.175026,-34.298252,-31.461407,-2.906579,-35.125851,-34.243328,-12.235004,-177.78381,-46.627636,26.684835,-40.267303,105.83163,-35.120049,-34.09539,-46.544857,26.89649,-13.918468,8.138731,-34.141293,-60.871895,-31.537498,-3.059577,-40.377674,105.61331,-34.222385,-60.928867,-16.366444,148.60489
2518000000,-16.722025,11.522988,-35.18293,-34.946651,-35.150627,-35.060265,-31.488113,-4.3160419,-35.229324,-34.984978,-12.201388,-177.93971,-46.995228,27.927446,-40.302322,103.19379,-35.098026,-34.816944,-46.899769,28.102186,-13.876164,7.7310262,-34.081276,-62.343918,-31.564167,-4.4564414,-40.4151,102.97248,-34.162903,-62.395294,-16.36088,148.17604
2518500000,-16.75276,11.671843,-35.270432,-35.707943,-35.104984,-35.815754,-31.521475,-5.6293645,-35.326981,-35.743179,-12.167485,-178.09987,-47.321587,29.878233,-40.341476,100.67062,-35.050529,-35.581825,-47.193699,30.03536,-13.833053,7.3361998,-34.025612,-63.823711,-31.59881,-5.7507768,-40.455845,100.44904,-34.109894,-63.882671,-16.352636,147.71367
2519000000,-16.774479,11.857412,-35.353931,-36.458229,-35.051601,-36.698025,-31.554674,-6.842567,-35.416615,-36.475113,-12.132547,-178.26073,-47.622002,32.401443,-40.379292,98.222664,-34.995022,-36.451023,-47.48167,32.438351,-13.788499,6.9524055,-33.969204,-65.367302,-31.634266,-6.9557548,-40.491241,97.984718,-34.05648,-65.423843,-16.341837,147.23012
2519500000,-16.784781,12.070085,-35.429642,-37.254879,-34.996975,-37.641983,-31.584599,-7.9494548,-35.499619,-37.214874,-12.098452,-178.43184,-47.851208,35.782169,-40.417717,95.821671,-34.940407,-37.398129,-47.693878,35.680325,-13.74034,6.5713887,-33.918377,-66.964767,-31.663721,-8.0422192,-40.531273,95.560867,-34.009048,-67.022911,-16.330223,146.7314
2520000000,-16.786856,12.280387,-35.508778,-38.078316,-34.952351,-38.678452,-31.601944,-8.9855013,-35.579327,-38.000637,-12.065727,-178.61766,-47.911045,39.712372,-40.474854,93.444664,-34.895069,-38.408001,-47.749874,39.395718,-13.691747,6.1890039,-33.878395,-68.618134,-31.680878,-9.0763178,-40.586506,93.209663,-33.968674,-68.68438,-16.319283,146.21001
2520500000,-16.779848,12.491608,-35.596939,-38.88504,-34.910599,-39.675159,-31.607925,-10.035459,-35.664085,-38.764599,-12.030864,-178.79637,-47.806576,43.476715,-40.547607,91.230164,-34.847954,-39.415436,-47.659424,43.047791,-13.64175,5.8002415,-33.850983,-70.328613,-31.683666,-10.107358,-40.653339,90.973518,-33.941666,-70.374695,-16.308325,145.66762
2521000000,-16.767647,12.690774,-35.680008,-39.642666,-34.871227,-40.687702,-31.603683,-11.088741,-35.745155,-39.490417,-11.999855,-179.00937,-47.576271,46.938736,-40.621674,89.16581,-34.804085,-40.44865,-47.442371,46.344738,-13.590038,5.4015975,-33.835648,-72.033768,-31.680246,-11.166346,-40.72678,88.927803,-33.924797,-72.080505,-16.299221,145.10805
2521500000,-16.745113,12.881416,-35.762402,-40.400288,-34.824783,-41.687172,-31.590666,-12.175985,-35.821735,-40.217068,-11.96803,-179.22638,-47.272366,49.796043,-40.705315,87.306862,-34.760559,-41.461071,-47.165092,49.155407,-13.538328,4.9772496,-33.825619,-73.748993,-31.667002,-12.24446,-40.804417,87.080635,-33.917305,-73.779488,-16.294199,144.53023
2522000000,-16.716595,13.056983,-35.845951,-41.091335,-34.770386,-42.727257,-31.569588,-13.364338,-35.899242,-40.902931,-11.936653,-179.45576,-46.923042,52.236309,-40.767277,85.718735,-34.708401,-42.506893,-46.834015,51.644859,-13.485905,4.5399146,-33.824627,-75.522186,-31.647511,-13.408483,-40.863117,85.502892,-33.913319,-75.541283,-16.29277,143.93864
2522500000,-16.682047,13.220753,-35.915295,-41.717323,-34.715221,-43.847546,-31.550571,-14.63289,-35.961098,-41.546906,-11.90852,-179.70247,-46.509148,54.143322,-40.80196,84.321793,-34.655071,-43.616978,-46.443413,53.634998,-13.436863,4.0812707,-33.838989,-77.287209,-31.627249,-14.664868,-40.892403,84.132584,-33.928818,-77.296478,-16.295448,143.34775
2523000000,-16.639118,13.374284,-35.965405,-42.440823,-34.653236,-45.006981,-31.537323,-16.004274,-36.010815,-42.282917,-11.882888,-179.95966,-46.106285,55.521431,-40.793465,83.020798,-34.593105,-44.752312,-46.043785,55.111591,-13.38868,3.6151693,-33.865967,-79.045166,-31.613426,-16.039507,-40.876308,82.842552,-33.950459,-79.072174,-16.301323,142.76772
2523500000,-16.589874,13.519506,-36.024403,-43.210964,-34.591976,-46.268307,-31.541843,-17.447531,-36.073509,-43.099094,-11.858316,179.78986,-45.703911,56.584671,-40.744595,81.686256,-34.533119,-45.990936,-45.642128,56.30101,-13.34345,3.1408966,-33.904835,-80.81916,-31.615448,-17.482725,-40.82214,81.462288,-33.988972,-80.85276,-16.309856,142.216
2524000000,-16.534782,13.656629,-36.09037,-44.002693,-34.539448,-47.621586,-31.564604,-18.905025,-36.140888,-43.90099,-11.838195,179.52353,-45.301182,57.347561,-40.664532,80.184158,-34.475853,-47.320873,-45.233162,57.099419,-13.301801,2.6658554,-33.960102,-82.543022,-31.63669,-18.941088,-40.737801,79.932861,-34.042454,-82.605598,-16.320843,141.66562
2524500000,-16.475615,13.769275,-36.157993,-44.748837,-34.482048,-49.027744,-31.6078,-20.322786,-36.212845,-44.652309,-11.818875,179.26064,-44.90424,57.646942,-40.575558,78.522324,-34.41737,-48.708122,-44.829044,57.549599,-13.259444,2.1991582,-34.030819,-84.219498,-31.674828,-20.36153,-40.650764,78.209877,-34.114208,-84.300201,-16.334349,141.14928
2525000000,-16.402206,13.872372,-36.216953,-45.461681,-34.436016,-50.560833,-31.66069,-21.698933,-36.276352,-45.381283,-11.801676,178.99287,-44.555923,57.611183,-40.482521,76.738327,-34.365891,-50.223167,-44.465652,57.582676,-13.217237,1.7360079,-34.110592,-85.805542,-31.727854,-21.757555,-40.559063,76.417801,-34.19165,-85.874344,-16.348934,140.65208
2525500000,-16.324142,13.91989,-36.276867,-46.243984,-34.394844,-52.133087,-31.729006,-23.017677,-36.343674,-46.175724,-11.78747,178.73381,-44.214874,57.917347,-40.385357,74.869583,-34.320129,-51.786823,-44.118149,57.8148,-13.173834,1.2538748,-34.19162,-87.302048,-31.795385,-23.083279,-40.464573,74.539116,-34.275314,-87.385864,-16.362993,140.18675
2526000000,-16.238268,13.902604,-36.34177,-46.979687,-34.365067,-53.879967,-31.809448,-24.212196,-36.411037,-46.893509,-11.776045,178.46349,-43.856884,57.744129,-40.297253,72.885071,-34.283096,-53.514938,-43.755329,57.635765,-13.136446,0.75546819,-34.28487,-88.737495,-31.874735,-24.301771,-40.376316,72.541206,-34.365845,-88.833946,-16.376408,139.75165
2526500000,-16.143673,13.818079,-36.395901,-47.745621,-34.355743,-55.67701,-31.895538,-25.308327,-36.472813,-47.61898,-11.766795,178.20041,-43.539017,57.428875,-40.216377,70.84259,-34.266594,-55.317509,-43.430912,57.243118,-13.102674,0.26919937,-34.377037,-90.067749,-31.960182,-25.40041,-40.299255,70.533386,-34.459396,-90.159294,-16.38876,139.30974
2527000000,-16.045351,13.642365,-36.459476,-48.592667,-34.369144,-57.500202,-31.985197,-26.273073,-36.53809,-48.44421,-11.76027,177.93884,-43.244591,57.066963,-40.145847,68.808037,-34.268997,-57.182728,-43.137592,56.850376,-13.070616,-0.20502956,-34.467525,-91.33535,-32.051853,-26.370375,-40.231667,68.50605,-34.546963,-91.429291,-16.398937,138.89313
