!CSV A.01.01
!Keysight Technologies,N5222B,MY58422327,A.13.60.06
!Date: Monday, March 28, 2022 15:53:56
!Source: Standard

BEGIN CH1_DATA
Freq(Hz),S11(DB),S11(DEG),S12(DB),S12(DEG),S13(DB),S13(DEG),S14(DB),S14(DEG),S21(DB),S21(DEG),S22(DB),S22(DEG),S23(DB),S23(DEG),S24(DB),S24(DEG),S31(DB),S31(DEG),S32(DB),S32(DEG),S33(DB),S33(DEG),S34(DB),S34(DEG),S41(DB),S41(DEG),S42(DB),S42(DEG),S43(DB),S43(DEG),S44(DB),S44(DEG)
2500000000,-16.918175,26.612103,-32.283897,10.400118,-36.411022,-20.888535,-32.014553,25.834589,-32.331741,10.691935,-13.47633,-172.96939,-40.991188,21.42458,-46.534496,-170.05287,-36.306084,-21.62134,-40.914391,21.627594,-15.518855,24.392439,-34.806355,-35.561443,-32.059757,25.688202,-46.597549,-169.97095,-34.871483,-35.669292,-16.440983,166.61438
2500500000,-16.893761,26.213778,-32.365028,8.9640198,-36.487217,-21.224585,-32.116188,24.610861,-32.408276,9.2585583,-13.428502,-173.1046,-41.195549,20.231253,-46.362789,-170.39439,-36.395267,-21.952299,-41.114307,20.43434,-15.472626,23.81745,-34.856659,-36.13073,-32.158436,24.480413,-46.408649,-170.48178,-34.919949,-36.241066,-16.428783,166.22849
2501000000,-16.867149,25.823862,-32.456444,7.5914803,-36.556492,-21.50391,-32.230404,23.509689,-32.493469,7.861414,-13.378739,-173.22313,-41.420479,19.090952,-46.152569,-170.75592,-36.478302,-22.230045,-41.335426,19.193892,-15.427001,23.247629,-34.890987,-36.813946,-32.272446,23.388107,-46.18906,-171.0497,-34.954571,-36.96806,-16.416145,165.8273
2501500000,-16.83699,25.448166,-32.542927,6.3559351,-36.636112,-21.689243,-32.351044,22.59099,-32.575859,6.5685635,-13.331125,-173.35509,-41.664566,18.098944,-45.928097,-171.39566,-36.574528,-22.380402,-41.578358,18.139858,-15.383655,22.677101,-34.927288,-37.5816,-32.389145,22.459517,-45.973095,-171.76637,-34.993176,-37.772358,-16.401699,165.42575
2502000000,-16.807871,25.050957,-32.621464,5.1478415,-36.712925,-21.759556,-32.46957,21.776121,-32.653698,5.3073592,-13.284609,-173.48666,-41.914597,17.290565,-45.69627,-171.90884,-36.659309,-22.416174,-41.834995,17.230614,-15.343013,22.119024,-34.966019,-38.449581,-32.508652,21.641689,-45.743889,-172.34671,-35.03635,-38.684139,-16.387474,165.01094
2502500000,-16.773088,24.653358,-32.697388,3.9648707,-36.787651,-21.829226,-32.585838,21.127117,-32.730518,4.0938306,-13.237023,-173.62202,-42.158684,16.637787,-45.445744,-172.44339,-36.740387,-22.352444,-42.093952,16.540003,-15.305942,21.575895,-35.023853,-39.393055,-32.622482,20.962263,-45.512558,-172.95659,-35.098763,-39.635742,-16.373383,164.57869
2503000000,-16.735256,24.234568,-32.764366,2.851944,-36.868835,-21.734653,-32.690945,20.578897,-32.803318,2.9300532,-13.192876,-173.78278,-42.39151,16.094416,-45.157982,-173.07013,-36.828453,-22.209749,-42.336773,16.009989,-15.270475,21.058174,-35.101032,-40.309818,-32.72863,20.405741,-45.234909,-173.57208,-35.182213,-40.590553,-16.358488,164.14667
2503500000,-16.701769,23.785212,-32.815685,1.71984,-36.954967,-21.501036,-32.786747,20.149742,-32.865265,1.7843151,-13.149819,-173.9469,-42.601841,15.516853,-44.853474,-173.65111,-36.913067,-21.890474,-42.55571,15.489993,-15.236851,20.564756,-35.193642,-41.089905,-32.821152,19.990229,-44.941341,-174.12283,-35.286789,-41.357334,-16.343102,163.7056
2504000000,-16.663639,23.317596,-32.865601,0.57735449,-37.029259,-20.953037,-32.870922,19.825111,-32.924759,0.66384268,-13.107512,-174.10558,-42.805458,14.91185,-44.511623,-174.35362,-36.979267,-21.273529,-42.774117,14.975487,-15.202885,20.100473,-35.286293,-41.780384,-32.901325,19.632748,-44.602547,-174.79532,-35.392059,-42.027027,-16.327353,163.23816
2504500000,-16.625624,22.837933,-32.908291,-0.5765062,-37.065922,-20.169586,-32.936878,19.588844,-32.972919,-0.4449901,-13.067576,-174.28033,-43.013687,14.112693,-44.122486,-175.25058,-37.00275,-20.447794,-42.982151,14.255461,-15.167353,19.666134,-35.381596,-42.30994,-32.967922,19.364296,-44.21917,-175.6124,-35.495583,-42.526077,-16.30826,162.77011
2505000000,-16.584528,22.347424,-32.940765,-1.7700448,-37.060741,-19.273336,-32.978802,19.441601,-33.010006,-1.5985926,-13.03142,-174.46724,-43.256207,13.320889,-43.711773,-176.37852,-36.983341,-19.542301,-43.219002,13.54732,-15.129309,19.238914,-35.472286,-42.697777,-33.012592,19.158939,-43.791786,-176.67136,-35.594952,-42.854549,-16.290255,162.2637
2505500000,-16.544228,21.828836,-32.972157,-2.9986067,-36.988846,-18.33943,-33.002644,19.285141,-33.041538,-2.7857635,-12.995973,-174.64571,-43.538532,12.499539,-43.269333,-177.88185,-36.894848,-18.636875,-43.488487,12.745293,-15.087879,18.821333,-35.538696,-42.967072,-33.038265,18.962517,-43.338383,-178.15683,-35.665359,-43.05022,-16.271225,161.73328
2506000000,-16.505379,21.296406,-32.996449,-4.338069,-36.865826,-17.576687,-33.009289,19.134584,-33.065735,-4.0426397,-12.963823,-174.83307,-43.850533,11.790668,-42.803791,-179.73264,-36.759296,-17.939625,-43.78857,12.073726,-15.045215,18.412285,-35.590351,-43.165333,-33.04987,18.769102,-42.870266,-179.99748,-35.712891,-43.169994,-16.252529,161.16496
2506500000,-16.46699,20.760366,-33.031349,-5.7803264,-36.707779,-16.996826,-32.991203,18.99983,-33.094749,-5.431253,-12.935213,-175.02528,-44.196491,11.230816,-42.335506,177.96953,-36.594669,-17.44187,-44.122585,11.505008,-15.000206,18.003008,-35.620201,-43.321026,-33.041817,18.630213,-42.393471,177.66302,-35.737434,-43.287296,-16.235731,160.57571
2507000000,-16.433561,20.215538,-33.07914,-7.2422667,-36.510609,-16.703428,-32.951962,18.81402,-33.137535,-6.8354306,-12.90741,-175.18951,-44.588612,10.953032,-41.879219,175.19763,-36.394176,-17.250917,-44.517166,11.151775,-14.952702,17.596815,-35.626884,-43.491375,-33.009613,18.437803,-41.938164,174.8636,-35.737164,-43.420368,-16.222895,159.95039
2507500000,-16.395386,19.68469,-33.135513,-8.7194118,-36.301327,-16.743973,-32.895035,18.51141,-33.180302,-8.284132,-12.882752,-175.35522,-45.015263,11.161417,-41.459332,172.00661,-36.187298,-17.385258,-44.947525,11.283657,-14.903547,17.192059,-35.614265,-43.690449,-32.95726,18.150982,-41.524769,171.62009,-35.716869,-43.594643,-16.213198,159.30875
2508000000,-16.362917,19.132631,-33.206024,-10.223622,-36.09903,-17.085522,-32.829098,18.096563,-33.235241,-9.7688351,-12.857954,-175.49881,-45.444778,11.902853,-41.090778,168.52333,-35.987064,-17.799412,-45.378296,12.056832,-14.854402,16.786987,-35.585007,-43.958488,-32.897488,17.759907,-41.164242,168.12218,-35.677818,-43.856876,-16.207758,158.6555
2508500000,-16.332657,18.574797,-33.279488,-11.69262,-35.904182,-17.655003,-32.759468,17.609159,-33.302132,-11.248061,-12.832039,-175.61449,-45.850052,13.206188,-40.779755,164.84145,-35.806812,-18.453669,-45.786312,13.397626,-14.801215,16.388119,-35.543236,-44.321209,-32.833347,17.303293,-40.852108,164.42245,-35.632351,-44.258083,-16.206366,157.99348
2509000000,-16.311108,17.99304,-33.368465,-13.161451,-35.727463,-18.412006,-32.68626,17.066957,-33.379581,-12.725081,-12.807626,-175.74081,-46.204407,15.138937,-40.523457,161.02791,-35.642742,-19.230562,-46.138763,15.34003,-14.747828,15.982758,-35.499119,-44.76226,-32.761002,16.817301,-40.599712,160.61043,-35.584782,-44.723339,-16.207224,157.342
2509500000,-16.294315,17.42297,-33.468197,-14.593202,-35.57069,-19.28562,-32.604019,16.478989,-33.468071,-14.175224,-12.779367,-175.85658,-46.461376,17.444605,-40.317238,157.20163,-35.496025,-20.091265,-46.396114,17.675486,-14.690926,15.572608,-35.450882,-45.228954,-32.678093,16.246531,-40.400524,156.80582,-35.534451,-45.239441,-16.211311,156.69125
2510000000,-16.286955,16.85985,-33.577473,-15.941284,-35.423397,-20.26273,-32.516197,15.796529,-33.570282,-15.578348,-12.749073,-175.96007,-46.613403,19.787722,-40.154758,153.46051,-35.357574,-21.04582,-46.547958,20.054497,-14.63367,15.159955,-35.400616,-45.750336,-32.586891,15.60703,-40.244892,153.08244,-35.482231,-45.779831,-16.218531,156.03432
2510500000,-16.291498,16.30146,-33.695202,-17.203121,-35.297047,-21.377424,-32.422031,15.030101,-33.68338,-16.886332,-12.719985,-176.08144,-46.702374,22.080004,-40.030472,149.80548,-35.23732,-22.116726,-46.628792,22.394917,-14.57582,14.728796,-35.341843,-46.265572,-32.491924,14.840869,-40.122826,149.48708,-35.42675,-46.34864,-16.225885,155.41197
2511000000,-16.298939,15.780158,-33.813168,-18.328625,-35.195953,-22.54624,-32.331902,14.151035,-33.800526,-18.060215,-12.689878,-176.19354,-46.705238,24.276434,-39.928436,146.26259,-35.134357,-23.263544,-46.624813,24.675972,-14.517217,14.281861,-35.272335,-46.820084,-32.398857,13.990353,-40.023724,145.96304,-35.361366,-46.942631,-16.236038,154.77654
2511500000,-16.310898,15.292237,-33.919109,-19.332418,-35.115116,-23.749069,-32.244923,13.224931,-33.905647,-19.100697,-12.659107,-176.29285,-46.64275,26.127575,-39.837669,142.76569,-35.054771,-24.453436,-46.540756,26.608559,-14.459778,13.819137,-35.193192,-47.46764,-32.309944,13.06951,-39.945793,142.52577,-35.289722,-47.582699,-16.250153,154.15656
2512000000,-16.326601,14.834099,-34.013229,-20.312584,-35.047085,-24.840151,-32.158554,12.253421,-33.995525,-20.114094,-12.627057,-176.40759,-46.523121,27.580635,-39.777802,139.35849,-34.983559,-25.54525,-46.410229,27.992966,-14.408809,13.331087,-35.114315,-48.238285,-32.222858,12.113856,-39.885761,139.19376,-35.214985,-48.334293,-16.267185,153.5531
2512500000,-16.342514,14.396019,-34.093109,-21.30875,-34.997555,-25.99585,-32.072372,11.262095,-34.074703,-21.138918,-12.595342,-176.52318,-46.390865,28.837099,-39.72987,136.01108,-34.933064,-26.768911,-46.261253,29.131655,-14.358294,12.86205,-35.036285,-48.992996,-32.13385,11.121409,-39.834229,135.89958,-35.140034,-49.079189,-16.284767,152.9772
2513000000,-16.358727,13.97449,-34.165398,-22.325417,-34.954525,-27.037739,-31.978865,10.210854,-34.148708,-22.177023,-12.562413,-176.6302,-46.198296,29.545357,-39.701847,132.73331,-34.900162,-27.867664,-46.074863,29.766041,-14.311011,12.389737,-34.955055,-49.854179,-32.038208,10.060783,-39.794174,132.67885,-35.056618,-49.915672,-16.304392,152.4192
2513500000,-16.376644,13.564054,-34.234295,-23.414156,-34.913906,-28.017267,-31.88203,9.0387964,-34.220016,-23.282162,-12.529594,-176.74214,-46.016689,29.574484,-39.687267,129.55032,-34.870354,-28.913919,-45.897285,29.671448,-14.266968,11.925221,-34.875374,-50.748226,-31.938227,8.8892288,-39.772625,129.54129,-34.976273,-50.768177,-16.325581,151.88637
2514000000,-16.400003,13.155826,-34.306606,-24.540661,-34.866184,-29.005781,-31.790773,7.755652,-34.291271,-24.417843,-12.495733,-176.8598,-45.878906,29.062323,-39.6842,126.5477,-34.834213,-29.908087,-45.764194,29.061481,-14.222495,11.475052,-34.793812,-51.667488,-31.846483,7.5972486,-39.756638,126.53741,-34.890335,-51.698597,-16.347984,151.36618
2514500000,-16.424608,12.781118,-34.387409,-25.700108,-34.817913,-30.044029,-31.708012,6.3650799,-34.372059,-25.600742,-12.462425,-176.98352,-45.820789,28.120581,-39.679184,123.56859,-34.798229,-30.912483,-45.712643,27.994904,-14.178697,11.028018,-34.711082,-52.650665,-31.763306,6.184217,-39.739368,123.57898,-34.804184,-52.680515,-16.369249,150.89207
2515000000,-16.453753,12.434518,-34.477612,-26.834686,-34.776424,-31.129063,-31.637386,4.8718781,-34.463894,-26.766878,-12.429817,-177.10815,-45.848106,27.084345,-39.681438,120.68764,-34.766991,-31.970078,-45.761532,26.969248,-14.134549,10.588262,-34.629642,-53.687798,-31.69372,4.6863513,-39.738979,120.65808,-34.717815,-53.729408,-16.387768,150.44626
2515500000,-16.489464,12.119867,-34.569744,-27.928904,-34.745583,-32.265511,-31.583818,3.319154,-34.558926,-27.892492,-12.397664,-177.2359,-45.954704,26.171162,-39.684361,117.88138,-34.741879,-33.074783,-45.873993,26.055761,-14.090397,10.157945,-34.549519,-54.727169,-31.641132,3.1229601,-39.738735,117.78247,-34.636086,-54.801548,-16.401964,150.02698
2516000000,-16.533201,11.862052,-34.665592,-29.052698,-34.727783,-33.366524,-31.548014,1.7143906,-34.65984,-29.024729,-12.363557,-177.35262,-46.125214,25.376938,-39.684952,114.9974,-34.733002,-34.147957,-46.057743,25.245253,-14.045147,9.7294607,-34.461224,-55.804245,-31.608471,1.5134196,-39.736702,114.88895,-34.544384,-55.905491,-16.413343,149.59908
2516500000,-16.578907,11.695246,-34.77803,-30.144394,-34.724384,-34.4296,-31.53334,0.099685639,-34.776436,-30.095972,-12.329362,-177.47585,-46.356445,24.869719,-39.704586,112.12138,-34.736004,-35.1567,-46.303249,24.768957,-13.999871,9.2954731,-34.366459,-56.976578,-31.59589,-0.10485852,-39.757362,111.99615,-34.449883,-57.105347,-16.41968,149.21425
2517000000,-16.623802,11.604811,-34.90192,-31.063116,-34.72084,-35.4454,-31.542086,-1.4696696,-34.899967,-30.968191,-12.295789,-177.61745,-46.61586,24.576588,-39.742973,109.36153,-34.735516,-36.127884,-46.585934,24.566505,-13.956252,8.861948,-34.274292,-58.261322,-31.60494,-1.6806386,-39.802418,109.20055,-34.360004,-58.430363,-16.423151,148.81093
2517500000,-16.672394,11.59684,-35.011189,-31.925173,-34.732784,-36.350433,-31.564459,-2.9840136,-35.004013,-31.811802,-12.260217,-177.75002,-46.985558,24.856888,-39.781757,106.67178,-34.757641,-36.967571,-46.961269,24.972931,-13.912764,8.4456921,-34.189766,-59.624962,-31.629982,-3.1853423,-39.845695,106.50854,-34.278873,-59.799114,-16.422812,148.39703
2518000000,-16.713741,11.682882,-35.10973,-32.686634,-34.730537,-37.105122,-31.600908,-4.3915076,-35.098034,-32.558983,-12.224648,-177.8999,-47.367519,25.941412,-39.831455,104.08953,-34.760448,-37.624828,-47.331745,26.194426,-13.869382,8.0400991,-34.109921,-61.012081,-31.66777,-4.585258,-39.895046,103.9416,-34.205257,-61.242542,-16.418917,147.97882
2518500000,-16.747566,11.848578,-35.200699,-33.485672,-34.70557,-37.81501,-31.645578,-5.6854153,-35.184238,-33.35413,-12.189216,-178.05493,-47.701088,27.785044,-39.877441,101.56915,-34.742329,-38.261875,-47.660259,28.046183,-13.825559,7.6467323,-34.034321,-62.477531,-31.714462,-5.8668389,-39.949722,101.45335,-34.132908,-62.696945,-16.412378,147.52518
2519000000,-16.770065,12.055619,-35.28669,-34.261185,-34.668118,-38.612938,-31.688547,-6.8383622,-35.267227,-34.129761,-12.152039,-178.21005,-48.014763,30.134335,-39.929829,99.130661,-34.701519,-38.941513,-47.959923,30.342867,-13.780498,7.2654467,-33.961021,-64.02066,-31.759666,-7.0288224,-39.997627,99.044975,-34.065262,-64.238609,-16.404083,147.05011
2519500000,-16.778904,12.289742,-35.367737,-35.010544,-34.623966,-39.450703,-31.723951,-7.8822589,-35.343277,-34.913071,-12.116156,-178.38181,-48.264542,33.405979,-39.985939,96.726158,-34.652546,-39.699547,-48.210964,33.638721,-13.732016,6.8874598,-33.896133,-65.635796,-31.795198,-8.0593548,-40.055176,96.703873,-34.004623,-65.834999,-16.394342,146.55821
2520000000,-16.778444,12.521636,-35.443909,-35.804119,-34.578934,-40.350815,-31.743422,-8.877327,-35.419235,-35.720886,-12.081516,-178.56935,-48.378265,37.155102,-40.050571,94.338654,-34.596176,-40.500675,-48.311142,37.368004,-13.682665,6.5071135,-33.844727,-67.318428,-31.814354,-9.0426102,-40.114014,94.365372,-33.956898,-67.511833,-16.386435,146.04651
2520500000,-16.767944,12.741366,-35.524067,-36.56876,-34.531742,-41.257343,-31.74604,-9.8667774,-35.497204,-36.506847,-12.045362,-178.75403,-48.335888,41.000347,-40.137474,92.077484,-34.532837,-41.361839,-48.285393,41.209454,-13.63205,6.1183863,-33.813103,-69.033043,-31.817713,-10.026029,-40.188412,92.177162,-33.923958,-69.201393,-16.379343,145.51639
2521000000,-16.752703,12.940843,-35.592823,-37.30072,-34.478455,-42.215828,-31.7409,-10.899881,-35.573448,-37.244781,-12.012878,-178.97206,-48.170723,44.602573,-40.224655,89.96711,-34.468536,-42.307453,-48.125248,44.878696,-13.579534,5.7208672,-33.791912,-70.741646,-31.811878,-11.051358,-40.260551,90.119301,-33.903114,-70.894722,-16.373816,144.97989
2521500000,-16.72719,13.128395,-35.664619,-38.038311,-34.42498,-43.178047,-31.729074,-11.993302,-35.646458,-37.987274,-11.97994,-179.19565,-47.903767,47.845951,-40.323627,88.07502,-34.400986,-43.291027,-47.861122,48.196804,-13.527102,5.2979498,-33.773777,-72.436783,-31.798037,-12.114607,-40.343155,88.231812,-33.886978,-72.579697,-16.371878,144.43427
2522000000,-16.696323,13.294299,-35.737476,-38.750591,-34.359329,-44.212368,-31.713032,-13.160261,-35.720596,-38.708836,-11.948046,-179.43373,-47.582417,50.717541,-40.404762,86.503593,-34.326897,-44.352268,-47.518265,51.163223,-13.474031,4.8646512,-33.762802,-74.168236,-31.782764,-13.285371,-40.408672,86.578255,-33.877617,-74.313965,-16.37343,143.88242
2522500000,-16.660852,13.448063,-35.797718,-39.429504,-34.292191,-45.342613,-31.700558,-14.419981,-35.780083,-39.375069,-11.919626,-179.68785,-47.169151,53.038719,-40.454002,85.076164,-34.254589,-45.504417,-47.094986,53.426273,-13.423509,4.413219,-33.765354,-75.914955,-31.768309,-14.528181,-40.449032,85.087776,-33.88084,-76.044273,-16.3764,143.33351
2523000000,-16.616417,13.594625,-35.851555,-40.184162,-34.222332,-46.511669,-31.696648,-15.749495,-35.834599,-40.120861,-11.893991,-179.95599,-46.747211,54.682274,-40.463505,83.755646,-34.176598,-46.738281,-46.653996,55.033566,-13.373565,3.953656,-33.777927,-77.684746,-31.7647,-15.860684,-40.457184,83.642204,-33.890747,-77.788376,-16.381266,142.79387
2523500000,-16.565157,13.731462,-35.91106,-40.975033,-34.153423,-47.822105,-31.709938,-17.13096,-35.890766,-40.88702,-11.870134,179.7843,-46.324711,56.026726,-40.439175,82.349503,-34.104881,-48.111336,-46.218082,56.241772,-13.325775,3.4815817,-33.803139,-79.468575,-31.774612,-17.236881,-40.434975,82.160484,-33.912823,-79.558182,-16.387478,142.27837
2524000000,-16.508877,13.860522,-35.974407,-41.730179,-34.093063,-49.196957,-31.738884,-18.505093,-35.950912,-41.671085,-11.850646,179.51323,-45.89492,56.792023,-40.391521,80.867157,-34.040581,-49.538002,-45.786877,56.980263,-13.28128,3.0061443,-33.844501,-81.230652,-31.801596,-18.620012,-40.39188,80.591797,-33.952831,-81.310524,-16.395029,141.76192
2524500000,-16.448006,13.96475,-36.030979,-42.446468,-34.033535,-50.664471,-31.781845,-19.82313,-36.009792,-42.404701,-11.832532,179.24817,-45.468307,57.157055,-40.332764,79.261871,-33.980293,-51.074532,-45.370453,57.345375,-13.236485,2.5301762,-33.904018,-82.938698,-31.842978,-19.947279,-40.341366,78.864189,-34.008804,-83.025345,-16.404257,141.26677
2525000000,-16.37351,14.056763,-36.083317,-43.151306,-33.981579,-52.223007,-31.834114,-21.092348,-36.062309,-43.141991,-11.816556,178.97884,-45.116306,57.131317,-40.264706,77.595024,-33.932178,-52.693695,-45.018921,57.285973,-13.191925,2.0584254,-33.971992,-84.532326,-31.895325,-21.235689,-40.288361,77.126541,-34.075184,-84.6502,-16.415154,140.78699
2525500000,-16.294378,14.09033,-36.137444,-43.928577,-33.937695,-53.859135,-31.897375,-22.299715,-36.117439,-43.953472,-11.803185,178.72137,-44.786957,57.453392,-40.185822,75.810432,-33.894512,-54.362724,-44.702106,57.713837,-13.146491,1.562448,-34.042191,-86.065056,-31.959009,-22.453009,-40.223064,75.367859,-34.145504,-86.195374,-16.42568,140.3243
2526000000,-16.207914,14.063343,-36.193306,-44.668037,-33.90292,-55.594765,-31.96903,-23.408005,-36.176365,-44.687202,-11.792101,178.45374,-44.440613,57.325813,-40.116852,73.925476,-33.867004,-56.153835,-44.358913,57.660225,-13.107704,1.0528934,-34.119072,-87.550827,-32.033752,-23.590086,-40.160126,73.510941,-34.2248,-87.68866,-16.435686,139.89157
2526500000,-16.112444,13.96998,-36.242191,-45.462868,-33.889091,-57.430962,-32.047737,-24.430582,-36.225571,-45.474968,-11.783647,178.1911,-44.132256,57.125095,-40.056149,71.971786,-33.858601,-58.009304,-44.043987,57.52494,-13.072659,0.55467427,-34.200817,-88.934097,-32.11491,-24.629534,-40.109718,71.609032,-34.306644,-89.09346,-16.445887,139.45313
2527000000,-16.012632,13.785591,-36.301807,-46.312309,-33.895256,-59.306095,-32.129562,-25.31543,-36.287594,-46.313007,-11.778026,177.93091,-43.862251,56.973446,-39.999493,70.077904,-33.873512,-59.903336,-43.753361,57.424377,-13.040132,0.068786696,-34.28215,-90.291077,-32.202133,-25.510035,-40.053696,69.75087,-34.390877,-90.445496,-16.453672,139.0385
