!CSV A.01.01
!Keysight Technologies,N5222B,MY58422327,A.13.60.06
!Date: Monday, March 28, 2022 15:54:30
!Source: Standard

BEGIN CH1_DATA
Freq(Hz),S11(DB),S11(DEG),S12(DB),S12(DEG),S13(DB),S13(DEG),S14(DB),S14(DEG),S21(DB),S21(DEG),S22(DB),S22(DEG),S23(DB),S23(DEG),S24(DB),S24(DEG),S31(DB),S31(DEG),S32(DB),S32(DEG),S33(DB),S33(DEG),S34(DB),S34(DEG),S41(DB),S41(DEG),S42(DB),S42(DEG),S43(DB),S43(DEG),S44(DB),S44(DEG)
2500000000,-16.813946,25.885262,-32.210819,7.4023023,-37.674606,-18.511972,-31.812309,24.179035,-32.250481,7.2154956,-13.469646,-172.64671,-39.850517,28.670918,-47.712383,-174.01369,-37.746387,-18.523426,-39.764496,28.976454,-15.54318,23.670221,-35.244801,-38.564339,-31.876072,24.027393,-47.68005,-174.37918,-35.325905,-38.601311,-16.469311,166.67273
2500500000,-16.792238,25.499058,-32.289799,5.8986173,-37.760704,-18.680376,-31.917524,23.005476,-32.328617,5.6966009,-13.419987,-172.78731,-40.008667,27.727253,-47.573853,-174.35475,-37.838051,-18.598923,-39.918205,28.049425,-15.496242,23.107761,-35.299915,-39.023159,-31.983217,22.849907,-47.552193,-174.81668,-35.37862,-39.043358,-16.458151,166.29352
2501000000,-16.76766,25.124437,-32.380917,4.4315629,-37.844517,-18.839458,-32.033855,21.925468,-32.420631,4.219933,-13.3688,-172.91304,-40.180321,26.787621,-47.382954,-174.5918,-37.921291,-18.6264,-40.084579,27.102068,-15.449927,22.549099,-35.332413,-39.598034,-32.10117,21.798882,-47.374847,-175.25766,-35.413548,-39.630962,-16.445974,165.90076
2501500000,-16.737328,24.755686,-32.46928,3.1019464,-37.942081,-18.820332,-32.156239,21.022066,-32.510666,2.8814731,-13.320521,-173.05688,-40.362736,25.986712,-47.178791,-175.03821,-38.00576,-18.50989,-40.256168,26.286446,-15.406487,21.993626,-35.363022,-40.26207,-32.22522,20.9035,-47.193581,-175.66853,-35.443909,-40.308777,-16.432266,165.50301
2502000000,-16.708275,24.353718,-32.553196,1.8304096,-38.034851,-18.712923,-32.277836,20.226913,-32.594757,1.6149268,-13.273746,-173.19849,-40.547478,25.281532,-46.953011,-175.31879,-38.086819,-18.245291,-40.426552,25.550364,-15.364769,21.445786,-35.390865,-41.04393,-32.347359,20.132704,-46.991871,-175.85376,-35.473019,-41.096748,-16.418699,165.0891
2502500000,-16.675606,23.946978,-32.633038,0.60535359,-38.12315,-18.497272,-32.394539,19.586754,-32.674465,0.392827,-13.22656,-173.34151,-40.714664,24.673523,-46.700966,-175.50049,-38.161808,-17.964735,-40.589024,24.879194,-15.326569,20.918266,-35.433765,-41.911961,-32.464252,19.509632,-46.74979,-175.93419,-35.516319,-41.984577,-16.405575,164.65936
2503000000,-16.638842,23.518194,-32.703461,-0.55766904,-38.216866,-18.141102,-32.50116,19.05633,-32.745579,-0.77340317,-13.183304,-173.50626,-40.879921,24.078297,-46.405186,-175.82635,-38.238861,-17.558733,-40.744678,24.211428,-15.289385,20.408176,-35.496281,-42.805061,-32.570103,18.99865,-46.455017,-176.10023,-35.579224,-42.892624,-16.392073,164.23015
2503500000,-16.60619,23.053385,-32.760983,-1.7150117,-38.312763,-17.518051,-32.597626,18.647377,-32.802692,-1.9406568,-13.141085,-173.67242,-41.021164,23.448263,-46.074692,-176.17374,-38.316307,-16.944412,-40.894245,23.482548,-15.253652,19.921604,-35.574951,-43.588127,-32.665394,18.609043,-46.121094,-176.20998,-35.663601,-43.689175,-16.379057,163.79611
2504000000,-16.570786,22.574282,-32.812691,-2.8785832,-38.380444,-16.561485,-32.683136,18.323338,-32.85495,-3.1080098,-13.099442,-173.83478,-41.173958,22.759951,-45.710865,-176.64168,-38.365097,-16.020422,-41.043819,22.713751,-15.217035,19.459393,-35.656384,-44.291676,-32.745659,18.274328,-45.73777,-176.51283,-35.748714,-44.3881,-16.365202,163.3371
2504500000,-16.535763,22.086021,-32.856026,-4.0540004,-38.388306,-15.391335,-32.75359,18.086414,-32.898796,-4.2864337,-13.061088,-174.00786,-41.332512,21.958122,-45.28561,-177.21997,-38.366997,-14.898243,-41.206993,21.757679,-15.179324,19.022522,-35.739769,-44.884136,-32.815121,18.024813,-45.290489,-177.04665,-35.835129,-44.941036,-16.348166,162.88048
2505000000,-16.497389,21.589922,-32.887127,-5.2901611,-38.338692,-14.140163,-32.800808,17.946566,-32.931747,-5.5139561,-13.025637,-174.19299,-41.51585,21.145329,-44.822376,-178.06755,-38.305626,-13.648582,-41.404694,20.898153,-15.139436,18.590208,-35.825573,-45.326069,-32.861008,17.857622,-44.810226,-177.91916,-35.917686,-45.35194,-16.331848,162.38814
2505500000,-16.459627,21.063555,-32.919388,-6.5418077,-38.212894,-12.962772,-32.828068,17.805614,-32.962688,-6.7756453,-12.991652,-174.36519,-41.731064,20.267035,-44.326271,-179.34283,-38.172409,-12.51433,-41.628792,20.035435,-15.097214,18.162884,-35.890385,-45.650696,-32.888351,17.704844,-44.298599,-179.23589,-35.981117,-45.662457,-16.313906,161.87407
2506000000,-16.424524,20.530338,-32.94297,-7.9028463,-38.034489,-12.078839,-32.837563,17.655424,-32.98695,-8.1449842,-12.960986,-174.53915,-41.964558,19.453979,-43.809437,179.01208,-37.983006,-11.647175,-41.875324,19.279123,-15.053012,17.741535,-35.936172,-45.906925,-32.900936,17.545547,-43.772339,179.06757,-36.022255,-45.909092,-16.296017,161.32289
2506500000,-16.389421,19.990746,-32.977966,-9.3640528,-37.819256,-11.464997,-32.826412,17.530863,-33.019451,-9.6203051,-12.933132,-174.71591,-42.238373,18.80851,-43.274715,176.88014,-37.760414,-11.084854,-42.149914,18.660818,-15.00796,17.318922,-35.964241,-46.161228,-32.891541,17.432747,-43.233902,176.89206,-36.045654,-46.153385,-16.279924,160.74902
2507000000,-16.358076,19.450445,-33.02499,-10.859357,-37.574352,-11.219468,-32.788811,17.370943,-33.068115,-11.125822,-12.905151,-174.86203,-42.553951,18.353527,-42.758617,174.16975,-37.511543,-10.920356,-42.474987,18.301975,-14.960813,16.899364,-35.976513,-46.418064,-32.855034,17.26969,-42.707626,174.12039,-36.057186,-46.42086,-16.267334,160.14441
2507500000,-16.323,18.921793,-33.079315,-12.358107,-37.32626,-11.412712,-32.734215,17.076286,-33.124928,-12.627027,-12.879702,-175.00827,-42.887936,18.321623,-42.278923,171.03088,-37.262089,-11.148691,-42.810295,18.282103,-14.91279,16.481684,-35.966713,-46.689983,-32.799557,16.994135,-42.227066,170.93283,-36.048393,-46.703957,-16.257519,159.52599
2508000000,-16.292824,18.373251,-33.143581,-13.883119,-37.100834,-11.919655,-32.672062,16.688484,-33.193485,-14.142614,-12.854132,-175.13295,-43.219139,18.771442,-41.850914,167.57487,-37.030891,-11.715469,-43.141624,18.777369,-14.864376,16.06592,-35.944439,-47.044918,-32.734879,16.609833,-41.799667,167.38449,-36.02718,-47.051369,-16.251183,158.89226
2508500000,-16.264223,17.813681,-33.218262,-15.378046,-36.900494,-12.678781,-32.605309,16.228525,-33.269218,-15.60932,-12.826357,-175.2328,-43.528725,19.62162,-41.473866,163.82089,-36.830425,-12.529925,-43.445492,19.694107,-14.812758,15.659557,-35.919525,-47.458405,-32.666653,16.148996,-41.431271,163.59447,-35.999901,-47.488026,-16.248802,158.24374
2509000000,-16.244175,17.228163,-33.300617,-16.871506,-36.727077,-13.55625,-32.532558,15.719325,-33.350822,-17.068735,-12.799568,-175.34193,-43.784252,20.896523,-41.164127,159.92934,-36.655415,-13.431561,-43.703098,20.941513,-14.760477,15.245316,-35.892723,-47.92091,-32.592754,15.635288,-41.122307,159.63695,-35.969715,-47.962181,-16.248554,157.60194
2509500000,-16.229546,16.647867,-33.397179,-18.337496,-36.576408,-14.501793,-32.447834,15.153844,-33.438206,-18.488106,-12.768781,-175.44167,-43.976891,22.337858,-40.90942,156.01613,-36.505173,-14.388377,-43.888767,22.435812,-14.705851,14.831012,-35.863834,-48.373402,-32.510178,15.065511,-40.875862,155.66457,-35.940422,-48.439098,-16.251328,156.96123
2510000000,-16.225983,16.079229,-33.499187,-19.741621,-36.440922,-15.542268,-32.356846,14.492509,-33.534843,-19.877356,-12.735959,-175.53279,-44.105999,23.793839,-40.702801,152.1653,-36.367756,-15.450364,-44.010796,23.920666,-14.65052,14.413014,-35.830879,-48.818901,-32.418789,14.409889,-40.676895,151.78706,-35.904713,-48.927959,-16.257851,156.31415
2510500000,-16.233376,15.527187,-33.611801,-21.062756,-36.325748,-16.635969,-32.260689,13.71312,-33.637959,-21.195787,-12.70336,-175.63968,-44.203953,25.255541,-40.52496,148.42479,-36.250412,-16.583509,-44.101406,25.375124,-14.595246,13.979008,-35.782799,-49.239311,-32.322956,13.643108,-40.512531,148.00671,-35.86293,-49.396175,-16.264523,155.69946
2511000000,-16.243063,15.011528,-33.726738,-22.242182,-36.23267,-17.769308,-32.167465,12.819356,-33.744194,-22.411026,-12.669855,-175.7404,-44.23912,26.775553,-40.376617,144.78842,-36.15707,-17.717314,-44.12661,26.877748,-14.539248,13.535965,-35.723438,-49.689442,-32.228809,12.761222,-40.377571,144.35547,-35.807148,-49.879978,-16.275005,155.07707
2511500000,-16.256432,14.526885,-33.827972,-23.297396,-36.160328,-18.87282,-32.082134,11.862465,-33.842461,-23.50663,-12.634341,-175.83241,-44.21299,28.052729,-40.244446,141.15544,-36.080727,-18.848703,-44.107452,28.120155,-14.483962,13.076867,-35.648197,-50.20631,-32.141701,11.807523,-40.25367,140.74222,-35.738831,-50.411453,-16.288485,154.46916
2512000000,-16.273821,14.072318,-33.91449,-24.323647,-36.092331,-19.888203,-32.001461,10.867754,-33.927467,-24.58322,-12.597797,-175.94298,-44.148129,29.075497,-40.138195,137.58037,-36.010269,-19.922503,-44.031483,29.091764,-14.434661,12.596865,-35.568512,-50.853233,-32.058823,10.812019,-40.152821,137.20847,-35.66478,-51.056801,-16.305502,153.87782
2512500000,-16.28973,13.635215,-33.984489,-25.38209,-36.049904,-20.97678,-31.922678,9.861105,-33.998661,-25.716228,-12.561619,-176.06013,-44.061462,30.008463,-40.047318,134.03052,-35.966282,-21.072712,-43.94545,29.966196,-14.386112,12.138712,-35.490009,-51.491608,-31.975052,9.7911501,-40.070866,133.72369,-35.585888,-51.710335,-16.323029,153.32039
2513000000,-16.306677,13.20436,-34.049706,-26.480207,-36.011074,-21.902182,-31.838737,8.7932892,-34.068352,-26.864277,-12.524166,-176.17253,-43.926277,30.541134,-39.978485,130.57298,-35.930172,-22.089851,-43.806767,30.429893,-14.34008,11.677672,-35.39336,-52.23275,-31.890411,8.7208652,-40.010323,130.28145,-35.501469,-52.419952,-16.341887,152.7823
2513500000,-16.32563,12.78009,-34.110256,-27.659767,-35.970837,-22.783201,-31.752888,7.6325088,-34.136086,-28.075256,-12.487139,-176.29309,-43.775784,30.533134,-39.933071,127.2285,-35.89513,-23.030251,-43.670559,30.45108,-14.296018,11.223117,-35.300419,-53.006756,-31.803572,7.5545273,-39.967216,126.97343,-35.41317,-53.199909,-16.36187,152.26955
2514000000,-16.351187,12.348777,-34.176571,-28.881752,-35.921593,-23.640381,-31.671637,6.3787942,-34.207417,-29.325035,-12.449212,-176.42444,-43.664124,30.060429,-39.897106,124.00012,-35.853256,-23.927496,-43.564651,29.927402,-14.25098,10.783412,-35.199413,-53.897179,-31.722313,6.2969065,-39.929218,123.74302,-35.317665,-54.042156,-16.38271,151.77191
2514500000,-16.38007,11.956562,-34.248383,-30.180527,-35.865803,-24.556311,-31.59852,5.0425501,-34.290211,-30.625729,-12.411987,-176.56577,-43.617752,29.218016,-39.864895,120.81612,-35.808548,-24.882496,-43.527699,29.064293,-14.207484,10.341806,-35.093021,-54.84848,-31.649242,4.9505777,-39.898575,120.5466,-35.216324,-54.944592,-16.401106,151.3183
2515000000,-16.413971,11.595653,-34.33691,-31.465456,-35.818363,-25.530092,-31.535433,3.6340697,-34.386757,-31.906813,-12.376232,-176.70584,-43.6511,28.366604,-39.84787,117.70399,-35.772636,-25.884947,-43.561527,28.186111,-14.163584,9.9052753,-34.99028,-55.922417,-31.587017,3.5479748,-39.881527,117.4426,-35.116547,-55.939365,-16.416319,150.8902
2515500000,-16.455231,11.280897,-34.427834,-32.740025,-35.781708,-26.559954,-31.484837,2.176209,-34.487667,-33.120892,-12.341143,-176.84775,-43.720486,27.636442,-39.835361,114.68662,-35.743057,-26.912546,-43.634235,27.422205,-14.119137,9.4799347,-34.892487,-57.038471,-31.536316,2.0811975,-39.871658,114.49184,-35.015812,-57.000305,-16.42691,150.48477
2516000000,-16.503237,11.023764,-34.526222,-33.989506,-35.751083,-27.573536,-31.447727,0.67771721,-34.592037,-34.322399,-12.304159,-176.97874,-43.848152,26.985073,-39.816322,111.67339,-35.728359,-27.889416,-43.762058,26.698179,-14.073635,9.0532932,-34.791065,-58.221428,-31.498388,0.55596554,-39.856178,111.49676,-34.912155,-58.121563,-16.434275,150.05617
2516500000,-16.554119,10.861075,-34.635925,-35.22506,-35.734913,-28.529654,-31.428728,-0.85209697,-34.708977,-35.491508,-12.266974,-177.11852,-44.017159,26.631981,-39.820244,108.63631,-35.72023,-28.793869,-43.928631,26.269629,-14.027735,8.6185617,-34.693287,-59.494621,-31.479364,-0.99504578,-39.861732,108.47729,-34.805439,-59.355999,-16.437321,149.6684
2517000000,-16.603064,10.784944,-34.762093,-36.286087,-35.716103,-29.485592,-31.426945,-2.3357728,-34.833782,-36.457653,-12.229971,-177.27844,-44.19223,26.43581,-39.841942,105.70061,-35.707386,-29.694138,-44.121529,26.003017,-13.983902,8.1825733,-34.602669,-60.873268,-31.482578,-2.5036631,-39.888737,105.60196,-34.70755,-60.708927,-16.437466,149.26106
2517500000,-16.655069,10.782285,-34.878437,-37.309795,-35.712292,-30.287624,-31.435253,-3.8042941,-34.94397,-37.409821,-12.191429,-177.43427,-44.440601,26.697124,-39.874516,102.82702,-35.710892,-30.443022,-44.3941,26.240007,-13.939729,7.7591686,-34.524597,-62.298367,-31.495449,-3.9858146,-39.915215,102.82113,-34.617168,-62.156559,-16.435255,148.84128
2518000000,-16.699358,10.877235,-34.985626,-38.232319,-35.687534,-30.979017,-31.458069,-5.2075243,-35.040901,-38.280804,-12.153541,-177.61122,-44.662613,27.481667,-39.917839,100.07653,-35.689281,-31.051939,-44.646748,27.12253,-13.896903,7.3405776,-34.453018,-63.741718,-31.524189,-5.3974438,-39.957546,100.10357,-34.537548,-63.625664,-16.430311,148.42006
2518500000,-16.736313,11.050162,-35.085903,-39.154011,-35.64365,-31.689157,-31.49271,-6.5142632,-35.12854,-39.188187,-12.116405,-177.79758,-44.847332,28.682274,-39.966206,97.437225,-35.644222,-31.685364,-44.842541,28.544756,-13.854226,6.9342389,-34.386772,-65.194077,-31.560804,-6.6978941,-40.001808,97.471039,-34.46669,-65.099991,-16.422106,147.96243
2519000000,-16.761936,11.269576,-35.177765,-40.053005,-35.588245,-32.479042,-31.528496,-7.731339,-35.212009,-40.106117,-12.078927,-177.98459,-45.009357,30.074402,-40.015236,94.870346,-35.584362,-32.425938,-44.994549,30.101778,-13.810767,6.5417204,-34.321407,-66.693161,-31.6052,-7.8821654,-40.047726,94.933266,-34.396935,-66.660408,-16.413046,147.48727
2519500000,-16.773598,11.510892,-35.265621,-40.941536,-35.528,-33.364674,-31.56138,-8.8336229,-35.291565,-41.034443,-12.042727,-178.18503,-45.142673,31.83514,-40.069427,92.40181,-35.519032,-33.264332,-45.115997,32.120701,-13.764562,6.1567392,-34.263454,-68.272057,-31.640406,-8.9413729,-40.091549,92.460243,-34.335793,-68.271942,-16.402979,146.99889
2520000000,-16.775761,11.749363,-35.350842,-41.889591,-35.471508,-34.307018,-31.583237,-9.8712597,-35.372894,-42.016052,-12.007903,-178.40025,-45.187576,33.859741,-40.129559,89.94059,-35.457649,-34.161972,-45.149769,34.245914,-13.717543,5.7756205,-34.211227,-69.903549,-31.663979,-9.9345016,-40.14196,90.024391,-34.282745,-69.975128,-16.394156,146.49164
2520500000,-16.768095,11.976487,-35.440994,-42.806507,-35.417362,-35.243698,-31.591818,-10.90337,-35.466145,-42.965298,-11.972728,-178.60834,-45.164497,35.91777,-40.203796,87.634377,-35.398464,-35.120033,-45.086681,36.359924,-13.669959,5.3864689,-34.172794,-71.578453,-31.670788,-10.917523,-40.213737,87.697807,-34.251263,-71.695892,-16.386063,145.97046
2521000000,-16.75596,12.186303,-35.529835,-43.686359,-35.363029,-36.252586,-31.593811,-11.945072,-35.556198,-43.888332,-11.941553,-178.84885,-45.080379,37.829842,-40.280735,85.454994,-35.340412,-36.107201,-44.965607,38.324364,-13.619431,4.9888597,-34.146973,-73.251968,-31.668753,-11.91494,-40.289528,85.543968,-34.229797,-73.413132,-16.379313,145.44432
2521500000,-16.734457,12.387728,-35.615868,-44.569969,-35.303268,-37.228016,-31.583988,-12.993167,-35.644932,-44.80201,-11.9098,-179.09082,-44.961494,39.595333,-40.367668,83.483803,-35.278511,-37.121475,-44.810772,39.928905,-13.568805,4.5693121,-34.123707,-74.923424,-31.656622,-12.951348,-40.369793,83.585754,-34.215443,-75.077248,-16.375217,144.90611
2522000000,-16.70746,12.574565,-35.706245,-45.432709,-35.236698,-38.311459,-31.568872,-14.133868,-35.741199,-45.69347,-11.879042,-179.34482,-44.807915,41.30817,-40.438782,81.793076,-35.214497,-38.179165,-44.632542,41.435528,-13.517773,4.1371069,-34.107151,-76.652794,-31.634758,-14.089208,-40.433975,81.858902,-34.207893,-76.808388,-16.373821,144.35838
2522500000,-16.67444,12.758003,-35.788506,-46.243973,-35.171276,-39.427307,-31.555651,-15.351979,-35.830486,-46.493446,-11.851577,-179.61353,-44.591351,42.824883,-40.487053,80.257126,-35.149002,-39.300987,-44.41222,42.685284,-13.469913,3.6871214,-34.105404,-78.385529,-31.614168,-15.323823,-40.472713,80.260368,-34.21209,-78.512024,-16.374807,143.81479
2523000000,-16.632017,12.933434,-35.861832,-47.117104,-35.098763,-40.609512,-31.54845,-16.667063,-35.912838,-47.321182,-11.826914,-179.89444,-44.351025,43.982243,-40.495884,78.824112,-35.081055,-40.45118,-44.191509,43.616882,-13.422644,3.2297151,-34.110149,-80.144333,-31.602571,-16.648008,-40.480907,78.758621,-34.218517,-80.218071,-16.376787,143.28186
2523500000,-16.580956,13.105012,-35.944916,-48.019726,-35.032768,-41.935322,-31.556477,-18.041819,-35.996964,-48.197754,-11.804036,179.83568,-44.099541,44.917274,-40.476044,77.335831,-35.008175,-41.742599,-43.962463,44.416431,-13.377401,2.7617712,-34.127945,-81.9048,-31.60664,-18.036398,-40.456989,77.20314,-34.236935,-81.950577,-16.380192,142.77203
2524000000,-16.523916,13.261744,-36.037811,-48.876095,-34.972389,-43.328232,-31.581493,-19.416452,-36.08667,-49.03376,-11.785783,179.55037,-43.847244,45.586571,-40.422321,75.78022,-34.943481,-43.098392,-43.734974,45.040936,-13.335452,2.2925138,-34.164406,-83.651962,-31.631155,-19.448259,-40.414295,75.57132,-34.269024,-83.677788,-16.384995,142.25375
2524500000,-16.461563,13.384624,-36.128033,-49.68185,-34.91597,-44.778759,-31.624207,-20.756483,-36.178703,-49.793018,-11.768977,179.27469,-43.596054,46.026463,-40.371883,74.084976,-34.881161,-44.558502,-43.505878,45.428871,-13.293216,1.8317752,-34.216431,-85.330795,-31.671434,-20.802464,-40.361546,73.852119,-34.316113,-85.33213,-16.391417,141.76125
2525000000,-16.384047,13.490529,-36.212032,-50.454372,-34.865246,-46.360092,-31.67635,-22.049349,-36.259258,-50.548012,-11.754066,178.99675,-43.374207,46.172226,-40.308475,72.370567,-34.827438,-46.137829,-43.313454,45.659199,-13.251305,1.3742062,-34.276768,-86.920235,-31.724552,-22.128872,-40.306675,72.069786,-34.370899,-86.921356,-16.399195,141.27818
2525500000,-16.302076,13.52814,-36.300278,-51.282917,-34.823658,-47.986408,-31.741888,-23.270687,-36.336674,-51.326813,-11.741848,178.73207,-43.161484,46.650208,-40.231098,70.562302,-34.781376,-47.76897,-43.120579,46.230309,-13.207372,0.89812881,-34.337757,-88.447174,-31.791143,-23.367987,-40.240982,70.23661,-34.426956,-88.44532,-16.406765,140.8145
2526000000,-16.213568,13.49321,-36.389862,-52.006901,-34.792282,-49.748463,-31.818895,-24.400309,-36.412193,-52.056831,-11.732046,178.45717,-42.933514,46.838093,-40.165489,68.606529,-34.749546,-49.563259,-42.89463,46.524555,-13.169135,0.40459102,-34.405525,-89.916672,-31.868238,-24.503273,-40.185101,68.31057,-34.490757,-89.954102,-16.414303,140.37578
2526500000,-16.116951,13.386074,-36.464088,-52.760921,-34.781559,-51.549194,-31.901489,-25.419643,-36.47971,-52.844749,-11.724453,178.1913,-42.722866,47.001045,-40.108482,66.636971,-34.737793,-51.392838,-42.679977,46.691898,-13.134713,-0.081675954,-34.475609,-91.299881,-31.950977,-25.524202,-40.141792,66.380692,-34.557095,-91.39151,-16.421896,139.9267
2527000000,-16.017366,13.180974,-36.547287,-53.543591,-34.791759,-53.396984,-31.986973,-26.280785,-36.550663,-53.72282,-11.719542,177.92578,-42.517879,47.196861,-40.057735,64.679909,-34.74873,-53.281315,-42.479698,46.968105,-13.10216,-0.55792803,-34.541393,-92.650513,-32.036537,-26.391863,-40.096397,64.46846,-34.626747,-92.784775,-16.427885,139.50215
