!CSV A.01.01
!Keysight Technologies,N5222B,MY58422327,A.13.60.06
!Date: Monday, March 28, 2022 16:19:38
!Source: Standard

BEGIN CH1_DATA
Freq(Hz),S11(DB),S11(DEG),S12(DB),S12(DEG),S13(DB),S13(DEG),S14(DB),S14(DEG),S21(DB),S21(DEG),S22(DB),S22(DEG),S23(DB),S23(DEG),S24(DB),S24(DEG),S31(DB),S31(DEG),S32(DB),S32(DEG),S33(DB),S33(DEG),S34(DB),S34(DEG),S41(DB),S41(DEG),S42(DB),S42(DEG),S43(DB),S43(DEG),S44(DB),S44(DEG)
2500000000,-16.926472,24.332054,-33.120262,19.067295,-34.45319,16.042587,-31.555256,8.588335,-33.12405,18.93684,-13.43645,-175.41093,-39.779339,12.75666,-44.266197,-78.598579,-34.455544,15.80731,-39.687885,12.733431,-16.111439,24.241932,-36.697868,15.078128,-31.610437,8.4718218,-44.249229,-78.075241,-36.804932,15.231804,-16.484756,165.26917
2500500000,-16.90955,23.993446,-33.221432,17.845453,-34.36549,15.224386,-31.61311,7.3845735,-33.221462,17.689503,-13.396341,-175.51939,-39.888622,11.334762,-44.199276,-81.821419,-34.37265,14.993253,-39.794304,11.303727,-16.051727,23.755676,-36.66972,14.192528,-31.66909,7.283865,-44.17374,-81.228882,-36.771561,14.36161,-16.475508,164.93015
2501000000,-16.888227,23.669558,-33.325382,16.643103,-34.277237,14.356602,-31.679342,6.251461,-33.322311,16.496073,-13.354454,-175.61334,-40.009232,9.8564949,-44.157257,-85.103951,-34.288868,14.137095,-39.912189,9.8187265,-15.99142,23.253387,-36.654461,13.152549,-31.735477,6.1365895,-44.134392,-84.449272,-36.749542,13.300254,-16.463753,164.58546
2501500000,-16.861988,23.355469,-33.417965,15.535564,-34.198502,13.543811,-31.749393,5.2458105,-33.41283,15.374116,-13.314946,-175.72246,-40.149361,8.4528666,-44.155594,-88.306953,-34.209755,13.361757,-40.043941,8.363081,-15.934262,22.736719,-36.656853,12.148907,-31.80534,5.1233501,-44.127647,-87.55555,-36.750996,12.298216,-16.448235,164.2412
2502000000,-16.834949,23.009434,-33.504025,14.440673,-34.115112,12.748423,-31.813444,4.3100467,-33.494072,14.255022,-13.27676,-175.8297,-40.303017,7.0666547,-44.16473,-91.302979,-34.128353,12.558957,-40.20116,6.9588766,-15.879918,22.213242,-36.675293,11.121445,-31.870377,4.1695251,-44.119232,-90.544189,-36.767281,11.253739,-16.430452,163.87924
2502500000,-16.803995,22.648087,-33.581772,13.368468,-34.038773,11.893572,-31.869926,3.4351046,-33.569881,13.158299,-13.238321,-175.93549,-40.462669,5.7976131,-44.158691,-94.162735,-34.05106,11.744026,-40.354939,5.6724553,-15.831551,21.691519,-36.717091,10.191513,-31.931694,3.2782989,-44.101582,-93.375725,-36.807732,10.30786,-16.4114,163.49353
2503000000,-16.770325,22.266693,-33.650219,12.330365,-33.971416,11.082994,-31.919123,2.5987818,-33.634422,12.08916,-13.202927,-176.06285,-40.618401,4.6306086,-44.135723,-97.004532,-33.981731,10.913465,-40.518707,4.438396,-15.7857,21.184277,-36.769009,9.460803,-31.983332,2.4386773,-44.067036,-96.276985,-36.859657,9.5695496,-16.390236,163.09666
2503500000,-16.741219,21.848097,-33.705627,11.245475,-33.902702,10.344497,-31.960526,1.7683015,-33.690174,10.955547,-13.168092,-176.18835,-40.765121,3.4248862,-44.087715,-99.799171,-33.913082,10.17838,-40.671036,3.2435989,-15.744702,20.703199,-36.806446,8.9823322,-32.02739,1.6132953,-44.016579,-99.100235,-36.898895,9.1037617,-16.367479,162.68591
2504000000,-16.709911,21.425642,-33.759052,10.135182,-33.825336,9.6670465,-31.995604,0.92952567,-33.743202,9.7860098,-13.132866,-176.31232,-40.907444,2.1688938,-44.006371,-102.64025,-33.831478,9.5194111,-40.815819,2.021565,-15.704727,20.259323,-36.815914,8.5772924,-32.065868,0.77431089,-43.927593,-102.01722,-36.909897,8.6986713,-16.343597,162.23267
2504500000,-16.679152,20.998726,-33.806511,8.9917755,-33.726742,8.9969597,-32.031155,0.070813522,-33.792503,8.6178017,-13.100289,-176.4509,-41.056789,0.71058035,-43.880238,-105.69548,-33.740089,8.829133,-40.966015,0.57324088,-15.662999,19.848333,-36.798264,8.2132673,-32.103073,-0.054425415,-43.807327,-105.15005,-36.888786,8.3211842,-16.316607,161.76817
2505000000,-16.644127,20.575516,-33.848816,7.7521873,-33.623615,8.2675676,-32.064007,-0.7544955,-33.83897,7.348989,-13.07093,-176.60097,-41.234737,-0.79838604,-43.730068,-109.08005,-33.635246,8.1026793,-41.142262,-0.93525046,-15.61943,19.444187,-36.75946,7.8833551,-32.134918,-0.87581009,-43.660683,-108.60526,-36.848526,7.9564958,-16.291531,161.24481
2505500000,-16.608141,20.129211,-33.896744,6.4923029,-33.505405,7.4501381,-32.09721,-1.5885572,-33.89011,6.0799613,-13.042513,-176.73605,-41.450363,-2.4351943,-43.592319,-112.93356,-33.515652,7.2929235,-41.357388,-2.5574801,-15.572685,19.052887,-36.685066,7.4348097,-32.168819,-1.692839,-43.529404,-112.48054,-36.774487,7.4925513,-16.266006,160.69493
2506000000,-16.572189,19.663389,-33.947536,5.180275,-33.382477,6.5317512,-32.128437,-2.3916965,-33.943691,4.7637563,-13.016637,-176.8721,-41.702168,-4.1176171,-43.467812,-117.12115,-33.394524,6.3622055,-41.609646,-4.2293134,-15.524104,18.665493,-36.593163,6.8617363,-32.201183,-2.5007925,-43.408276,-116.68138,-36.685814,6.9095712,-16.242271,160.09879
2506500000,-16.537237,19.194086,-34.008568,3.8099136,-33.26392,5.4929523,-32.158592,-3.1535892,-34.005875,3.3840742,-12.991937,-177.01233,-42.019512,-5.7938123,-43.373333,-121.6557,-33.277382,5.3389187,-41.921097,-5.9182119,-15.47439,18.277206,-36.489933,6.1184702,-32.232319,-3.2367578,-43.326839,-121.23704,-36.583565,6.1504107,-16.222038,159.47325
2507000000,-16.506346,18.716759,-34.081814,2.4663196,-33.1469,4.3458514,-32.175289,-3.8725982,-34.078308,2.0329714,-12.967191,-177.12833,-42.402149,-7.2666726,-43.341141,-126.40128,-33.160465,4.2211866,-42.300236,-7.4028163,-15.422338,17.891949,-36.387436,5.2159157,-32.248402,-3.9606829,-43.295853,-125.95288,-36.482914,5.2494874,-16.207388,158.81375
2507500000,-16.472044,18.258541,-34.159409,1.1286544,-33.038639,3.1131754,-32.182178,-4.6496158,-34.156181,0.69308281,-12.94394,-177.2511,-42.843895,-8.351223,-43.343826,-131.2036,-33.052486,2.9903338,-42.736187,-8.5070133,-15.368474,17.511076,-36.289043,4.1774292,-32.254574,-4.7227445,-43.304825,-130.77142,-36.383892,4.2075272,-16.196951,158.14349
2508000000,-16.442585,17.782282,-34.241901,-0.17580654,-32.943081,1.7871501,-32.187843,-5.495244,-34.236248,-0.61981434,-12.920155,-177.36058,-43.328068,-8.9043579,-43.383759,-136.05197,-32.955605,1.6981124,-43.222446,-9.1026773,-15.314552,17.131468,-36.205681,3.0506756,-32.260036,-5.5563817,-43.347942,-135.63307,-36.298214,3.0783534,-16.191315,157.46652
2508500000,-16.414757,17.309425,-34.324417,-1.4615101,-32.863728,0.43671975,-32.201946,-6.3551278,-34.318832,-1.9301504,-12.89501,-177.45346,-43.842087,-8.9024239,-43.467819,-140.84862,-32.872681,0.36869729,-43.734638,-9.0927029,-15.256001,16.761662,-36.130814,1.881076,-32.27396,-6.4086347,-43.436653,-140.53644,-36.229225,1.8892744,-16.190437,156.78851
2509000000,-16.393803,16.821321,-34.410389,-2.7700772,-32.790699,-0.93597698,-32.222908,-7.1982093,-34.406437,-3.2617092,-12.872169,-177.5621,-44.359093,-8.1384087,-43.573597,-145.62155,-32.79808,-0.998496,-44.249523,-8.3187399,-15.196685,16.385601,-36.072495,0.70727098,-32.290947,-7.2234092,-43.551308,-145.3006,-36.169083,0.71085775,-16.191088,156.12128
2509500000,-16.376253,16.346945,-34.503922,-4.0762882,-32.727188,-2.3286595,-32.245037,-7.9806023,-34.502769,-4.5660133,-12.84642,-177.66345,-44.825153,-6.6044297,-43.694889,-150.34805,-32.731586,-2.3974574,-44.722466,-6.7981024,-15.133934,16.003227,-36.015511,-0.41528845,-32.307804,-7.9947782,-43.678333,-149.98544,-36.112377,-0.44153282,-16.194216,155.4532
2510000000,-16.366571,15.876181,-34.608086,-5.3844004,-32.671307,-3.7564261,-32.261341,-8.6937113,-34.608166,-5.8763947,-12.818651,-177.75333,-45.209896,-4.4815536,-43.826183,-154.98569,-32.674595,-3.8392463,-45.114689,-4.7095919,-15.069019,15.614491,-35.952343,-1.5465648,-32.321095,-8.6919718,-43.816101,-154.63452,-36.055901,-1.563761,-16.201303,154.77914
2510500000,-16.366329,15.409436,-34.727417,-6.6500645,-32.62384,-5.2193198,-32.267033,-9.3419542,-34.73048,-7.1445942,-12.792379,-177.85976,-45.514832,-1.8844272,-43.955853,-159.63622,-32.626392,-5.3127575,-45.421349,-2.0751512,-15.00416,15.195173,-35.884018,-2.6746225,-32.322918,-9.3590698,-43.950745,-159.35571,-35.989868,-2.7207515,-16.208941,154.13646
2511000000,-16.368351,14.983064,-34.855129,-7.772625,-32.593712,-6.7248631,-32.259514,-10.006469,-34.861496,-8.2597847,-12.765625,-177.95937,-45.696384,1.1932871,-44.09626,-164.37975,-32.59618,-6.8223715,-45.593166,0.94344264,-14.937813,14.756431,-35.809452,-3.8956859,-32.312298,-10.031486,-44.095253,-164.10634,-35.918678,-3.9402769,-16.220171,153.49088
2511500000,-16.371485,14.583095,-34.974648,-8.7684164,-32.578777,-8.2140799,-32.240448,-10.682337,-34.987446,-9.234828,-12.737568,-178.04729,-45.705555,4.1699324,-44.257629,-169.1906,-32.583511,-8.3210688,-45.607285,3.7999651,-14.873665,14.293146,-35.735695,-5.1994314,-32.292515,-10.726792,-44.259201,-168.97934,-35.846752,-5.2504148,-16.234602,152.85916
2512000000,-16.376724,14.199649,-35.088764,-9.6895466,-32.571136,-9.6514387,-32.211777,-11.396681,-35.099903,-10.137798,-12.708802,-178.14911,-45.610283,6.7442579,-44.445377,-173.92729,-32.57653,-9.7489634,-45.511921,6.3103604,-14.81593,13.801716,-35.672455,-6.6246643,-32.262344,-11.45437,-44.456852,-173.71278,-35.789074,-6.6471586,-16.251989,152.24724
2512500000,-16.381548,13.828565,-35.189133,-10.617925,-32.582035,-11.065006,-32.177059,-12.151208,-35.19799,-11.034508,-12.680593,-178.25465,-45.411816,9.0223389,-44.6432,-178.5672,-32.588657,-11.151602,-45.325188,8.5632725,-14.75913,13.31434,-35.620281,-8.0164051,-32.226814,-12.206145,-44.661709,-178.43596,-35.739223,-8.0253792,-16.26926,151.66776
2513000000,-16.385288,13.460273,-35.284027,-11.515854,-32.593857,-12.400809,-32.128494,-12.929524,-35.290619,-11.909435,-12.651691,-178.35306,-45.114487,10.519072,-44.848106,176.91559,-32.601212,-12.464108,-45.034748,10.123667,-14.706481,12.82075,-35.57283,-9.4378891,-32.17926,-13.003177,-44.87719,177.02629,-35.696083,-9.4102039,-16.287466,151.10167
2513500000,-16.391003,13.091295,-35.374962,-12.457581,-32.606636,-13.686062,-32.072926,-13.815836,-35.373501,-12.819902,-12.623268,-178.45676,-44.765446,11.133959,-45.055794,172.48553,-32.610123,-13.739017,-44.689526,10.710402,-14.658201,12.329449,-35.530037,-10.840745,-32.12149,-13.895463,-45.093891,172.60434,-35.652405,-10.813197,-16.306431,150.55551
2514000000,-16.402296,12.713504,-35.466953,-13.396993,-32.614491,-14.992359,-32.017487,-14.816151,-35.457672,-13.762297,-12.594476,-178.56227,-44.436871,10.720835,-45.2486,168.2834,-32.616257,-15.015038,-44.365402,10.408601,-14.610508,11.844476,-35.488712,-12.258231,-32.065948,-14.893485,-45.287395,168.46671,-35.610851,-12.196256,-16.327099,150.01588
2514500000,-16.414457,12.359631,-35.558029,-14.351527,-32.629822,-16.339302,-31.964382,-15.881375,-35.542351,-14.734293,-12.565282,-178.67743,-44.170048,9.5828676,-45.411098,164.05482,-32.627991,-16.343987,-44.099869,9.2590694,-14.566528,11.363447,-35.451458,-13.719325,-32.013294,-15.9898,-45.461929,164.24675,-35.569351,-13.621514,-16.346375,149.51521
2515000000,-16.430885,12.029696,-35.659199,-15.269272,-32.654392,-17.669306,-31.918196,-17.03241,-35.633614,-15.716556,-12.537301,-178.79317,-43.995472,8.0771112,-45.547852,159.89793,-32.64827,-17.677034,-43.921165,7.7900648,-14.523013,10.890937,-35.415833,-15.198409,-31.967987,-17.148993,-45.604534,160.06526,-35.531544,-15.060632,-16.363918,149.03506
2515500000,-16.453865,11.732928,-35.752541,-16.170771,-32.68882,-18.991226,-31.878166,-18.230951,-35.724491,-16.682171,-12.510159,-178.9122,-43.877258,6.2668676,-45.650414,155.73129,-32.681301,-18.986553,-43.799023,6.0228124,-14.48007,10.425879,-35.380466,-16.639956,-31.931269,-18.345566,-45.711655,155.85902,-35.493408,-16.502281,-16.377884,148.575
2516000000,-16.483021,11.4708,-35.854305,-17.127838,-32.734261,-20.24815,-31.848867,-19.467358,-35.822712,-17.705423,-12.481376,-179.02005,-43.836418,4.2813945,-45.719044,151.31219,-32.721867,-20.261936,-43.75391,3.9615691,-14.438054,9.9673843,-35.339745,-18.174603,-31.90337,-19.567266,-45.796497,151.32217,-35.450306,-18.029861,-16.390715,148.09947
2516500000,-16.515137,11.289008,-35.97319,-18.028316,-32.785675,-21.435921,-31.828653,-20.700487,-35.945652,-18.688728,-12.453516,-179.13747,-43.864868,2.2124219,-45.821636,146.64348,-32.771812,-21.461691,-43.781731,1.8297306,-14.397907,9.5027723,-35.308735,-19.78215,-31.883295,-20.797012,-45.892624,146.61726,-35.417236,-19.630924,-16.40069,147.67093
2517000000,-16.547598,11.171867,-36.096642,-18.737232,-32.832935,-22.556652,-31.813858,-21.907423,-36.07444,-19.45542,-12.427269,-179.26852,-43.950764,0.060179964,-45.927525,142.0956,-32.820736,-22.612724,-43.878803,-0.31632093,-14.359731,9.046896,-35.289349,-21.408312,-31.869761,-22.004725,-46.011803,142.0376,-35.394798,-21.259031,-16.40881,147.23344
2517500000,-16.583693,11.121382,-36.211308,-19.372862,-32.887295,-23.57645,-31.797899,-23.124434,-36.195404,-20.142696,-12.399491,-179.38435,-44.152637,-2.0936263,-46.029037,137.52354,-32.876133,-23.658611,-44.083153,-2.4383223,-14.323587,8.6171417,-35.275234,-23.024572,-31.854376,-23.213791,-46.122807,137.44029,-35.378254,-22.876856,-16.414618,146.79703
2518000000,-16.615143,11.149411,-36.307022,-19.912546,-32.924786,-24.554728,-31.789318,-24.35561,-36.297058,-20.69846,-12.372433,-179.50949,-44.417271,-3.8758318,-46.120148,133.09895,-32.917252,-24.630789,-44.351574,-4.1830797,-14.288868,8.211113,-35.267574,-24.66836,-31.843126,-24.448288,-46.225018,132.92273,-35.365334,-24.550726,-16.417952,146.37085
2518500000,-16.642061,11.250627,-36.390678,-20.46806,-32.953815,-25.542488,-31.786192,-25.578745,-36.388988,-21.28441,-12.344975,-179.63217,-44.7271,-5.3622861,-46.188557,128.60583,-32.946579,-25.617493,-44.663597,-5.6147065,-14.25391,7.8300776,-35.263958,-26.349134,-31.836824,-25.668324,-46.304775,128.39671,-35.360748,-26.184824,-16.417313,145.9294
2519000000,-16.660662,11.407187,-36.465122,-21.031883,-32.979397,-26.582779,-31.784283,-26.775705,-36.47311,-21.86208,-12.315563,-179.75188,-45.100948,-6.7240143,-46.248146,123.98663,-32.974472,-26.666077,-45.028759,-6.9364209,-14.217868,7.4690657,-35.262802,-28.032843,-31.835627,-26.858088,-46.366772,123.74076,-35.360176,-27.906828,-16.411963,145.47868
2519500000,-16.666761,11.603227,-36.531933,-21.666227,-33.006256,-27.651867,-31.782097,-27.929073,-36.548466,-22.47237,-12.286845,-179.88463,-45.538799,-7.5706558,-46.310814,119.25699,-33.002525,-27.747902,-45.467682,-7.7435446,-14.177505,7.1280746,-35.271015,-29.776928,-31.831715,-28.017761,-46.43293,118.97189,-35.365124,-29.654343,-16.403028,145.0177
2520000000,-16.66242,11.806811,-36.60466,-22.330528,-33.041363,-28.766272,-31.773081,-29.07111,-36.627842,-23.150307,-12.259697,179.97087,-46.00526,-7.7716446,-46.403839,114.41025,-33.038582,-28.870268,-45.933338,-7.9495625,-14.134719,6.7964616,-35.291576,-31.593912,-31.820932,-29.163986,-46.529552,114.08557,-35.385952,-31.489485,-16.392401,144.5327
2520500000,-16.645956,12.009932,-36.692444,-22.969416,-33.083511,-29.831696,-31.757168,-30.25878,-36.72023,-23.786905,-12.231102,179.83646,-46.482822,-7.3847623,-46.533894,109.78481,-33.082451,-29.943468,-46.402676,-7.6205072,-14.088638,6.4595265,-35.335476,-33.408382,-31.803698,-30.366438,-46.662876,109.44792,-35.428234,-33.315685,-16.380224,144.01704
2521000000,-16.623508,12.187404,-36.782089,-23.515474,-33.126415,-30.844322,-31.742256,-31.486179,-36.81776,-24.321735,-12.205359,179.67577,-46.952179,-6.5495625,-46.675747,105.41278,-33.131771,-30.97822,-46.874641,-6.8505435,-14.039339,6.1088467,-35.393612,-35.160004,-31.790615,-31.622133,-46.815571,105.04667,-35.483459,-35.045567,-16.367691,143.47629
2521500000,-16.589651,12.35008,-36.872746,-23.954451,-33.164978,-31.80423,-31.724737,-32.732807,-36.916153,-24.747065,-12.178087,179.51585,-47.429581,-5.1989217,-46.832783,101.50626,-33.17461,-31.919291,-47.34864,-5.5665703,-13.988834,5.7305179,-35.454769,-36.883537,-31.777504,-32.879662,-46.979446,101.02732,-35.542961,-36.76059,-16.357979,142.90816
2522000000,-16.549536,12.489339,-36.95602,-24.174334,-33.194946,-32.785652,-31.706604,-34.048222,-37.004677,-24.959894,-12.150914,179.34456,-47.891037,-3.0953615,-46.947266,97.944946,-33.209816,-32.899349,-47.815594,-3.5033529,-13.938546,5.3377919,-35.52705,-38.569576,-31.763058,-34.203667,-47.096897,97.377602,-35.615097,-38.476738,-16.351503,142.30923
2522500000,-16.500748,12.604965,-37.000477,-24.319799,-33.220264,-33.760338,-31.691179,-35.424088,-37.054142,-25.072895,-12.125818,179.16077,-48.290825,-0.23605561,-47.034576,94.658142,-33.237999,-33.871235,-48.216331,-0.79418761,-13.89045,4.9230323,-35.612625,-40.212303,-31.750172,-35.57299,-47.187244,94.07386,-35.69627,-40.136486,-16.348934,141.69511
2523000000,-16.443264,12.685787,-37.012444,-24.546427,-33.239361,-34.753979,-31.68277,-36.888767,-37.072109,-25.275248,-12.101905,178.96744,-48.596676,2.8599215,-47.065132,91.635414,-33.262955,-34.840694,-48.533039,2.3544302,-13.843606,4.5036588,-35.703907,-41.805157,-31.743593,-37.032188,-47.21545,91.02504,-35.783916,-41.770161,-16.349859,141.07504
2523500000,-16.378485,12.73722,-37.015961,-24.878725,-33.251404,-35.793377,-31.687046,-38.414139,-37.078915,-25.585039,-12.078129,178.78197,-48.832275,6.48594,-47.020348,88.600693,-33.278713,-35.877861,-48.786438,5.9637284,-13.79804,4.0768604,-35.806355,-43.366333,-31.750757,-38.546047,-47.185749,87.916313,-35.887653,-43.36631,-16.356441,140.47054
2524000000,-16.310036,12.751801,-37.013145,-25.255524,-33.260628,-36.92168,-31.706165,-39.959225,-37.077374,-25.93269,-12.057948,178.57637,-48.950008,10.474221,-46.940674,85.410179,-33.290581,-36.978378,-48.923599,9.9047403,-13.75589,3.6403217,-35.922703,-44.848713,-31.772213,-40.07766,-47.122616,84.710785,-36.003841,-44.88097,-16.366541,139.85922
2524500000,-16.239283,12.718181,-36.994385,-25.694778,-33.269318,-38.117016,-31.741358,-41.5075,-37.060661,-26.322081,-12.037585,178.36903,-48.933167,14.451575,-46.861881,82.100677,-33.302166,-38.135853,-48.9104,13.929686,-13.713368,3.2082267,-36.048981,-46.234253,-31.805786,-41.600098,-47.053669,81.470291,-36.130276,-46.284599,-16.380753,139.28151
2525000000,-16.157503,12.654572,-36.96207,-26.242701,-33.281933,-39.392479,-31.786585,-43.042755,-37.027714,-26.824347,-12.018754,178.15207,-48.799179,17.844307,-46.766014,78.901024,-33.314827,-39.38969,-48.783741,17.370831,-13.671866,2.7759516,-36.181801,-47.498627,-31.848406,-43.12756,-46.967197,78.395172,-36.267132,-47.575783,-16.39842,138.71689
2525500000,-16.075092,12.515615,-36.929768,-26.9634,-33.297382,-40.772762,-31.845688,-44.597931,-36.994213,-27.51766,-12.002649,177.94037,-48.66383,21.231783,-46.648281,75.705177,-33.331329,-40.744358,-48.646881,20.768627,-13.629897,2.3279548,-36.317223,-48.618023,-31.906593,-44.675144,-46.845848,75.238335,-36.405804,-48.708214,-16.418219,138.17819
2526000000,-15.990682,12.299891,-36.906395,-27.738485,-33.329052,-42.267647,-31.927544,-46.10659,-36.963852,-28.280924,-11.989618,177.71553,-48.418118,24.13382,-46.531906,72.385246,-33.361885,-42.241196,-48.404713,23.775591,-13.593149,1.8654442,-36.449398,-49.560516,-31.985247,-46.210876,-46.726292,71.935715,-36.542019,-49.657383,-16.438953,137.67281
2526500000,-15.902913,12.019845,-36.883698,-28.675367,-33.373806,-43.806313,-32.02721,-47.551994,-36.943665,-29.203451,-11.978414,177.49229,-48.152477,26.725924,-46.424252,69.075012,-33.411915,-43.772243,-48.146339,26.312254,-13.560244,1.4140942,-36.566605,-50.362103,-32.08474,-47.673134,-46.617218,68.622849,-36.65807,-50.442348,-16.461567,137.17593
2527000000,-15.815294,11.656331,-36.886059,-29.686817,-33.44096,-45.388935,-32.146282,-48.892735,-36.940914,-30.19879,-11.96976,177.26958,-47.892223,29.032734,-46.341038,65.949554,-33.478477,-45.328201,-47.880753,28.688421,-13.530548,0.97925735,-36.662323,-51.096478,-32.201473,-49.024841,-46.528904,65.501144,-36.753479,-51.180141,-16.482351,136.71272
