!CSV A.01.01
!Keysight Technologies,N5222B,MY58422327,A.13.60.06
!Date: Monday, March 28, 2022 16:20:11
!Source: Standard

BEGIN CH1_DATA
Freq(Hz),S11(DB),S11(DEG),S12(DB),S12(DEG),S13(DB),S13(DEG),S14(DB),S14(DEG),S21(DB),S21(DEG),S22(DB),S22(DEG),S23(DB),S23(DEG),S24(DB),S24(DEG),S31(DB),S31(DEG),S32(DB),S32(DEG),S33(DB),S33(DEG),S34(DB),S34(DEG),S41(DB),S41(DEG),S42(DB),S42(DEG),S43(DB),S43(DEG),S44(DB),S44(DEG)
2500000000,-16.954344,24.1626,-33.015305,17.256834,-34.408154,17.826826,-31.717451,8.7310514,-33.090172,17.021929,-13.416208,-175.37027,-39.652969,13.556903,-44.863907,-84.042992,-34.335938,17.996233,-39.604095,13.549967,-16.127588,24.09844,-36.910061,11.858284,-31.769564,8.5230732,-44.940845,-83.543541,-36.986488,11.916162,-16.467113,165.00447
2500500000,-16.936033,23.829432,-33.121918,15.940744,-34.322777,16.935762,-31.782785,7.5199752,-33.198826,15.721296,-13.376974,-175.48164,-39.78067,12.118188,-44.740841,-87.331169,-34.24707,17.061514,-39.729256,12.093392,-16.071419,23.601397,-36.893887,11.093362,-31.835781,7.3291874,-44.815937,-86.878639,-36.969402,11.179645,-16.457914,164.64879
2501000000,-16.914061,23.508089,-33.229721,14.664039,-34.242844,16.015253,-31.857231,6.3869753,-33.313229,14.453288,-13.335696,-175.57967,-39.918518,10.679567,-44.630028,-90.710396,-34.167347,16.08536,-39.871063,10.62213,-16.013243,23.099155,-36.884037,10.164484,-31.90951,6.1910157,-44.723728,-90.271439,-36.959686,10.278842,-16.447248,164.28682
2501500000,-16.887329,23.194269,-33.331127,13.489308,-34.167812,15.146653,-31.937508,5.3910728,-33.41663,13.283491,-13.29685,-175.69337,-40.075474,9.3132133,-44.560421,-94.0345,-34.09697,15.163543,-40.035976,9.2624617,-15.958217,22.579849,-36.894096,9.2565517,-31.993088,5.1929574,-44.666252,-93.637306,-36.96389,9.3880987,-16.433208,163.93301
2502000000,-16.860632,22.846857,-33.42318,12.329329,-34.098412,14.294073,-32.011692,4.4772854,-33.513416,12.14641,-13.259113,-175.80421,-40.247166,7.9974909,-44.494274,-97.243309,-34.030491,14.270262,-40.213783,7.9979901,-15.906255,22.057695,-36.915314,8.3176632,-32.069515,4.2736387,-44.612362,-96.84137,-36.981445,8.421998,-16.416512,163.56358
2502500000,-16.830355,22.48921,-33.513729,11.20028,-34.030159,13.425018,-32.079334,3.6491764,-33.607872,11.037893,-13.220796,-175.91621,-40.423042,6.8925123,-44.422405,-100.32224,-33.970993,13.3751,-40.391548,6.9018006,-15.85943,21.538258,-36.962688,7.466341,-32.141022,3.4450774,-44.554592,-99.915871,-37.02462,7.5352874,-16.398172,163.16588
2503000000,-16.797876,22.113289,-33.589466,10.115965,-33.976528,12.587415,-32.138397,2.8972573,-33.684052,9.9852333,-13.185639,-176.04832,-40.597393,5.8220787,-44.352032,-103.42123,-33.92345,12.538919,-40.562588,5.8724313,-15.815757,21.033709,-37.024197,6.8096199,-32.203487,2.7044332,-44.482929,-103.0239,-37.081337,6.8658085,-16.37772,162.75726
2503500000,-16.769699,21.706074,-33.654209,8.9599104,-33.923916,11.843604,-32.189636,2.1773827,-33.748745,8.8882332,-13.151231,-176.17801,-40.754044,4.7894511,-44.266392,-106.41788,-33.877785,11.841291,-40.717064,4.8554811,-15.776299,20.554771,-37.069008,6.4291525,-32.253857,1.9931833,-44.396893,-106.03519,-37.127441,6.4333954,-16.356346,162.33176
2504000000,-16.739046,21.299282,-33.718983,7.7953882,-33.862801,11.254331,-32.22971,1.4432193,-33.809719,7.7620106,-13.116921,-176.30652,-40.906727,3.6711216,-44.141548,-109.42242,-33.820244,11.241426,-40.863144,3.7507515,-15.738505,20.113131,-37.084995,6.1189976,-32.2948,1.2739947,-44.276047,-109.03223,-37.144417,6.0808067,-16.334307,161.86546
2504500000,-16.707043,20.893408,-33.779129,6.6175613,-33.783215,10.668089,-32.263847,0.7143023,-33.864468,6.5924811,-13.085393,-176.44749,-41.066399,2.3735852,-43.981758,-112.66945,-33.74292,10.719032,-41.021549,2.4615412,-15.699205,19.708723,-37.069923,5.8708358,-32.332485,0.56582236,-44.125637,-112.1963,-37.13274,5.8045802,-16.309145,161.38843
2505000000,-16.670567,20.484684,-33.833073,5.3364024,-33.688511,10.061243,-32.288803,0.018702494,-33.914108,5.3113494,-13.056453,-176.59734,-41.262409,1.0443957,-43.796204,-116.10146,-33.645245,10.161285,-41.206734,1.1130595,-15.658058,19.312994,-37.031914,5.636981,-32.359661,-0.11873894,-43.936653,-115.61613,-37.095558,5.5378575,-16.285791,160.8571
2505500000,-16.631559,20.049276,-33.89381,4.0571575,-33.575611,9.3800688,-32.313541,-0.7090345,-33.96841,4.0067649,-13.028523,-176.73,-41.483879,-0.35877407,-43.609837,-119.96419,-33.525856,9.5157671,-41.422585,-0.31273636,-15.613548,18.933823,-36.951283,5.2828574,-32.384079,-0.85603523,-43.750149,-119.52003,-37.025658,5.1769404,-16.262451,160.2975
2506000000,-16.592913,19.589582,-33.957138,2.7067304,-33.451588,8.611824,-32.337421,-1.4445767,-34.029327,2.6463585,-13.002364,-176.86493,-41.738693,-1.7608582,-43.426025,-124.23068,-33.396988,8.7451086,-41.679024,-1.7844852,-15.566944,18.563013,-36.855297,4.779469,-32.40551,-1.5659858,-43.562637,-123.73955,-36.937225,4.6698518,-16.240658,159.69362
2506500000,-16.555424,19.117655,-34.031013,1.3169276,-33.32962,7.7340488,-32.356941,-2.1417484,-34.104733,1.2416116,-12.978055,-177.00681,-42.048298,-3.0789671,-43.275455,-128.82744,-33.26844,7.835505,-41.98877,-3.1233742,-15.518357,18.193811,-36.747959,4.0841084,-32.421745,-2.2545457,-43.412521,-128.32751,-36.835278,4.001565,-16.221897,159.06021
2507000000,-16.522322,18.630709,-34.120834,-0.025494505,-33.203381,6.7372251,-32.362347,-2.8291249,-34.192715,-0.15504251,-12.952956,-177.12381,-42.423958,-4.23908,-43.170567,-133.62088,-33.134949,6.8029203,-42.372753,-4.2965217,-15.468235,17.825781,-36.64061,3.2294154,-32.426044,-2.9443247,-43.308681,-133.11014,-36.731712,3.1870768,-16.208666,158.39314
2507500000,-16.486309,18.16177,-34.212357,-1.3494973,-33.078316,5.6176362,-32.357342,-3.5870464,-34.290073,-1.4892803,-12.929493,-177.24812,-42.840496,-4.9515562,-43.108387,-138.51579,-33.008144,5.63589,-42.796726,-5.023962,-15.4152,17.468611,-36.538876,2.2302465,-32.421192,-3.7138629,-43.249012,-138.08617,-36.630619,2.2163017,-16.200699,157.71179
2508000000,-16.456585,17.674416,-34.310928,-2.6518309,-32.966373,4.3829947,-32.356327,-4.4177065,-34.387699,-2.7530332,-12.905158,-177.35982,-43.292877,-5.089376,-43.083504,-143.51012,-32.895592,4.3720927,-43.255825,-5.2016654,-15.361689,17.110605,-36.449104,1.10551,-32.419701,-4.5488949,-43.234512,-143.08725,-36.541004,1.1195617,-16.198154,157.02852
2508500000,-16.428999,17.184805,-34.407104,-3.8996539,-32.86454,3.0924082,-32.364769,-5.2526388,-34.485645,-3.9720228,-12.879364,-177.45863,-43.750908,-4.6960607,-43.097046,-148.47179,-32.796398,3.0367351,-43.722641,-4.7892814,-15.303547,16.762659,-36.376572,-0.086143441,-32.426975,-5.3967576,-43.258198,-148.05505,-36.46616,-0.044004574,-16.20001,156.34439
2509000000,-16.408783,16.687017,-34.504936,-5.1548605,-32.771412,1.7504053,-32.376602,-6.0764413,-34.579296,-5.2005959,-12.85572,-177.57629,-44.185059,-3.5945723,-43.141224,-153.33827,-32.707127,1.6922874,-44.159592,-3.6467609,-15.243664,16.408943,-36.319534,-1.2672045,-32.440022,-6.191443,-43.312851,-152.9626,-36.406639,-1.1900213,-16.203718,155.67615
2509500000,-16.392109,16.20359,-34.60553,-6.3976531,-32.687683,0.35661009,-32.388954,-6.850234,-34.674622,-6.4198952,-12.829786,-177.68979,-44.564644,-1.9254899,-43.200367,-158.1619,-32.627399,0.30003312,-44.539719,-1.9107299,-15.179678,16.051226,-36.265633,-2.4033487,-32.451595,-6.9408002,-43.382206,-157.77272,-36.349792,-2.3187449,-16.209944,155.01337
2510000000,-16.383751,15.730021,-34.713467,-7.6447353,-32.614021,-1.1039982,-32.398922,-7.5375867,-34.779285,-7.6556749,-12.802648,-177.79251,-44.864521,0.18453075,-43.273407,-162.8703,-32.552223,-1.130744,-44.833984,0.20231415,-15.1141,15.67892,-36.211586,-3.5264432,-32.4589,-7.6269665,-43.458927,-162.49039,-36.293297,-3.4463496,-16.219568,154.34407
2510500000,-16.385111,15.261916,-34.835899,-8.8489037,-32.551888,-2.6213782,-32.396603,-8.1860933,-34.893848,-8.8797855,-12.7778,-177.91275,-45.091206,2.6244891,-43.347187,-167.61179,-32.491608,-2.640815,-45.057415,2.62239,-15.04656,15.280104,-36.152637,-4.6392994,-32.455093,-8.2823324,-43.53931,-167.18654,-36.23114,-4.5878596,-16.229462,153.71596
2511000000,-16.388332,14.831904,-34.964813,-9.9474182,-32.508289,-4.1846275,-32.384167,-8.8526392,-35.018219,-9.987174,-12.752687,-178.02211,-45.193871,5.3894339,-43.438725,-172.36041,-32.447975,-4.1767874,-45.163643,5.3645606,-14.977715,14.85276,-36.090294,-5.7866702,-32.440353,-8.9478693,-43.627991,-171.87437,-36.166508,-5.7567282,-16.241863,153.08113
2511500000,-16.392773,14.434557,-35.088318,-10.921423,-32.484352,-5.7296367,-32.362,-9.4960766,-35.136417,-10.999798,-12.726542,-178.1165,-45.172035,8.0252943,-43.543945,-177.14537,-32.419964,-5.6868548,-45.139034,7.9797773,-14.910551,14.397752,-36.022209,-7.0057268,-32.418697,-9.6192408,-43.728935,-176.63528,-36.095867,-7.0027657,-16.256668,152.46033
2512000000,-16.399977,14.054503,-35.201408,-11.85355,-32.470043,-7.2194057,-32.327934,-10.176743,-35.248756,-11.948689,-12.700255,-178.22116,-45.028023,10.298936,-43.679966,178.17464,-32.40086,-7.1715384,-45.007149,10.254807,-14.850567,13.91047,-35.967785,-8.3387794,-32.386269,-10.318422,-43.85603,178.69374,-36.04179,-8.3435888,-16.274218,151.85547
2512500000,-16.40641,13.693132,-35.305153,-12.763485,-32.472931,-8.6886873,-32.285603,-10.889663,-35.354073,-12.891521,-12.674181,-178.32793,-44.807968,12.166597,-43.823959,173.58789,-32.400852,-8.6446457,-44.792984,12.136488,-14.791959,13.4266,-35.915451,-9.6198425,-32.347721,-11.023582,-43.994434,174.02713,-35.995792,-9.6387939,-16.291111,151.27832
2513000000,-16.410995,13.328507,-35.402061,-13.665938,-32.4814,-10.069268,-32.230183,-11.635058,-35.451122,-13.827399,-12.64744,-178.42253,-44.49004,13.424127,-43.975601,169.1386,-32.406551,-10.045248,-44.474201,13.39408,-14.737373,12.937162,-35.861237,-10.932845,-32.293797,-11.770514,-44.149357,169.56113,-35.942463,-10.966373,-16.309145,150.71049
2513500000,-16.417322,12.964215,-35.493481,-14.585466,-32.491001,-11.42792,-32.164406,-12.479084,-35.548931,-14.762453,-12.620803,-178.51973,-44.135551,13.666528,-44.131889,164.86635,-32.412842,-11.401065,-44.116463,13.700266,-14.687466,12.446985,-35.810886,-12.268072,-32.227695,-12.605869,-44.305626,165.24368,-35.895702,-12.320969,-16.328245,150.15834
2514000000,-16.42979,12.591151,-35.582104,-15.489077,-32.497894,-12.771434,-32.096413,-13.443103,-35.643074,-15.687573,-12.592799,-178.62108,-43.812107,13.043474,-44.286594,160.75951,-32.419037,-12.757842,-43.788807,13.093122,-14.637851,11.96353,-35.758873,-13.644232,-32.156883,-13.537759,-44.452213,161.20407,-35.847919,-13.710711,-16.349152,149.61057
2514500000,-16.443428,12.253135,-35.672459,-16.44754,-32.511047,-14.152966,-32.027855,-14.503035,-35.738728,-16.645926,-12.565288,-178.72897,-43.556534,11.710166,-44.418419,156.81607,-32.434151,-14.143438,-43.527847,11.78753,-14.591255,11.483205,-35.712719,-15.081794,-32.08876,-14.595066,-44.580425,157.2178,-35.802719,-15.136227,-16.369892,149.09973
2515000000,-16.460369,11.937231,-35.768536,-17.399601,-32.538746,-15.527905,-31.964952,-15.651254,-35.835068,-17.58746,-12.538373,-178.8364,-43.387234,10.039159,-44.528828,152.98973,-32.461025,-15.50118,-43.349037,10.085206,-14.545738,11.0109,-35.67168,-16.571709,-32.023781,-15.744032,-44.689899,153.36494,-35.763817,-16.612831,-16.389286,148.61185
2515500000,-16.483761,11.651533,-35.857033,-18.336374,-32.577423,-16.869032,-31.90913,-16.875992,-35.932003,-18.516485,-12.5124,-178.94643,-43.277702,8.1332312,-44.603199,149.25127,-32.497658,-16.841457,-43.24617,8.15271,-14.500796,10.543595,-35.637363,-18.062248,-31.965727,-16.976454,-44.758579,149.60574,-35.730263,-18.108715,-16.405792,148.15034
2516000000,-16.512321,11.407312,-35.954868,-19.343613,-32.626022,-18.153965,-31.861761,-18.160233,-36.029072,-19.50581,-12.484931,-179.04343,-43.253487,6.0145745,-44.645195,145.40065,-32.544933,-18.119793,-43.210968,6.0413508,-14.456307,10.074324,-35.600014,-19.608065,-31.919771,-18.276474,-44.800831,145.6606,-35.697563,-19.648527,-16.420624,147.67415
2516500000,-16.543829,11.240469,-36.070377,-20.33606,-32.682529,-19.330608,-31.824787,-19.485548,-36.150467,-20.482548,-12.457798,-179.14429,-43.295383,3.8967934,-44.689068,141.41837,-32.598003,-19.310352,-43.260578,3.9090374,-14.414029,9.6000576,-35.577862,-21.216627,-31.884495,-19.593538,-44.838448,141.5928,-35.674244,-21.250179,-16.432459,147.24529
2517000000,-16.575222,11.138744,-36.19672,-21.154089,-32.735828,-20.457466,-31.799074,-20.802877,-36.277908,-21.264982,-12.431276,-179.25815,-43.391865,1.7821008,-44.720444,137.55656,-32.647156,-20.446117,-43.349075,1.7633256,-14.37517,9.1289864,-35.567337,-22.825068,-31.859138,-20.914318,-44.881821,137.5988,-35.668327,-22.860487,-16.442411,146.80818
2517500000,-16.609415,11.099398,-36.313114,-21.903234,-32.794743,-21.475952,-31.778625,-22.145723,-36.400379,-22.007248,-12.40288,-179.3522,-43.593872,-0.31985322,-44.755436,133.59308,-32.704243,-21.477787,-43.542221,-0.38576552,-14.338248,8.6816216,-35.565071,-24.42791,-31.837582,-22.260685,-44.895737,133.65843,-35.666241,-24.428576,-16.449621,146.36765
2518000000,-16.638,11.13116,-36.422741,-22.55389,-32.840027,-22.409204,-31.768524,-23.497766,-36.514881,-22.634073,-12.374648,-179.4614,-43.866558,-2.1139815,-44.770901,129.72659,-32.745651,-22.452936,-43.814972,-2.2024577,-14.303872,8.2599144,-35.570843,-25.994495,-31.827496,-23.600824,-44.919487,129.76616,-35.670845,-25.983192,-16.454344,145.93781
2518500000,-16.662432,11.232341,-36.525249,-23.217457,-32.873745,-23.352291,-31.769423,-24.820263,-36.622021,-23.268166,-12.345149,-179.57152,-44.172695,-3.5189223,-44.766327,125.79524,-32.778934,-23.411266,-44.135391,-3.7001052,-14.270054,7.8657279,-35.580723,-27.529734,-31.828571,-24.914408,-44.908318,125.82803,-35.675133,-27.521828,-16.455915,145.49182
2519000000,-16.678492,11.378937,-36.62368,-23.851639,-32.901878,-24.325523,-31.77564,-26.092596,-36.718464,-23.857254,-12.31389,-179.68404,-44.542759,-4.7464685,-44.754257,121.70105,-32.808346,-24.403267,-44.522449,-4.9473867,-14.235084,7.4976578,-35.586658,-29.0667,-31.833464,-26.191635,-44.890892,121.76413,-35.679688,-29.079397,-16.453409,145.03154
2519500000,-16.683254,11.567653,-36.717087,-24.492943,-32.929024,-25.323605,-31.780193,-27.284134,-36.807659,-24.467876,-12.282984,-179.80887,-44.972965,-5.4447289,-44.749569,117.48845,-32.837116,-25.418638,-44.968357,-5.618485,-14.196404,7.1530495,-35.594803,-30.636612,-31.838961,-27.389347,-44.878525,117.47381,-35.686798,-30.662558,-16.448404,144.56697
2520000000,-16.678146,11.762438,-36.807346,-25.159483,-32.959438,-26.361197,-31.774639,-28.460779,-36.899097,-25.114216,-12.253005,-179.9518,-45.439617,-5.48066,-44.78331,113.14083,-32.869957,-26.460289,-45.433723,-5.6252446,-14.155221,6.8184133,-35.607746,-32.277603,-31.834139,-28.588114,-44.904282,113.06278,-35.700542,-32.307415,-16.442562,144.08119
2520500000,-16.661198,11.956958,-36.916092,-25.789232,-32.995792,-27.36083,-31.763124,-29.680904,-36.999168,-25.722794,-12.221475,179.91116,-45.892792,-4.86064,-44.849644,108.98193,-32.906433,-27.469643,-45.89846,-5.0056663,-14.110341,6.4843411,-35.635807,-33.92276,-31.82431,-29.812574,-44.968006,108.83155,-35.733261,-33.962261,-16.435261,143.57504
2521000000,-16.638149,12.127651,-37.022308,-26.312361,-33.031769,-28.313595,-31.75379,-30.943432,-37.104221,-26.236843,-12.193585,179.74292,-46.32122,-3.6946514,-44.935543,105.05769,-32.945477,-28.422424,-46.340736,-3.74613,-14.062244,6.1402259,-35.674297,-35.523144,-31.815926,-31.083078,-45.051651,104.83287,-35.774097,-35.582478,-16.427429,143.05293
2521500000,-16.604242,12.279492,-37.128246,-26.730249,-33.056511,-29.21586,-31.743523,-32.229965,-37.210228,-26.672474,-12.164755,179.57449,-46.718624,-2.0260315,-45.032219,101.43084,-32.973484,-29.324383,-46.747208,-2.0056961,-14.012314,5.763207,-35.713215,-37.143749,-31.808214,-32.36338,-45.1516,101.20669,-35.813007,-37.192799,-16.4223,142.50479
2522000000,-16.563585,12.407109,-37.233574,-26.93911,-33.073895,-30.147554,-31.732361,-33.556812,-37.313503,-26.891567,-12.136189,179.39679,-47.077881,0.24525684,-45.103722,98.161484,-32.99192,-30.253944,-47.112858,0.38296238,-13.962672,5.3746505,-35.762829,-38.771217,-31.798128,-33.698845,-45.224335,97.873543,-35.866657,-38.795914,-16.419397,141.93384
2522500000,-16.516218,12.508245,-37.293442,-27.061968,-33.087521,-31.128113,-31.723158,-34.957996,-37.377438,-27.00569,-12.109434,179.2032,-47.324608,2.9665887,-45.151836,95.151123,-33.008347,-31.225594,-47.370155,3.1468484,-13.916265,4.9651704,-35.822296,-40.398575,-31.791035,-35.088406,-45.269524,94.81073,-35.924576,-40.406296,-16.419363,141.35161
2523000000,-16.460066,12.579395,-37.329277,-27.289549,-33.0947,-32.137241,-31.721825,-36.426399,-37.414249,-27.165487,-12.08465,178.99808,-47.499088,5.7320385,-45.14439,92.300972,-33.016399,-32.196945,-47.556759,6.0049038,-13.87039,4.5542383,-35.892361,-41.996628,-31.788618,-36.567596,-45.260921,91.967918,-35.993217,-42.001152,-16.422274,140.76826
2523500000,-16.398016,12.622873,-37.352051,-27.57992,-33.098022,-33.19453,-31.733248,-37.950203,-37.440453,-27.38763,-12.060172,178.79602,-47.596504,8.5957718,-45.086861,89.413048,-33.020767,-33.261719,-47.648197,9.0354614,-13.825766,4.1397371,-35.976433,-43.594189,-31.801546,-38.095768,-45.203709,89.018562,-36.077011,-43.596092,-16.428709,140.19463
2524000000,-16.33165,12.637431,-37.367157,-27.893341,-33.101318,-34.330513,-31.761042,-39.489429,-37.454109,-27.637802,-12.039679,178.57924,-47.613068,11.511717,-45.011261,86.313911,-33.020992,-34.369514,-47.657017,12.070123,-13.784235,3.7152679,-36.077023,-45.114983,-31.828997,-39.629982,-45.125038,85.901527,-36.173615,-45.120495,-16.438559,139.61307
2524500000,-16.263054,12.606001,-37.366932,-28.226835,-33.104591,-35.545792,-31.800041,-40.995758,-37.446377,-27.951487,-12.019207,178.35751,-47.552544,14.136321,-44.94265,83.156296,-33.02261,-35.579178,-47.56889,14.783834,-13.741302,3.2974231,-36.186768,-46.545547,-31.870855,-41.142952,-45.063549,82.795761,-36.28405,-46.558788,-16.451731,139.06061
2525000000,-16.183271,12.541774,-37.346157,-28.684507,-33.112255,-36.852905,-31.84446,-42.526169,-37.419506,-28.401724,-12.001242,178.13072,-47.455162,16.335655,-44.869915,80.106155,-33.031311,-36.888161,-47.450844,16.952589,-13.698685,2.8819845,-36.308323,-47.875668,-31.919956,-42.655991,-44.980923,79.736053,-36.402321,-47.885506,-16.467464,138.5164
2525500000,-16.102587,12.40542,-37.329231,-29.322231,-33.126377,-38.257996,-31.907019,-44.05431,-37.395588,-29.031313,-11.985957,177.91133,-47.375439,18.598423,-44.776604,77.066177,-33.04269,-38.301216,-47.359203,19.298716,-13.654437,2.4460933,-36.429916,-49.064369,-31.983849,-44.174408,-44.89027,76.605522,-36.527187,-49.080368,-16.485575,137.99736
2526000000,-16.019344,12.199903,-37.314465,-30.046108,-33.155628,-39.775761,-31.987331,-45.56403,-37.375351,-29.750736,-11.97337,177.67746,-47.227924,20.657814,-44.699291,73.929726,-33.072407,-39.827362,-47.204662,21.316917,-13.616283,1.991281,-36.550621,-50.102547,-32.066784,-45.668373,-44.80603,73.444328,-36.648396,-50.118267,-16.50456,137.50204
2526500000,-15.932217,11.928289,-37.305923,-30.872322,-33.206459,-41.331268,-32.090317,-47.023602,-37.363747,-30.610733,-11.962983,177.44807,-47.101643,22.498119,-44.630928,70.834061,-33.119987,-41.384659,-47.050224,23.201683,-13.581868,1.5449052,-36.655468,-50.972801,-32.169235,-47.107964,-44.743488,70.398689,-36.753498,-51.018291,-16.524693,137.0126
2527000000,-15.84549,11.57178,-37.316864,-31.794333,-33.273846,-42.910732,-32.211414,-48.347897,-37.374008,-31.544645,-11.955135,177.22005,-46.970459,24.398397,-44.57756,67.969772,-33.187382,-42.987038,-46.91222,24.956066,-13.55028,1.1120241,-36.739658,-51.822609,-32.291595,-48.421787,-44.69006,67.491539,-36.840382,-51.872578,-16.544516,136.55418
