!CSV A.01.01
!Keysight Technologies,N5222B,MY58422327,A.13.60.06
!Date: Monday, March 28, 2022 16:20:37
!Source: Standard

BEGIN CH1_DATA
Freq(Hz),S11(DB),S11(DEG),S12(DB),S12(DEG),S13(DB),S13(DEG),S14(DB),S14(DEG),S21(DB),S21(DEG),S22(DB),S22(DEG),S23(DB),S23(DEG),S24(DB),S24(DEG),S31(DB),S31(DEG),S32(DB),S32(DEG),S33(DB),S33(DEG),S34(DB),S34(DEG),S41(DB),S41(DEG),S42(DB),S42(DEG),S43(DB),S43(DEG),S44(DB),S44(DEG)
2500000000,-16.919827,24.760605,-33.083202,18.286736,-34.365536,15.940018,-31.676937,7.9566522,-33.149914,18.43681,-13.416533,-175.46773,-39.705784,13.407756,-44.071686,-86.173515,-34.338768,15.53826,-39.642105,13.301859,-16.118805,24.001184,-36.857712,10.998343,-31.726908,7.6837177,-44.017902,-85.671028,-36.918613,10.903355,-16.479296,165.04001
2500500000,-16.897921,24.406393,-33.184544,16.995802,-34.282722,15.025002,-31.75543,6.7196431,-33.24403,17.17421,-13.378053,-175.58696,-39.835918,12.07935,-43.960907,-89.207031,-34.257164,14.625942,-39.774841,11.95375,-16.063583,23.510468,-36.845661,10.270157,-31.809456,6.4624958,-43.903103,-88.823875,-36.906094,10.158498,-16.471167,164.67578
2501000000,-16.872877,24.056482,-33.291313,15.743214,-34.21006,14.082086,-31.845497,5.5692301,-33.341526,15.944325,-13.337834,-175.69102,-39.977097,10.739836,-43.867813,-92.415718,-34.183697,13.702601,-39.915905,10.60031,-16.00749,23.01548,-36.842091,9.3981934,-31.901735,5.3230762,-43.809357,-92.163338,-36.904369,9.2823935,-16.461658,164.3015
2501500000,-16.843716,23.711094,-33.389374,14.568091,-34.14299,13.226762,-31.939075,4.5860767,-33.431358,14.762868,-13.300507,-175.81006,-40.131195,9.509656,-43.816475,-95.598305,-34.115246,12.824569,-40.076294,9.3136606,-15.953987,22.50843,-36.853123,8.5450058,-31.997471,4.3563919,-43.763153,-95.376595,-36.916225,8.4220543,-16.449068,163.93608
2502000000,-16.815727,23.333105,-33.479763,13.422125,-34.077919,12.343442,-32.027298,3.7092247,-33.514786,13.59918,-13.264098,-175.92613,-40.29673,8.3576097,-43.76638,-98.624474,-34.052177,11.970644,-40.246483,8.1457148,-15.902764,21.994404,-36.874352,7.6356583,-32.085529,3.4858849,-43.717545,-98.518433,-36.933887,7.4989734,-16.434801,163.5619
2502500000,-16.784105,22.944506,-33.570404,12.305311,-34.020618,11.481199,-32.105812,2.9259517,-33.594883,12.441356,-13.22742,-176.04024,-40.458706,7.3441381,-43.715118,-101.55411,-33.994938,11.107032,-40.418766,7.1105752,-15.856169,21.485807,-36.921051,6.806747,-32.164139,2.7280521,-43.681137,-101.50522,-36.980366,6.6423144,-16.418489,163.16406
2503000000,-16.750996,22.542824,-33.643616,11.250656,-33.970303,10.681202,-32.172314,2.2216153,-33.663525,11.314493,-13.194139,-176.17625,-40.615959,6.3958392,-43.661144,-104.45948,-33.944103,10.30416,-40.581238,6.1323571,-15.812922,20.991896,-36.980396,6.1688643,-32.228607,2.0285764,-43.636845,-104.51175,-37.035992,5.9822741,-16.400543,162.75957
2503500000,-16.722622,22.110464,-33.701065,10.136716,-33.924461,9.9941759,-32.225399,1.535278,-33.723274,10.127498,-13.161917,-176.30791,-40.756344,5.4136481,-43.588512,-107.28354,-33.894463,9.5862923,-40.723915,5.1750865,-15.774063,20.521561,-37.020252,5.771287,-32.281704,1.3408667,-43.576397,-107.40184,-37.082539,5.5785313,-16.381027,162.3409
2504000000,-16.691408,21.675247,-33.761642,8.9701481,-33.864319,9.4096012,-32.270737,0.8296113,-33.781738,8.9062786,-13.12953,-176.43285,-40.894821,4.3245745,-43.479305,-110.15078,-33.835556,8.9897738,-40.874863,4.1108613,-15.7362,20.089724,-37.033932,5.4573359,-32.327415,0.64083481,-43.494038,-110.29802,-37.101559,5.2290983,-16.360052,161.88422
2504500000,-16.66008,21.241175,-33.817059,7.7773018,-33.787178,8.8366957,-32.311584,0.13445586,-33.840984,7.6647878,-13.099735,-176.56984,-41.04295,3.0703585,-43.346779,-113.16792,-33.755905,8.4117136,-41.027573,2.8505313,-15.696829,19.693659,-37.023315,5.1954479,-32.369347,-0.048566427,-43.371689,-113.28317,-37.096729,4.9583669,-16.33585,161.41528
2505000000,-16.625175,20.809187,-33.866364,6.4685783,-33.689968,8.2527905,-32.344952,-0.55970949,-33.900433,6.3391814,-13.072888,-176.71327,-41.21899,1.7785341,-43.183731,-116.39214,-33.663094,7.8136659,-41.209877,1.6016853,-15.655429,19.307945,-36.984119,4.9603505,-32.400906,-0.72999835,-43.218513,-116.48599,-37.064598,4.7056737,-16.312946,160.89188
2505500000,-16.588671,20.350586,-33.927868,5.1694074,-33.576595,7.5864687,-32.375648,-1.2540594,-33.968105,5.010335,-13.046174,-176.83923,-41.428143,0.40571228,-43.015526,-120.02541,-33.551006,7.1278319,-41.42345,0.25394639,-15.610353,18.934919,-36.914467,4.6299787,-32.431866,-1.4393603,-43.05917,-120.06223,-36.998177,4.373384,-16.289871,160.33806
2506000000,-16.552645,19.871487,-33.991177,3.7972722,-33.455917,6.7786365,-32.402435,-1.9419869,-34.042114,3.6423144,-13.021258,-176.9678,-41.66684,-0.99799174,-42.848286,-123.97434,-33.432968,6.3446326,-41.668301,-1.1026652,-15.563251,18.568316,-36.826309,4.1579218,-32.459461,-2.1221516,-42.898594,-124.0013,-36.910915,3.935981,-16.268406,159.73891
2506500000,-16.51808,19.384684,-34.067745,2.3644521,-33.334335,5.8883982,-32.422142,-2.5686729,-34.126236,2.2522001,-12.997892,-177.10065,-41.961807,-2.2798972,-42.716244,-128.21858,-33.313652,5.4454212,-41.960915,-2.3465614,-15.513734,18.200958,-36.719387,3.5562172,-32.481956,-2.7554305,-42.770836,-128.32413,-36.813431,3.3123507,-16.249752,159.1127
2507000000,-16.488062,18.892082,-34.15937,0.97615707,-33.212292,4.8693824,-32.429626,-3.2052355,-34.223499,0.91305435,-12.973862,-177.21036,-42.31892,-3.4161348,-42.625134,-132.74574,-33.190228,4.4690266,-42.311405,-3.3812163,-15.462632,17.838863,-36.613564,2.7867174,-32.491898,-3.388885,-42.680855,-132.85036,-36.708782,2.535625,-16.237152,158.44772
2507500000,-16.455374,18.420708,-34.263531,-0.35343754,-33.095043,3.7463515,-32.42907,-3.9315486,-34.326214,-0.38485214,-12.951368,-177.32726,-42.720459,-4.1399484,-42.568863,-137.37766,-33.069695,3.351011,-42.71064,-4.0239058,-15.408922,17.481932,-36.506676,1.8496805,-32.492119,-4.0816617,-42.631298,-137.47417,-36.609657,1.6229606,-16.229349,157.77371
2508000000,-16.428179,17.940025,-34.369598,-1.6053662,-32.984318,2.5453427,-32.430843,-4.7124772,-34.432873,-1.5978903,-12.928066,-177.43274,-43.150242,-4.3194108,-42.550812,-142.08279,-32.961098,2.1523166,-43.134308,-4.2093611,-15.355046,17.125271,-36.410957,0.78348082,-32.493008,-4.843009,-42.621494,-142.15828,-36.518257,0.58970869,-16.226673,157.09355
2508500000,-16.402878,17.467945,-34.47337,-2.8058028,-32.884758,1.2555425,-32.439598,-5.4991879,-34.53463,-2.7643361,-12.903546,-177.52336,-43.586498,-3.9337959,-42.566914,-146.78862,-32.860588,0.87683129,-43.571194,-3.8495233,-15.296677,16.781258,-36.329788,-0.35756904,-32.499474,-5.6187325,-42.641582,-146.82646,-36.440048,-0.52900684,-16.228949,156.41261
2509000000,-16.383045,16.984882,-34.578156,-3.9680958,-32.796406,-0.044913948,-32.45134,-6.2646723,-34.636864,-3.9278281,-12.880871,-177.63293,-44.000599,-2.92907,-42.614094,-151.46156,-32.768623,-0.43981728,-43.992886,-2.8450861,-15.236099,16.432663,-36.258133,-1.5104874,-32.511044,-6.3574972,-42.689781,-151.46312,-36.375694,-1.6418046,-16.233055,155.74591
2509500000,-16.365891,16.520407,-34.684097,-5.134099,-32.712078,-1.39758,-32.463795,-6.9750781,-34.740215,-5.0818887,-12.855966,-177.73344,-44.353939,-1.3156266,-42.675892,-156.06375,-32.683994,-1.8036325,-44.346626,-1.2583843,-15.171584,16.073931,-36.193367,-2.6502624,-32.519413,-7.0627804,-42.757698,-156.03922,-36.315891,-2.7503083,-16.239595,155.08482
2510000000,-16.356104,16.056784,-34.788502,-6.2848287,-32.633728,-2.817941,-32.470692,-7.6284385,-34.848015,-6.2309837,-12.82961,-177.82384,-44.631413,0.63817459,-42.739193,-160.6196,-32.605869,-3.2510431,-44.621063,0.79114825,-15.104102,15.705346,-36.134708,-3.8215122,-32.521572,-7.717804,-42.831367,-160.58717,-36.258732,-3.8598459,-16.249834,154.41782
2510500000,-16.355066,15.598091,-34.906563,-7.4364052,-32.56884,-4.3262582,-32.464653,-8.239049,-34.966976,-7.3459606,-12.804677,-177.9303,-44.835686,2.9356885,-42.810719,-165.22636,-32.5397,-4.7545915,-44.826321,3.1228559,-15.035401,15.305518,-36.074329,-4.9758883,-32.512676,-8.3454523,-42.909492,-165.17915,-36.196953,-4.9705691,-16.260336,153.79114
2511000000,-16.355562,15.174598,-35.031052,-8.4619312,-32.518616,-5.8773265,-32.448448,-8.8765383,-35.093815,-8.3375998,-12.779663,-178.02808,-44.930153,5.4791155,-42.896557,-169.89075,-32.494774,-6.3233891,-44.911678,5.709991,-14.965485,14.878211,-36.010765,-6.1672273,-32.49297,-8.9934959,-42.996323,-169.80594,-36.130234,-6.1144714,-16.273794,153.16188
2511500000,-16.357199,14.772672,-35.148296,-9.3770533,-32.490463,-7.4529762,-32.423302,-9.5132132,-35.210178,-9.19415,-12.753747,-178.11078,-44.900181,7.930912,-42.996922,-174.67638,-32.467052,-7.8951302,-44.866936,8.168088,-14.897557,14.418591,-35.950329,-7.421454,-32.464085,-9.6543932,-43.103054,-174.49629,-36.064426,-7.3481736,-16.2894,152.54591
2512000000,-16.362316,14.391025,-35.256104,-10.258919,-32.472763,-8.9659405,-32.386761,-10.18075,-35.315411,-10.020483,-12.727579,-178.20726,-44.771954,10.013961,-43.128216,-179.34991,-32.448421,-9.3974676,-44.727406,10.18212,-14.836233,13.924512,-35.902836,-8.74016,-32.425728,-10.346195,-43.236713,-179.14259,-36.010532,-8.6459589,-16.307426,151.95192
2512500000,-16.364998,14.021908,-35.352146,-11.136547,-32.475967,-10.484524,-32.345329,-10.858876,-35.407291,-10.822779,-12.701355,-178.30185,-44.565044,11.798768,-43.27721,175.96559,-32.454014,-10.911603,-44.523399,11.909057,-14.777124,13.432354,-35.857117,-9.996913,-32.382217,-11.069651,-43.389614,176.245,-35.95903,-9.9005928,-16.324234,151.38704
2513000000,-16.366488,13.648005,-35.445873,-11.987139,-32.485962,-11.905671,-32.286331,-11.586058,-35.491898,-11.617083,-12.674714,-178.3858,-44.260612,12.880286,-43.447529,171.34756,-32.462193,-12.318767,-44.227833,12.927193,-14.72254,12.930788,-35.813339,-11.27701,-32.326187,-11.811502,-43.553814,171.79628,-35.908417,-11.160028,-16.342373,150.82762
2513500000,-16.370569,13.269972,-35.534195,-12.89454,-32.49477,-13.274394,-32.215965,-12.400669,-35.569218,-12.447019,-12.648099,-178.472,-43.922928,13.104177,-43.631119,166.9653,-32.472973,-13.679007,-43.893559,13.162843,-14.672742,12.431369,-35.767925,-12.558061,-32.259178,-12.653409,-43.72924,167.46307,-35.86158,-12.437829,-16.361174,150.28552
2514000000,-16.380482,12.880961,-35.619392,-13.762063,-32.503048,-14.636129,-32.138298,-13.344915,-35.640305,-13.278439,-12.620073,-178.55899,-43.609005,12.467657,-43.816807,162.73575,-32.480133,-15.031462,-43.584854,12.550595,-14.624161,11.942281,-35.71904,-13.866425,-32.187141,-13.611239,-43.902519,163.35532,-35.809551,-13.742558,-16.380709,149.74347
2514500000,-16.391964,12.516861,-35.703632,-14.673321,-32.520325,-16.027817,-32.064548,-14.401385,-35.710686,-14.179182,-12.591967,-178.65384,-43.360668,11.161984,-43.979389,158.65311,-32.495777,-16.414751,-43.345123,11.24984,-14.579159,11.454945,-35.670933,-15.217414,-32.116974,-14.679442,-44.052887,159.332,-35.757103,-15.117159,-16.40028,149.2347
2515000000,-16.408522,12.172572,-35.790878,-15.599614,-32.546139,-17.417606,-31.995695,-15.58121,-35.784508,-15.099209,-12.564042,-178.74701,-43.191483,9.5182257,-44.131729,154.69104,-32.519169,-17.802305,-43.182724,9.6406622,-14.535608,10.983287,-35.629444,-16.623882,-32.052792,-15.835517,-44.190006,155.42628,-35.711807,-16.512712,-16.418909,148.7464
2515500000,-16.431107,11.858683,-35.87899,-16.521143,-32.583714,-18.789684,-31.936874,-16.814819,-35.859245,-16.015238,-12.536572,-178.84236,-43.082733,7.5768929,-44.251934,150.80035,-32.556534,-19.171206,-43.077965,7.8145032,-14.492479,10.518183,-35.58696,-18.020334,-31.997765,-17.066032,-44.300613,151.53114,-35.6661,-17.926247,-16.434866,148.27972
2516000000,-16.461464,11.588228,-35.973331,-17.491863,-32.631916,-20.101768,-31.889042,-18.129223,-35.937393,-17.011147,-12.507201,-178.92685,-43.052593,5.4730563,-44.348797,146.76419,-32.604088,-20.475985,-43.04213,5.7390718,-14.449254,10.058573,-35.543896,-19.487989,-31.950911,-18.355841,-44.382343,147.50385,-35.61961,-19.400883,-16.449825,147.79922
2516500000,-16.494644,11.392456,-36.087605,-18.458937,-32.6884,-21.342365,-31.852098,-19.465572,-36.039818,-18.01123,-12.477465,-179.01921,-43.09771,3.3076994,-44.450306,142.63005,-32.66003,-21.727201,-43.084843,3.6136875,-14.407679,9.5941782,-35.508392,-21.023869,-31.915699,-19.676491,-44.475613,143.34142,-35.581173,-20.95582,-16.462078,147.36588
2517000000,-16.528828,11.267751,-36.210175,-19.214005,-32.74382,-22.525551,-31.82868,-20.793879,-36.146641,-18.836723,-12.448938,-179.12851,-43.195786,1.1567717,-44.555752,138.64842,-32.714851,-22.929766,-43.182281,1.5083841,-14.368579,9.1334524,-35.48539,-22.580879,-31.891947,-20.975195,-44.574699,139.28998,-35.555859,-22.536959,-16.472916,146.92677
2517500000,-16.567347,11.21705,-36.328358,-19.927826,-32.81028,-23.59499,-31.804747,-22.135675,-36.253773,-19.602545,-12.418408,-179.22545,-43.398018,-0.98147804,-44.655865,134.64116,-32.781975,-24.003599,-43.389393,-0.5950017,-14.331038,8.6961632,-35.46825,-24.150745,-31.870035,-22.293484,-44.668167,135.24831,-35.536495,-24.124332,-16.481182,146.48837
2518000000,-16.599508,11.246764,-36.429684,-20.515732,-32.864494,-24.578497,-31.791519,-23.477154,-36.350033,-20.284403,-12.387981,-179.33493,-43.670906,-2.7547593,-44.737579,130.70059,-32.839352,-24.986515,-43.648346,-2.3319798,-14.295531,8.2817335,-35.456383,-25.737934,-31.855385,-23.632792,-44.744728,131.30252,-35.526207,-25.743011,-16.487041,146.05832
2518500000,-16.627508,11.354777,-36.52356,-21.093384,-32.910332,-25.531866,-31.789499,-24.827251,-36.436192,-20.979971,-12.356767,-179.44682,-43.984619,-4.1889658,-44.792381,126.7644,-32.88538,-25.942127,-43.948689,-3.7224417,-14.260328,7.8910851,-35.45356,-27.290104,-31.851004,-24.967758,-44.790859,127.30106,-35.519844,-27.3225,-16.489487,145.61314
2519000000,-16.645439,11.514342,-36.609146,-21.650925,-32.946377,-26.488323,-31.791353,-26.113752,-36.51881,-21.633543,-12.324096,-179.55971,-44.348995,-5.4083319,-44.830944,122.65173,-32.926731,-26.911701,-44.316261,-4.8936081,-14.224319,7.5251679,-35.450531,-28.874277,-31.851925,-26.262756,-44.827263,123.17957,-35.520313,-28.92631,-16.48877,145.1606
2519500000,-16.651041,11.715604,-36.68618,-22.239714,-32.979496,-27.456572,-31.793482,-27.357071,-36.600163,-22.316898,-12.291202,-179.68716,-44.781826,-6.0782423,-44.880444,118.37636,-32.959934,-27.881067,-44.734707,-5.4903946,-14.184463,7.1796932,-35.452682,-30.483252,-31.853474,-27.501551,-44.860981,118.90122,-35.524334,-30.553926,-16.484848,144.69647
2520000000,-16.64625,11.923574,-36.763885,-22.858398,-33.016624,-28.43955,-31.78767,-28.583559,-36.685329,-23.018051,-12.259676,-179.83405,-45.233437,-6.1118984,-44.951111,114.0393,-32.999699,-28.869944,-45.168152,-5.477788,-14.142177,6.8442841,-35.458778,-32.152687,-31.849375,-28.733315,-44.930939,114.41467,-35.534344,-32.259315,-16.480398,144.21767
2520500000,-16.629721,12.129388,-36.850159,-23.470852,-33.053253,-29.391613,-31.778986,-29.863127,-36.78054,-23.685257,-12.226894,-179.97726,-45.662663,-5.4765539,-45.066662,109.72323,-33.039394,-29.828815,-45.583847,-4.8462477,-14.096458,6.5065255,-35.485695,-33.821472,-31.839151,-29.997471,-45.036659,110.1302,-35.563332,-33.961941,-16.474808,143.72092
2521000000,-16.605797,12.307333,-36.94191,-24.017998,-33.089581,-30.316809,-31.775419,-31.175528,-36.877232,-24.257788,-12.197626,179.8475,-46.069138,-4.3536468,-45.193035,105.6775,-33.076878,-30.727219,-45.987301,-3.7751381,-14.047425,6.1560769,-35.522762,-35.426548,-31.832346,-31.32794,-45.159782,106.06937,-35.60342,-35.604572,-16.468927,143.21143
2521500000,-16.570698,12.464686,-37.033039,-24.441109,-33.113556,-31.199482,-31.773655,-32.506557,-36.975712,-24.732264,-12.168051,179.66959,-46.441967,-2.7730932,-45.336555,101.96964,-33.102718,-31.604719,-46.352425,-2.2807205,-13.997516,5.7759724,-35.559032,-37.0424,-31.830978,-32.65501,-45.293911,102.30227,-35.643494,-37.213879,-16.464527,142.67937
2522000000,-16.529037,12.593644,-37.125,-24.703215,-33.125912,-32.105438,-31.772676,-33.869446,-37.068947,-25.016212,-12.138764,179.4791,-46.769112,-0.70824581,-45.447392,98.596367,-33.116642,-32.495914,-46.675793,-0.20146014,-13.947171,5.3825283,-35.608219,-38.646675,-31.832239,-34.032936,-45.404652,98.837944,-35.698254,-38.834808,-16.462749,142.12651
2522500000,-16.480202,12.697317,-37.17783,-24.82929,-33.132362,-33.060017,-31.776884,-35.270081,-37.123371,-25.170578,-12.112111,179.27426,-47.002228,1.7258701,-45.532707,95.446671,-33.123066,-33.443615,-46.900837,2.214941,-13.900314,4.9664688,-35.661648,-40.229752,-31.837139,-35.430328,-45.490528,95.576256,-35.758133,-40.432392,-16.462931,141.56543
2523000000,-16.423054,12.765761,-37.201595,-25.060511,-33.132198,-34.063156,-31.788593,-36.722179,-37.155285,-25.432947,-12.087505,179.0587,-47.162041,4.1909685,-45.567638,92.459854,-33.12421,-34.440224,-47.056133,4.613513,-13.85463,4.5469184,-35.723831,-41.804535,-31.849672,-36.902542,-45.53838,92.50515,-35.824471,-41.989609,-16.464943,141.00105
2523500000,-16.360016,12.807541,-37.217552,-25.350325,-33.129383,-35.147141,-31.811541,-38.220406,-37.171963,-25.743111,-12.063647,178.84862,-47.265896,6.7166176,-45.55965,89.311447,-33.119045,-35.527866,-47.166965,7.0963144,-13.810444,4.1239758,-35.801167,-43.347816,-31.873936,-38.401173,-45.533901,89.37751,-35.906338,-43.518684,-16.470575,140.45027
2524000000,-16.293095,12.82422,-37.222927,-25.678478,-33.124641,-36.30912,-31.851107,-39.697029,-37.179569,-26.049131,-12.04404,178.62651,-47.299149,9.2534819,-45.533073,86.08445,-33.113647,-36.692158,-47.193218,9.7059917,-13.769404,3.6963418,-35.890343,-44.809608,-31.914202,-39.894798,-45.514297,86.167015,-35.998985,-44.980637,-16.478544,139.88785
2524500000,-16.223881,12.792683,-37.213417,-26.001514,-33.120384,-37.573097,-31.901501,-41.141987,-37.17091,-26.4242,-12.024858,178.40533,-47.270844,11.630397,-45.525433,82.765457,-33.112221,-37.962189,-47.154583,12.09835,-13.727552,3.2751226,-35.986336,-46.186977,-31.964083,-41.337666,-45.499577,82.898956,-36.094528,-46.351414,-16.489817,139.35002
2525000000,-16.142467,12.733727,-37.179585,-26.473099,-33.118324,-38.929268,-31.956516,-42.572483,-37.142239,-26.907301,-12.00733,178.17639,-47.197498,13.518883,-45.502056,79.706085,-33.114277,-39.335941,-47.067047,14.039487,-13.685574,2.858886,-36.086281,-47.502918,-32.02018,-42.778542,-45.467937,79.762596,-36.196594,-47.599365,-16.50342,138.81641
2525500000,-16.060066,12.597047,-37.150871,-27.13759,-33.126476,-40.407036,-32.023106,-44.018394,-37.114231,-27.552982,-11.993056,177.95476,-47.178402,15.592731,-45.458607,76.511551,-33.121571,-40.80204,-47.034729,16.038927,-13.642245,2.4272621,-36.190479,-48.683094,-32.088352,-44.244343,-45.42968,76.676521,-36.301048,-48.753628,-16.519081,138.30003
2526000000,-15.975305,12.386057,-37.126022,-27.856724,-33.153179,-42.015697,-32.105797,-45.441471,-37.088753,-28.301102,-11.981523,177.72142,-47.083969,17.446815,-45.431019,73.371803,-33.151142,-42.433914,-46.927658,17.885778,-13.604179,1.9809363,-36.290821,-49.733372,-32.17403,-45.670059,-45.384804,73.455696,-36.397148,-49.797264,-16.536209,137.80817
2526500000,-15.887424,12.106208,-37.10387,-28.7253,-33.198627,-43.684731,-32.207561,-46.80854,-37.069057,-29.195374,-11.971709,177.49313,-47.01041,19.318949,-45.411289,70.311531,-33.200123,-44.093876,-46.842609,19.620232,-13.569505,1.5425818,-36.376255,-50.688492,-32.27726,-47.02219,-45.365982,70.324883,-36.480072,-50.742939,-16.555735,137.32242
2527000000,-15.799543,11.743288,-37.102985,-29.67358,-33.270912,-45.359016,-32.329292,-48.058647,-37.067173,-30.194326,-11.964624,177.2666,-46.937439,21.240406,-45.4067,67.485466,-33.274517,-45.777618,-46.757053,21.420055,-13.536755,1.1149718,-36.447319,-51.607811,-32.400249,-48.266777,-45.354862,67.472969,-36.547939,-51.667969,-16.574224,136.87134
