!CSV A.01.01
!Keysight Technologies,N5222B,MY58422327,A.13.60.06
!Date: Monday, March 28, 2022 16:19:03
!Source: Standard

BEGIN CH1_DATA
Freq(Hz),S11(DB),S11(DEG),S12(DB),S12(DEG),S13(DB),S13(DEG),S14(DB),S14(DEG),S21(DB),S21(DEG),S22(DB),S22(DEG),S23(DB),S23(DEG),S24(DB),S24(DEG),S31(DB),S31(DEG),S32(DB),S32(DEG),S33(DB),S33(DEG),S34(DB),S34(DEG),S41(DB),S41(DEG),S42(DB),S42(DEG),S43(DB),S43(DEG),S44(DB),S44(DEG)
2500000000,-17.054899,22.584496,-34.648022,33.624447,-32.081833,0.44088131,-31.864019,7.6255937,-34.696907,33.597176,-13.452237,-174.12747,-39.247135,8.7595406,-38.957817,-103.67446,-32.056572,0.26620203,-39.15881,8.7970448,-15.626592,25.015537,-35.018227,-0.74423736,-31.911806,7.5149117,-38.983639,-103.76426,-35.091805,-0.8203814,-16.304684,164.78519
2500500000,-17.039429,22.233797,-34.735229,32.406612,-32.033333,-0.31496683,-31.930325,6.4442873,-34.787163,32.376972,-13.410479,-174.24632,-39.336269,7.0949478,-38.861317,-105.63652,-32.011139,-0.51988524,-39.250137,7.1359525,-15.570985,24.486462,-35.030991,-1.507073,-31.978312,6.3363152,-38.886124,-105.7117,-35.103291,-1.5711459,-16.296471,164.41006
2501000000,-17.019836,21.892832,-34.833736,31.216827,-31.991922,-1.0818599,-32.004299,5.3559995,-34.882023,31.20109,-13.366838,-174.34842,-39.435478,5.3519826,-38.771992,-107.66445,-31.969177,-1.2874061,-39.351803,5.3907824,-15.514657,23.948471,-35.046665,-2.3168325,-32.052227,5.2420292,-38.796425,-107.73097,-35.11882,-2.4083037,-16.287374,164.03305
2501500000,-16.996311,21.56439,-34.91713,30.139797,-31.955498,-1.7885039,-32.081928,4.3956795,-34.963234,30.129362,-13.325597,-174.46283,-39.555855,3.6179662,-38.700462,-109.69338,-31.933748,-1.9953655,-39.47995,3.6881924,-15.460041,23.396639,-35.071056,-3.1039188,-32.130203,4.254745,-38.721359,-109.74397,-35.140759,-3.2283652,-16.274551,163.65933
2502000000,-16.972219,21.199289,-34.994358,29.046791,-31.91493,-2.4545698,-32.151566,3.5124388,-35.037521,29.053856,-13.285297,-174.5768,-39.697258,1.9533598,-38.62841,-111.68196,-31.900183,-2.6669712,-39.621689,1.9923308,-15.408529,22.842747,-35.095757,-3.9239583,-32.200867,3.3631907,-38.647751,-111.73599,-35.166096,-4.0744061,-16.260012,163.27319
2502500000,-16.94566,20.814331,-35.069614,27.99114,-31.871666,-3.1375372,-32.215027,2.6770873,-35.110146,27.991514,-13.244301,-174.68988,-39.847847,0.30032605,-38.559376,-113.59592,-31.860876,-3.3556914,-39.772907,0.3666614,-15.360674,22.289307,-35.138054,-4.710485,-32.265198,2.5203838,-38.571999,-113.63379,-35.211334,-4.8660254,-16.243986,162.86464
2503000000,-16.917805,20.40575,-35.133919,26.944571,-31.829439,-3.8351145,-32.268536,1.8987492,-35.172638,26.937685,-13.207041,-174.82582,-40.010281,-1.3474753,-38.478931,-115.52695,-31.821337,-4.0076046,-39.932449,-1.217025,-15.315781,21.746078,-35.183887,-5.3750143,-32.318947,1.7428759,-38.491528,-115.57642,-35.257904,-5.5537376,-16.22633,162.45137
2503500000,-16.896141,19.966795,-35.18959,25.837387,-31.78705,-4.4853306,-32.313202,1.1490202,-35.227608,25.824291,-13.170008,-174.95786,-40.174881,-2.984483,-38.388233,-117.38767,-31.782677,-4.640626,-40.094929,-2.7953603,-15.274975,21.219854,-35.221104,-5.8775072,-32.366829,0.97197437,-38.401012,-117.47053,-35.299316,-6.0625706,-16.20734,162.02722
2504000000,-16.874905,19.532135,-35.250759,24.733416,-31.738594,-5.0908132,-32.349861,0.36754203,-35.286442,24.704826,-13.133502,-175.08548,-40.351341,-4.6466665,-38.278206,-119.27334,-31.735424,-5.2205186,-40.265762,-4.4801822,-15.235831,20.721485,-35.235142,-6.3366222,-32.407207,0.18958034,-38.292759,-119.36672,-35.318359,-6.5360546,-16.186283,161.56563
2504500000,-16.853352,19.107613,-35.307194,23.638193,-31.674538,-5.6890202,-32.386787,-0.4189508,-35.340828,23.5835,-13.099682,-175.22591,-40.538616,-6.4191966,-38.143787,-121.25489,-31.671618,-5.7883348,-40.448051,-6.2432332,-15.195443,20.249846,-35.231216,-6.7642331,-32.445274,-0.58443797,-38.16132,-121.35458,-35.318466,-6.995286,-16.161997,161.0963
2505000000,-16.82921,18.699425,-35.363113,22.445856,-31.601555,-6.35289,-32.417526,-1.1771288,-35.397778,22.393501,-13.068892,-175.3719,-40.758369,-8.2142115,-37.98851,-123.42066,-31.598921,-6.4273729,-40.663193,-8.0654573,-15.154221,19.784576,-35.214127,-7.2162256,-32.475842,-1.3366768,-38.007793,-123.53216,-35.309109,-7.4408903,-16.138266,160.57742
2505500000,-16.802805,18.286537,-35.421017,21.304455,-31.521538,-7.0775695,-32.448547,-1.9561777,-35.457611,21.23662,-13.038742,-175.49892,-41.008301,-10.045739,-37.828594,-125.88382,-31.513472,-7.1403255,-40.913868,-9.9422598,-15.111016,19.328299,-35.171276,-7.6914582,-32.504787,-2.1192102,-37.848423,-125.96571,-35.271805,-7.9096699,-16.112883,160.02791
2506000000,-16.775545,17.869366,-35.477634,20.087677,-31.435583,-7.8865542,-32.480316,-2.712431,-35.515327,20.016905,-13.010465,-175.62512,-41.28941,-11.898602,-37.67527,-128.58182,-31.423483,-7.948175,-41.202057,-11.798917,-15.067501,18.882597,-35.115284,-8.2873983,-32.536251,-2.8832057,-37.692616,-128.64839,-35.220875,-8.4791603,-16.088112,159.42404
2506500000,-16.747004,17.451159,-35.545956,18.799887,-31.352024,-8.7966471,-32.506783,-3.4318299,-35.589401,18.739031,-12.983491,-175.75433,-41.618401,-13.73383,-37.539043,-131.54448,-31.336267,-8.8491526,-41.530602,-13.594364,-15.022906,18.438503,-35.049038,-8.9901705,-32.563389,-3.5934343,-37.555683,-131.60449,-35.159794,-9.1462812,-16.065809,158.78198
2507000000,-16.719233,17.028286,-35.631279,17.566807,-31.266926,-9.7695074,-32.520645,-4.1248617,-35.672939,17.496595,-12.955223,-175.85899,-42.010345,-15.460885,-37.432957,-134.69104,-31.248899,-9.8191938,-41.924427,-15.302915,-14.977181,18.000322,-34.981983,-9.8250427,-32.577461,-4.3057065,-37.448421,-134.77142,-35.093681,-9.9462128,-16.04949,158.09814
2507500000,-16.686045,16.614836,-35.724934,16.404247,-31.187117,-10.83548,-32.527294,-4.8904648,-35.767311,16.301867,-12.927888,-175.97115,-42.464664,-16.860279,-37.360134,-137.96846,-31.165697,-10.890044,-42.371899,-16.64954,-14.929734,17.56955,-34.917908,-10.793611,-32.583912,-5.0806575,-37.376297,-138.05101,-35.029057,-10.863757,-16.038595,157.39265
2508000000,-16.657068,16.178032,-35.819618,15.304721,-31.11573,-11.979494,-32.536026,-5.7276225,-35.865685,15.200842,-12.898973,-176.07225,-42.954002,-17.821014,-37.321865,-141.31509,-31.092575,-12.048236,-42.872322,-17.617756,-14.883317,17.142689,-34.865917,-11.840393,-32.595787,-5.9170642,-37.339443,-141.4028,-34.975792,-11.893741,-16.033878,156.67697
2508500000,-16.62936,15.729639,-35.909538,14.239197,-31.055311,-13.17278,-32.55764,-6.5686722,-35.955395,14.142561,-12.868542,-176.16295,-43.469524,-18.357555,-37.314411,-144.6777,-31.032354,-13.24975,-43.387794,-18.076756,-14.832933,16.729074,-34.832832,-12.937929,-32.616829,-6.7494626,-37.334232,-144.78975,-34.940369,-12.976627,-16.035303,155.95746
2509000000,-16.608526,15.256116,-36.000134,13.18757,-31.004499,-14.393697,-32.581367,-7.3555708,-36.047146,13.091078,-12.839911,-176.27548,-44.011475,-18.369946,-37.342728,-148.01837,-30.980234,-14.466865,-43.920929,-18.020164,-14.782109,16.316664,-34.810307,-13.99867,-32.642559,-7.5310283,-37.365475,-148.12361,-34.918495,-14.016665,-16.039886,155.25255
2509500000,-16.591682,14.791134,-36.093025,12.152968,-30.962606,-15.633828,-32.608627,-8.06217,-36.140354,12.048279,-12.808995,-176.38629,-44.539738,-17.749697,-37.389175,-151.27423,-30.937778,-15.702028,-44.438583,-17.353949,-14.727936,15.904449,-34.798668,-14.968109,-32.670639,-8.2460899,-37.414925,-151.39276,-34.902935,-14.988842,-16.048113,154.55463
2510000000,-16.583984,14.320326,-36.194004,11.101423,-30.925966,-16.88644,-32.628204,-8.6758528,-36.239529,11.006855,-12.7769,-176.48846,-45.035408,-16.631762,-37.453442,-154.47028,-30.900879,-16.962904,-44.940548,-16.182381,-14.671527,15.488023,-34.782146,-15.868613,-32.692921,-8.8664293,-37.481987,-154.59209,-34.885555,-15.893483,-16.060314,153.85538
2510500000,-16.587448,13.850283,-36.307472,10.139932,-30.898687,-18.177464,-32.634106,-9.2237425,-36.352879,10.026591,-12.746987,-176.60638,-45.517151,-14.89504,-37.527142,-157.65205,-30.871704,-18.256094,-45.405117,-14.481922,-14.614897,15.051723,-34.753448,-16.694733,-32.701244,-9.4160767,-37.557735,-157.75629,-34.857315,-16.736252,-16.073906,153.1972
2511000000,-16.594744,13.421024,-36.424515,9.3245525,-30.883913,-19.501471,-32.622353,-9.7763453,-36.475067,9.2027626,-12.717071,-176.71869,-45.919868,-12.454368,-37.617516,-160.83994,-30.855074,-19.574917,-45.809361,-12.008722,-14.556869,14.599354,-34.711136,-17.534035,-32.691891,-9.9544783,-37.652176,-160.87659,-34.815784,-17.58213,-16.091026,152.5406
2511500000,-16.604763,13.026352,-36.528324,8.6512384,-30.884163,-20.808355,-32.596817,-10.337551,-36.577507,8.5111256,-12.686163,-176.81378,-46.199333,-9.5454245,-37.729172,-164.01682,-30.853317,-20.888977,-46.079319,-9.1969652,-14.500427,14.12881,-34.655685,-18.445904,-32.667637,-10.517409,-37.76329,-164.02568,-34.760128,-18.479383,-16.110737,151.90593
2512000000,-16.617481,12.658631,-36.621849,8.0131931,-30.892384,-22.050436,-32.555908,-10.945188,-36.673065,7.8978119,-12.654335,-176.92035,-46.355549,-6.6133513,-37.862778,-167.11679,-30.860222,-22.145369,-46.224129,-6.2520752,-14.44993,13.634112,-34.599365,-19.458656,-32.62989,-11.105379,-37.895264,-167.10741,-34.702595,-19.479837,-16.132984,151.29642
2512500000,-16.629137,12.313638,-36.699928,7.3879595,-30.912989,-23.280298,-32.504101,-11.596828,-36.756489,7.2954669,-12.622581,-177.02747,-46.405582,-3.5150182,-38.011677,-170.10286,-30.883038,-23.376869,-46.26815,-3.1760049,-14.399494,13.150573,-34.54055,-20.475828,-32.579231,-11.730617,-38.045712,-170.12596,-34.645218,-20.488947,-16.154133,150.72121
2513000000,-16.639677,11.978319,-36.765823,6.8007545,-30.937174,-24.405182,-32.435844,-12.309518,-36.825287,6.7568417,-12.589372,-177.12846,-46.286221,-0.76338238,-38.182171,-173.06645,-30.910692,-24.507673,-46.139126,-0.45189312,-14.352464,12.663984,-34.478859,-21.567896,-32.512932,-12.425449,-38.214058,-173.06467,-34.585369,-21.552334,-16.176123,150.16232
2513500000,-16.651209,11.6516,-36.819683,6.1931629,-30.958914,-25.468807,-32.359734,-13.154412,-36.879845,6.1756644,-12.556712,-177.23741,-46.037373,1.1156871,-38.371262,-175.8806,-30.933521,-25.573435,-45.890053,1.3935159,-14.30854,12.178957,-34.423687,-22.700365,-32.433762,-13.254601,-38.397434,-175.8532,-34.524002,-22.692924,-16.197796,149.62198
2514000000,-16.66655,11.316113,-36.862976,5.564651,-30.974386,-26.535482,-32.278667,-14.140404,-36.922531,5.6034007,-12.522583,-177.34926,-45.748791,2.008446,-38.563255,-178.515,-30.952803,-26.610588,-45.603809,2.2221591,-14.264956,11.704502,-34.368351,-23.870033,-32.353226,-14.221018,-38.58535,-178.48938,-34.463963,-23.867634,-16.220661,149.08688
2514500000,-16.682213,11.005704,-36.90218,4.8783145,-30.990952,-27.617859,-32.202148,-15.260501,-36.952396,4.9420476,-12.4888,-177.4733,-45.489269,1.9529405,-38.752514,178.96376,-30.968472,-27.666388,-45.343483,2.0389161,-14.223312,11.230794,-34.311432,-25.107092,-32.274616,-15.319578,-38.773117,178.97424,-34.40345,-25.104591,-16.242519,148.58568
2515000000,-16.700226,10.712046,-36.939613,4.1870885,-31.015118,-28.695538,-32.135548,-16.484411,-36.984367,4.2629876,-12.456194,-177.60127,-45.301216,1.2099731,-38.937714,176.5446,-30.991764,-28.726843,-45.152451,1.2696017,-14.181561,10.768473,-34.260094,-26.3869,-32.204567,-16.534721,-38.960739,176.56161,-34.347515,-26.40003,-16.262676,148.10524
2515500000,-16.725151,10.434039,-36.967258,3.4162364,-31.043257,-29.752943,-32.080868,-17.772387,-37.012234,3.5029948,-12.424511,-177.73174,-45.174919,0.099524498,-39.109554,174.20944,-31.019754,-29.768465,-45.038074,0.15790991,-14.139687,10.307832,-34.213039,-27.671165,-32.149197,-17.816874,-39.127602,174.20872,-34.298508,-27.712496,-16.280272,147.65198
2516000000,-16.756069,10.187565,-37.00013,2.5485561,-31.079348,-30.760191,-32.038647,-19.12858,-37.042938,2.6253595,-12.391009,-177.85193,-45.135418,-1.3364569,-39.277489,171.80499,-31.05117,-30.750534,-44.99202,-1.3268625,-14.09812,9.8455791,-34.162762,-29.006817,-32.102852,-19.155449,-39.294949,171.80444,-34.246056,-29.078968,-16.296331,147.18744
2516500000,-16.792711,10.015389,-37.054962,1.671453,-31.118082,-31.691504,-32.008797,-20.484028,-37.095901,1.7353507,-12.358323,-177.98155,-45.17482,-2.9468553,-39.456997,169.43123,-31.085226,-31.674221,-45.033798,-2.8938136,-14.05748,9.3736839,-34.119335,-30.425129,-32.070934,-20.526108,-39.469982,169.41489,-34.204071,-30.520315,-16.308741,146.7728
2517000000,-16.830759,9.9056883,-37.109356,0.94812536,-31.146597,-32.572124,-31.988298,-21.833578,-37.151909,1.0145622,-12.32686,-178.12895,-45.287666,-4.529274,-39.637379,167.1729,-31.107964,-32.557663,-45.133076,-4.5888672,-14.020083,8.9053984,-34.0891,-31.848494,-32.049385,-21.877333,-39.653973,167.13959,-34.175758,-31.97241,-16.318213,146.35291
2517500000,-16.873793,9.8721523,-37.167572,0.21240166,-31.181108,-33.374866,-31.971561,-23.208647,-37.211224,0.28050542,-12.294207,-178.26445,-45.521194,-6.0758076,-39.813301,164.94878,-31.136049,-33.371422,-45.382866,-6.1912079,-13.984839,8.4572525,-34.061066,-33.277027,-32.030289,-23.238668,-39.834702,164.91849,-34.151421,-33.425842,-16.324505,145.93092
2518000000,-16.913181,9.91996,-37.208729,-0.4201479,-31.194124,-34.124447,-31.964737,-24.596792,-37.251209,-0.36986354,-12.262198,-178.40993,-45.821934,-7.1329637,-39.981926,162.77831,-31.14562,-34.141888,-45.697735,-7.2933855,-13.951393,8.0314245,-34.037842,-34.722527,-32.020084,-24.632223,-40.006317,162.77611,-34.130238,-34.873787,-16.327114,145.517
2518500000,-16.948502,10.051362,-37.239822,-1.1671691,-31.195202,-34.896511,-31.968658,-25.984982,-37.281647,-1.086993,-12.229686,-178.55391,-46.156216,-7.661128,-40.142757,160.57361,-31.144152,-34.929077,-46.027763,-7.8174419,-13.918278,7.6313229,-34.021145,-36.152416,-32.02235,-26.023886,-40.159473,160.54375,-34.115639,-36.312141,-16.325243,145.08205
2519000000,-16.975483,10.247739,-37.271065,-1.9365728,-31.184063,-35.722385,-31.981941,-27.329985,-37.313744,-1.8366622,-12.19591,-178.69817,-46.51886,-7.9769497,-40.306767,158.27565,-31.13394,-35.780666,-46.380642,-8.1153374,-13.884283,7.2537522,-34.003136,-37.615768,-32.031742,-27.374844,-40.324123,158.23955,-34.099113,-37.770248,-16.318712,144.62946
2519500000,-16.989965,10.491662,-37.297764,-2.7717938,-31.170803,-36.612995,-31.998915,-28.621546,-37.339066,-2.6739819,-12.162501,-178.85707,-46.93364,-7.7189393,-40.485722,155.96782,-31.117725,-36.69582,-46.800911,-7.8848138,-13.846187,6.8946004,-33.987328,-39.094372,-32.049171,-28.692108,-40.502464,155.94087,-34.08419,-39.247826,-16.30921,144.16234
2520000000,-16.994143,10.749786,-37.335407,-3.6834409,-31.159937,-37.554363,-32.011837,-29.87171,-37.37624,-3.5791678,-12.130892,-179.03389,-47.341492,-6.7414889,-40.686195,153.67239,-31.107264,-37.670677,-47.207958,-7.0040989,-13.80621,6.5471916,-33.978294,-40.637856,-32.061577,-29.956554,-40.703949,153.65489,-34.074512,-40.812794,-16.298527,143.66576
2520500000,-16.986935,11.014543,-37.390285,-4.6157022,-31.151884,-38.536968,-32.024384,-31.153078,-37.429817,-4.504652,-12.098016,-179.20377,-47.700134,-5.1724253,-40.903374,151.54132,-31.103107,-38.645737,-47.593021,-5.5330882,-13.763107,6.1958766,-33.984287,-42.211998,-32.072025,-31.242378,-40.921852,151.57114,-34.081177,-42.378029,-16.286879,143.14267
2521000000,-16.971834,11.265076,-37.463966,-5.4660225,-31.146414,-39.489735,-32.040672,-32.422676,-37.50071,-5.3827705,-12.069003,-179.4025,-48.013264,-3.3924932,-41.125057,149.56854,-31.099955,-39.617466,-47.923294,-3.6458602,-13.716571,5.8357797,-34.001732,-43.738258,-32.089344,-32.541428,-41.135361,149.6434,-34.098785,-43.909302,-16.27508,142.59819
2521500000,-16.94558,11.502726,-37.54673,-6.2463322,-31.133703,-40.429531,-32.058033,-33.684566,-37.58564,-6.1346879,-12.039283,-179.60323,-48.287579,-1.2208221,-41.337215,147.81844,-31.090914,-40.568153,-48.196781,-1.4062529,-13.669374,5.4448576,-34.01836,-45.232368,-32.104984,-33.80209,-41.34396,147.91179,-34.11623,-45.401161,-16.265467,142.02316
2522000000,-16.911671,11.728212,-37.633339,-6.8301349,-31.116796,-41.407284,-32.070198,-34.940834,-37.673733,-6.6936083,-12.010472,-179.81117,-48.512085,1.3191592,-41.526756,146.24129,-31.07675,-41.540768,-48.439137,1.1558784,-13.62196,5.0460124,-34.039143,-46.718739,-32.118954,-35.093437,-41.522316,146.31476,-34.136368,-46.908226,-16.259129,141.41583
2522500000,-16.868189,11.944098,-37.694923,-7.3426266,-31.09601,-42.411865,-32.082531,-36.246689,-37.737141,-7.1475134,-11.983753,179.96968,-48.649574,4.0642862,-41.685863,144.75447,-31.058416,-42.534466,-48.568741,4.016345,-13.576884,4.632071,-34.063015,-48.216503,-32.132771,-36.416161,-41.677139,144.80309,-34.1646,-48.401226,-16.256561,140.79353
2523000000,-16.813181,12.130005,-37.753689,-7.8880849,-31.067682,-43.44812,-32.098927,-37.610371,-37.786037,-7.6371922,-11.95925,179.73889,-48.717445,6.7981272,-41.806511,143.20764,-31.031822,-43.566002,-48.632473,6.7506461,-13.532103,4.2132034,-34.091373,-49.71978,-32.14819,-37.804741,-41.78746,143.24123,-34.192753,-49.907604,-16.257099,140.16344
2523500000,-16.750004,12.284883,-37.813107,-8.3385649,-31.035612,-44.559601,-32.123299,-39.027782,-37.837734,-8.0773182,-11.93583,179.521,-48.724773,9.443222,-41.898327,141.49287,-30.999098,-44.669739,-48.644493,9.5280523,-13.488214,3.7923372,-34.130665,-51.234177,-32.177521,-39.224796,-41.87891,141.50677,-34.233471,-51.411251,-16.262903,139.54192
2524000000,-16.680508,12.408542,-37.862377,-8.7335949,-31.001286,-45.739998,-32.160568,-40.462578,-37.886337,-8.4858313,-11.91574,179.29021,-48.675064,12.00842,-41.994793,139.62866,-30.963993,-45.856018,-48.570374,12.133484,-13.446368,3.3638062,-34.178364,-52.723995,-32.217785,-40.667686,-41.971821,139.60605,-34.28064,-52.885445,-16.272619,138.90897
2524500000,-16.606258,12.480608,-37.895405,-9.0572386,-30.966482,-47.03096,-32.210365,-41.88147,-37.912445,-8.8271227,-11.895708,179.05966,-48.581509,14.460118,-42.100277,137.69235,-30.930292,-47.132381,-48.473408,14.454847,-13.403597,2.9372056,-34.235008,-54.163849,-32.270401,-42.084064,-42.067822,137.64558,-34.3386,-54.322197,-16.287964,138.30276
2525000000,-16.518278,12.518092,-37.909336,-9.4193888,-30.935247,-48.41045,-32.266609,-43.307594,-37.921017,-9.2336359,-11.877504,178.82207,-48.468037,16.390282,-42.194618,135.72984,-30.896843,-48.534912,-48.357536,16.337461,-13.360875,2.5087886,-34.298744,-55.552639,-32.329994,-43.515862,-42.156895,135.64838,-34.4006,-55.716732,-16.307589,137.70976
2525500000,-16.427622,12.462783,-37.917297,-9.842927,-30.908743,-49.885983,-32.340752,-44.75349,-37.929787,-9.724411,-11.861378,178.59285,-48.373459,18.614563,-42.296505,133.70169,-30.871391,-50.022453,-48.279408,18.55644,-13.316257,2.0603638,-34.366219,-56.845325,-32.406593,-44.950996,-42.25251,133.5625,-34.468056,-57.000568,-16.330154,137.14461
2526000000,-16.334148,12.317333,-37.91077,-10.282435,-30.895147,-51.51292,-32.435116,-46.151806,-37.931248,-10.208004,-11.84759,178.35272,-48.213451,20.481487,-42.403381,131.65315,-30.85961,-51.666634,-48.101246,20.566216,-13.277367,1.5947689,-34.43483,-58.061951,-32.503716,-46.351746,-42.360291,131.42467,-34.534138,-58.219456,-16.354986,136.61855
2526500000,-16.235825,12.090037,-37.905704,-10.840714,-30.898941,-53.214485,-32.550137,-47.481419,-37.93243,-10.793766,-11.835788,178.11537,-48.091805,22.208546,-42.506924,129.64876,-30.867607,-53.374592,-47.95816,22.226183,-13.241388,1.1346149,-34.493942,-59.207844,-32.618481,-47.666126,-42.47448,129.40152,-34.588852,-59.383549,-16.380655,136.10049
2527000000,-16.139023,11.769139,-37.909752,-11.450663,-30.926317,-54.968407,-32.68441,-48.669765,-37.942883,-11.421465,-11.826748,177.87482,-47.973625,24.046492,-42.607536,127.6961,-30.897583,-55.136288,-47.852772,23.996473,-13.208387,0.68023753,-34.543686,-60.350166,-32.753994,-48.835182,-42.572639,127.39861,-34.639816,-60.534889,-16.406027,135.62393
