!CSV A.01.01
!Keysight Technologies,N5222B,MY58422327,A.13.60.06
!Date: Monday, March 28, 2022 16:15:21
!Source: Standard

BEGIN CH1_DATA
Freq(Hz),S11(DB),S11(DEG),S12(DB),S12(DEG),S13(DB),S13(DEG),S14(DB),S14(DEG),S21(DB),S21(DEG),S22(DB),S22(DEG),S23(DB),S23(DEG),S24(DB),S24(DEG),S31(DB),S31(DEG),S32(DB),S32(DEG),S33(DB),S33(DEG),S34(DB),S34(DEG),S41(DB),S41(DEG),S42(DB),S42(DEG),S43(DB),S43(DEG),S44(DB),S44(DEG)
2500000000,-17.057144,22.832821,-34.716515,32.881321,-31.892881,1.9081777,-31.776377,9.2962599,-34.816074,33.072697,-13.429726,-174.02409,-39.351669,9.015667,-38.734444,-107.42916,-31.817631,1.5079553,-39.277481,8.9147511,-15.661782,24.87956,-34.857319,-0.19210517,-31.80814,9.0056829,-38.783325,-107.15257,-34.941006,-0.097009189,-16.321587,165.10759
2500500000,-17.043518,22.49505,-34.801819,31.767223,-31.834045,1.0495636,-31.832441,8.1072636,-34.891464,31.992231,-13.387005,-174.15329,-39.429768,7.231369,-38.63858,-109.51858,-31.761774,0.64129424,-39.361012,7.1774864,-15.607076,24.365257,-34.860558,-0.97002691,-31.867634,7.8328762,-38.695076,-109.20393,-34.94223,-0.86636454,-16.311796,164.72209
2501000000,-17.025139,22.171713,-34.890713,30.686647,-31.78196,0.14508352,-31.895761,6.9919591,-34.972248,30.928911,-13.343181,-174.26411,-39.525723,5.3738294,-38.557079,-111.64737,-31.711992,-0.25930566,-39.465221,5.4098964,-15.551224,23.839912,-34.866562,-1.847316,-31.933502,6.7181339,-38.615875,-111.31373,-34.945316,-1.7381222,-16.3011,164.32866
2501500000,-17.001467,21.856457,-34.963654,29.703217,-31.737549,-0.72305006,-31.961628,6.0080295,-35.034473,29.929077,-13.301686,-174.3862,-39.643555,3.5346837,-38.498295,-113.76626,-31.670956,-1.1148894,-39.591095,3.6567745,-15.497952,23.303635,-34.882942,-2.7542703,-31.999733,5.736042,-38.553398,-113.40448,-34.955799,-2.6164391,-16.288181,163.93896
2502000000,-16.97686,21.505596,-35.027706,28.692385,-31.697485,-1.5424207,-32.01968,5.0786943,-35.092598,28.880196,-13.261255,-174.50789,-39.781406,1.7470437,-38.443851,-115.79829,-31.634628,-1.9484376,-39.730461,1.9235002,-15.445939,22.762897,-34.904282,-3.6887081,-32.057316,4.8171492,-38.501961,-115.39542,-34.974819,-3.5453658,-16.273659,163.53925
2502500000,-16.948391,21.135437,-35.088322,27.664524,-31.658741,-2.3757591,-32.072166,4.1941104,-35.154358,27.809584,-13.220551,-174.62834,-39.928471,-0.0072662835,-38.389946,-117.70173,-31.597563,-2.7876496,-39.882477,0.27079746,-15.398686,22.225206,-34.947163,-4.6014957,-32.108273,3.9589903,-38.445389,-117.27654,-35.009277,-4.4445639,-16.257984,163.11497
2503000000,-16.917988,20.745987,-35.141327,26.648479,-31.625647,-3.1955867,-32.113544,3.3482034,-35.199589,26.752899,-13.183146,-174.76825,-40.08746,-1.7551457,-38.32198,-119.57454,-31.566345,-3.5937464,-40.04092,-1.3917761,-15.353189,21.698822,-34.993473,-5.3562398,-32.15287,3.0886722,-38.378441,-119.15093,-35.054173,-5.2202635,-16.241283,162.68922
2503500000,-16.892866,20.321964,-35.185909,25.534595,-31.595154,-3.9543164,-32.152023,2.5006428,-35.244583,25.619532,-13.146771,-174.90143,-40.243713,-3.5317619,-38.241058,-121.39381,-31.536587,-4.3545847,-40.19783,-3.1024108,-15.311044,21.188072,-35.035515,-5.9457836,-32.191845,2.2493706,-38.298691,-120.96086,-35.09129,-5.8248916,-16.223125,162.24942
2504000000,-16.8654,19.892845,-35.232761,24.412197,-31.561102,-4.6386499,-32.183971,1.6515185,-35.291355,24.474806,-13.10994,-175.02911,-40.421276,-5.3746471,-38.141567,-123.2366,-31.50065,-5.0446463,-40.368877,-4.883215,-15.269684,20.701941,-35.058563,-6.4884229,-32.226261,1.3827229,-38.19318,-122.79702,-35.110565,-6.4018364,-16.204197,161.77643
2504500000,-16.839149,19.465506,-35.279129,23.282038,-31.512394,-5.2970638,-32.216091,0.81265557,-35.334557,23.323967,-13.075714,-175.16797,-40.613232,-7.3338432,-38.013718,-125.17311,-31.454739,-5.7112074,-40.555325,-6.7470651,-15.227264,20.23798,-35.063423,-6.9653907,-32.261822,0.5330593,-38.065842,-124.73646,-35.113403,-6.9321599,-16.182463,161.29704
2505000000,-16.808599,19.045221,-35.3237,22.074896,-31.457256,-5.9860754,-32.243301,0.0058854525,-35.380787,22.113871,-13.044032,-175.31236,-40.83567,-9.3189526,-37.861362,-127.26951,-31.402643,-6.3956361,-40.776192,-8.6564045,-15.184035,19.77714,-35.054173,-7.4153719,-32.290211,-0.2998839,-37.906113,-126.84785,-35.10376,-7.4352303,-16.16181,160.77229
2505500000,-16.777586,18.605471,-35.376408,20.867661,-31.391651,-6.697917,-32.269009,-0.83986515,-35.43082,20.893997,-13.01221,-175.44435,-41.094173,-11.391136,-37.702221,-129.65285,-31.337561,-7.132863,-41.02631,-10.682543,-15.139577,19.320431,-35.016762,-7.9364905,-32.317917,-1.1387186,-37.747913,-129.23067,-35.067768,-7.972003,-16.140072,160.22256
2506000000,-16.746763,18.155506,-35.435925,19.606667,-31.316628,-7.5108476,-32.292545,-1.6655871,-35.481789,19.594444,-12.982428,-175.58133,-41.393818,-13.51599,-37.541512,-132.28107,-31.264528,-7.9317265,-41.315342,-12.765276,-15.09448,18.870367,-34.960907,-8.5229731,-32.344185,-1.9600294,-37.587322,-131.86916,-35.016678,-8.5675011,-16.119249,159.62839
2506500000,-16.716185,17.704168,-35.506104,18.302082,-31.241997,-8.3820171,-32.311974,-2.4438548,-35.549782,18.270262,-12.954779,-175.72313,-41.748878,-15.65984,-37.398006,-135.19292,-31.192682,-8.8106613,-41.663441,-14.842454,-15.048777,18.422625,-34.895119,-9.2601471,-32.366219,-2.7389715,-37.444965,-134.77423,-34.952419,-9.3166809,-16.100655,159.00378
2507000000,-16.688105,17.245022,-35.588146,17.093262,-31.1637,-9.3297281,-32.318428,-3.2505674,-35.630051,16.984077,-12.92592,-175.84178,-42.168716,-17.672512,-37.282711,-138.33505,-31.116634,-9.752079,-42.085503,-16.886822,-15.003159,17.981249,-34.825352,-10.124726,-32.376625,-3.5280128,-37.33202,-137.90724,-34.886597,-10.18884,-16.08658,158.34337
2507500000,-16.656534,16.807085,-35.67466,15.934772,-31.088573,-10.365139,-32.317684,-4.1202984,-35.715538,15.777983,-12.899104,-175.96513,-42.664982,-19.474434,-37.198883,-141.61967,-31.044689,-10.77857,-42.575626,-18.587383,-14.955581,17.552786,-34.759338,-11.13985,-32.377869,-4.3732691,-37.251854,-141.19231,-34.818115,-11.198156,-16.077248,157.66435
2508000000,-16.629435,16.350868,-35.761852,14.824132,-31.022139,-11.489237,-32.323177,-5.0784202,-35.80373,14.60122,-12.870877,-176.07549,-43.225113,-20.868864,-37.152985,-145.03098,-30.97806,-11.884207,-43.131069,-19.857407,-14.908039,17.132498,-34.705929,-12.279633,-32.38258,-5.3099194,-37.208488,-144.5638,-34.765301,-12.347671,-16.074192,156.97458
2508500000,-16.60388,15.889409,-35.84663,13.764285,-30.964437,-12.658454,-32.341759,-6.0472274,-35.892265,13.47605,-12.841176,-176.17188,-43.8354,-21.780832,-37.144329,-148.45395,-30.924623,-13.032348,-43.733334,-20.628162,-14.856972,16.71851,-34.671528,-13.476176,-32.399002,-6.2736955,-37.198212,-147.9828,-34.73003,-13.554311,-16.076067,156.28246
2509000000,-16.585964,15.410592,-35.927925,12.669297,-30.917809,-13.860373,-32.36731,-6.9963994,-35.981449,12.360147,-12.813168,-176.28676,-44.500565,-22.031559,-37.175358,-151.83603,-30.876848,-14.201054,-44.379246,-20.744678,-14.8051,16.30533,-34.655094,-14.617801,-32.42614,-7.2148638,-37.223042,-151.38266,-34.71497,-14.744777,-16.0802,155.60881
2509500000,-16.571171,14.945608,-36.015972,11.578531,-30.879862,-15.06963,-32.399776,-7.8784499,-36.074673,11.265368,-12.782251,-176.39912,-45.173061,-21.516466,-37.226467,-155.12981,-30.838457,-15.376743,-45.032459,-20.086294,-14.750178,15.890427,-34.649906,-15.722172,-32.458729,-8.0961332,-37.276646,-154.69714,-34.711624,-15.856459,-16.086773,154.93959
2510000000,-16.565102,14.489005,-36.114437,10.504974,-30.846323,-16.295326,-32.434418,-8.6713781,-36.17757,10.178974,-12.750077,-176.50452,-45.850628,-20.166309,-37.296467,-158.38675,-30.800714,-16.572102,-45.683987,-18.651007,-14.693398,15.472969,-34.649944,-16.732426,-32.491966,-8.8718271,-37.343945,-157.94307,-34.71347,-16.902216,-16.097284,154.26501
2510500000,-16.5681,14.032855,-36.227829,9.4928532,-30.821882,-17.545212,-32.460777,-9.3742447,-36.287853,9.19769,-12.719687,-176.62616,-46.498779,-17.931093,-37.382507,-161.56183,-30.771902,-17.801668,-46.304989,-16.292688,-14.636024,15.038974,-34.643909,-17.667633,-32.516537,-9.575181,-37.429699,-161.15782,-34.709339,-17.852175,-16.108143,153.63095
2511000000,-16.574451,13.614997,-36.339321,8.6402636,-30.810379,-18.816132,-32.476028,-10.065237,-36.405468,8.3372612,-12.688763,-176.74089,-47.067528,-14.607912,-37.481022,-164.71881,-30.753839,-19.066641,-46.829674,-12.870873,-14.577322,14.58785,-34.622028,-18.555098,-32.531387,-10.242305,-37.528969,-164.36667,-34.694008,-18.776392,-16.121647,152.99232
2511500000,-16.582571,13.231455,-36.439014,7.912127,-30.810802,-20.067909,-32.481178,-10.715102,-36.507866,7.6039276,-12.656961,-176.84293,-47.459354,-10.460907,-37.59927,-167.87704,-30.751814,-20.327091,-47.181156,-8.756093,-14.519829,14.114755,-34.589535,-19.46394,-32.53516,-10.871273,-37.651928,-167.56638,-34.667358,-19.700876,-16.13822,152.3726
2512000000,-16.592894,12.871994,-36.522926,7.2587938,-30.816528,-21.241436,-32.474194,-11.356101,-36.595253,6.9577017,-12.624557,-176.95914,-47.672264,-5.987545,-37.741234,-170.95172,-30.754528,-21.515049,-47.341621,-4.4204469,-14.467916,13.618237,-34.556053,-20.468966,-32.527584,-11.498399,-37.799934,-170.65172,-34.642487,-20.703835,-16.157093,151.77264
2512500000,-16.601017,12.527539,-36.589863,6.5837264,-30.833349,-22.403152,-32.457985,-11.988305,-36.667004,6.3100057,-12.59229,-177.07939,-47.701126,-1.4164876,-37.898678,-173.91554,-30.768867,-22.677235,-47.322918,-0.033846557,-14.41631,13.131484,-34.518997,-21.437233,-32.509228,-12.133212,-37.964504,-173.64813,-34.611015,-21.671032,-16.175068,151.20444
2513000000,-16.60733,12.188704,-36.647034,5.9118252,-30.848312,-23.444931,-32.422863,-12.638692,-36.728928,5.6257439,-12.559211,-177.19629,-47.492611,2.5749085,-38.073761,-176.78236,-30.78319,-23.749395,-47.08643,3.6998167,-14.367913,12.632379,-34.475811,-22.460915,-32.472885,-12.764419,-38.148449,-176.52966,-34.57243,-22.682568,-16.19371,150.64748
2513500000,-16.614723,11.843568,-36.692162,5.1592073,-30.857758,-24.449244,-32.37133,-13.357051,-36.778233,4.9148688,-12.526918,-177.31943,-47.128441,5.3973265,-38.263382,-179.49574,-30.792763,-24.790155,-46.710407,6.1539421,-14.323044,12.136188,-34.432629,-23.518135,-32.419594,-13.484527,-38.343395,-179.237,-34.534439,-23.713928,-16.212568,150.1076
2514000000,-16.627546,11.489166,-36.73304,4.3678055,-30.85804,-25.451527,-32.313522,-14.192878,-36.82605,4.1504216,-12.494121,-177.44324,-46.728115,6.9713268,-38.451347,177.94972,-30.793747,-25.81801,-46.309204,7.3801217,-14.279053,11.645021,-34.389687,-24.619034,-32.359158,-14.30961,-38.53561,178.23305,-34.491581,-24.782248,-16.232969,149.56807
2514500000,-16.640392,11.150954,-36.777325,3.5175037,-30.856821,-26.505148,-32.253441,-15.125275,-36.876469,3.3251321,-12.461898,-177.57637,-46.358097,7.2891703,-38.633038,175.49355,-30.793962,-26.89316,-45.941986,7.4700985,-14.23845,11.159469,-34.342648,-25.754211,-32.294819,-15.232247,-38.720215,175.80305,-34.447502,-25.885952,-16.253178,149.06471
2515000000,-16.657059,10.828904,-36.825043,2.6505842,-30.858583,-27.575191,-32.191944,-16.159418,-36.928402,2.5317931,-12.430863,-177.70683,-46.059505,6.8742166,-38.806694,173.1554,-30.798544,-27.992376,-45.654083,6.8990364,-14.198284,10.683374,-34.297363,-26.938568,-32.232384,-16.288641,-38.89764,173.47961,-34.403488,-27.052168,-16.271776,148.58499
2515500000,-16.680809,10.52292,-36.870953,1.781469,-30.864223,-28.669077,-32.139042,-17.27688,-36.97934,1.709089,-12.400509,-177.83629,-45.837955,5.9144092,-38.966881,170.85075,-30.807747,-29.084469,-45.436962,5.9039426,-14.158913,10.21704,-34.255249,-28.134178,-32.174728,-17.417467,-39.05444,171.23683,-34.359329,-28.234112,-16.287573,148.13107
2516000000,-16.713097,10.244933,-36.925976,0.82626951,-30.875645,-29.750891,-32.090092,-18.467464,-37.03241,0.81065863,-12.367359,-177.96036,-45.704571,4.4671865,-39.119308,168.52263,-30.823805,-30.177074,-45.302959,4.3301268,-14.118664,9.7529421,-34.208229,-29.394341,-32.12352,-18.635733,-39.222195,168.87892,-34.311611,-29.464951,-16.301933,147.66646
2516500000,-16.750124,10.049327,-37.001225,-0.097742237,-30.893345,-30.800072,-32.050579,-19.712198,-37.105103,-0.035895869,-12.335376,-178.09106,-45.678371,2.8499074,-39.288036,166.17085,-30.845448,-31.214535,-45.271687,2.5841556,-14.079675,9.28374,-34.167221,-30.719893,-32.083187,-19.893541,-39.3908,166.56248,-34.270218,-30.779579,-16.312391,147.25362
2517000000,-16.789865,9.9210577,-37.07317,-0.83635551,-30.90847,-31.827204,-32.017979,-20.965803,-37.168915,-0.69126302,-12.304373,-178.23975,-45.730652,1.1634593,-39.457851,163.92915,-30.86006,-32.22543,-45.327835,0.79037637,-14.04343,8.8186932,-34.137024,-32.07526,-32.054935,-21.17181,-39.554043,164.35895,-34.23946,-32.108006,-16.320562,146.83586
2517500000,-16.834436,9.8684549,-37.143063,-1.5736911,-30.93074,-32.802551,-31.988104,-22.267727,-37.223495,-1.3951843,-12.271585,-178.37698,-45.931282,-0.34603736,-39.618389,161.72993,-30.882166,-33.187004,-45.525116,-0.8574025,-14.008744,8.3736744,-34.112526,-33.419235,-32.024952,-22.496252,-39.7192,162.15195,-34.207069,-33.449905,-16.324108,146.41429
2518000000,-16.875736,9.9026031,-37.195923,-2.2522516,-30.943518,-33.719707,-31.969296,-23.620979,-37.261066,-2.0674036,-12.239282,-178.52884,-46.194786,-1.401045,-39.775269,159.58163,-30.897055,-34.10614,-45.781048,-2.0292652,-13.975846,7.9512963,-34.090847,-34.762203,-32.00589,-23.867771,-39.880795,160.01564,-34.179485,-34.800392,-16.325151,146.00307
2518500000,-16.912701,10.022619,-37.239704,-2.9963233,-30.945978,-34.652031,-31.963951,-24.987347,-37.291103,-2.8416233,-12.207304,-178.6851,-46.493145,-1.8266088,-39.913979,157.40895,-30.901348,-35.028103,-46.076378,-2.7067492,-13.943058,7.5480618,-34.066494,-36.088272,-32.001972,-25.240351,-40.027237,157.82925,-34.151905,-36.125374,-16.321495,145.56706
2519000000,-16.9415,10.20836,-37.283382,-3.7636917,-30.946131,-35.623871,-31.967972,-26.328018,-37.325199,-3.6331279,-12.174156,-178.83881,-46.822395,-1.9854884,-40.053356,155.09933,-30.899876,-35.99979,-46.405991,-3.0890856,-13.909689,7.1718531,-34.037334,-37.443253,-32.006954,-26.59338,-40.173203,155.55849,-34.117855,-37.536102,-16.313091,145.1151
2519500000,-16.957655,10.445216,-37.324112,-4.5885224,-30.943766,-36.628365,-31.977537,-27.602367,-37.355343,-4.5138965,-12.141518,-179.00822,-47.186634,-1.5392319,-40.205395,152.77574,-30.899769,-37.009335,-46.778709,-2.8252714,-13.872932,6.8141036,-34.010246,-38.915886,-32.018024,-27.885433,-40.331043,153.22906,-34.086994,-39.014412,-16.300962,144.6413
2520000000,-16.96368,10.698991,-37.368637,-5.503273,-30.944592,-37.665398,-31.986115,-28.866255,-37.40049,-5.4867611,-12.110993,-179.19427,-47.529869,-0.3962214,-40.380962,150.3801,-30.902563,-38.047993,-47.141975,-1.9464812,-13.834097,6.4675446,-33.990208,-40.445831,-32.026798,-29.149582,-40.511345,150.87782,-34.064735,-40.604572,-16.288441,144.13913
2520500000,-16.957071,10.961522,-37.432587,-6.423028,-30.950802,-38.684025,-31.992083,-30.145308,-37.462063,-6.4810071,-12.079293,-179.37151,-47.823528,1.1688478,-40.577675,148.11063,-30.910004,-39.069927,-47.454887,-0.47406226,-13.791956,6.1195645,-33.98774,-42.027569,-32.035648,-30.439398,-40.711666,148.66878,-34.067039,-42.218418,-16.275003,143.61008
2521000000,-16.942369,11.214243,-37.509235,-7.306354,-30.953451,-39.695576,-32.00531,-31.445921,-37.54324,-7.4025021,-12.051722,-179.57744,-48.067474,3.0686481,-40.776684,145.9783,-30.918831,-40.072239,-47.721935,1.2510394,-13.746221,5.7636471,-33.999332,-43.544445,-32.050613,-31.741177,-40.917252,146.57172,-34.080097,-43.792057,-16.261988,143.0612
2521500000,-16.914995,11.450793,-37.601307,-8.1405401,-30.953487,-40.671024,-32.022022,-32.725029,-37.640347,-8.2363472,-12.023885,-179.78198,-48.244389,5.1663976,-40.984142,144.01947,-30.918774,-41.04845,-47.941425,3.1636419,-13.699968,5.383811,-34.010693,-45.041645,-32.068329,-33.013245,-41.123211,144.69818,-34.098732,-45.335861,-16.25094,142.47755
2522000000,-16.879902,11.667912,-37.704636,-8.7199001,-30.947714,-41.686211,-32.039005,-34.002411,-37.743256,-8.858305,-11.996535,-179.99791,-48.380135,7.4613338,-41.180496,142.18765,-30.916845,-42.043301,-48.109753,5.282836,-13.652246,4.9926805,-34.030357,-46.549244,-32.087112,-34.284386,-41.318188,142.95734,-34.127949,-46.853481,-16.243288,141.86664
2522500000,-16.834723,11.861794,-37.775768,-9.2307034,-30.940817,-42.705555,-32.057018,-35.30941,-37.82407,-9.3578959,-11.971511,179.77678,-48.435085,9.6632948,-41.356094,140.51926,-30.910168,-43.048973,-48.206787,7.5554476,-13.606987,4.5787539,-34.058186,-48.007912,-32.104057,-35.577751,-41.486835,141.35889,-34.16251,-48.335861,-16.239737,141.24207
2523000000,-16.78021,12.0197,-37.843372,-9.7945986,-30.923651,-43.74498,-32.079288,-36.647587,-37.89682,-9.8959599,-11.949024,179.5432,-48.449123,11.871557,-41.501476,138.87129,-30.89653,-44.080795,-48.262539,9.6490765,-13.561922,4.163188,-34.08445,-49.476803,-32.126465,-36.916477,-41.620548,139.74704,-34.198418,-49.789074,-16.239307,140.60938
2523500000,-16.717651,12.146781,-37.910633,-10.301064,-30.901724,-44.844208,-32.114342,-38.016533,-37.966522,-10.371748,-11.92724,179.3206,-48.450123,14.01495,-41.628387,137.12996,-30.872757,-45.165771,-48.313622,11.806703,-13.518342,3.7400327,-34.121033,-50.973324,-32.160198,-38.286594,-41.739826,138.05441,-34.241386,-51.258144,-16.243465,139.98282
2524000000,-16.650814,12.240635,-37.978252,-10.730197,-30.877682,-46.00526,-32.159752,-39.359104,-38.035667,-10.7508,-11.909323,179.08789,-48.407604,16.00066,-41.744183,135.30113,-30.847284,-46.32798,-48.307667,13.965418,-13.477822,3.3100958,-34.160915,-52.392654,-32.203949,-39.661316,-41.850403,136.21603,-34.292484,-52.668667,-16.252314,139.34763
2524500000,-16.581161,12.285529,-38.025787,-11.066896,-30.849384,-47.27364,-32.215786,-40.661839,-38.080048,-11.065828,-11.891521,178.86009,-48.350464,17.89992,-41.864464,133.49693,-30.818666,-47.598015,-48.265289,16.255384,-13.435669,2.8858461,-34.212257,-53.810898,-32.259686,-40.98333,-41.967388,134.40964,-34.347431,-54.041,-16.26594,138.74063
2525000000,-16.49859,12.309067,-38.056377,-11.453167,-30.826363,-48.62254,-32.275215,-41.935951,-38.106438,-11.437041,-11.875305,178.62929,-48.278988,19.508114,-41.968208,131.64478,-30.793152,-48.958954,-48.208889,18.179207,-13.394121,2.461889,-34.26693,-55.188522,-32.319683,-42.289467,-42.070244,132.53102,-34.406532,-55.3764,-16.283852,138.14232
2525500000,-16.412626,12.251356,-38.083755,-11.890312,-30.807281,-50.066154,-32.342838,-43.220657,-38.135006,-11.914518,-11.86086,178.40645,-48.254932,21.600399,-42.07568,129.72015,-30.769903,-50.425011,-48.200497,20.397528,-13.350781,2.0211747,-34.328377,-56.499676,-32.391998,-43.586243,-42.168743,130.58459,-34.472549,-56.650547,-16.304522,137.56897
2526000000,-16.323782,12.112189,-38.100475,-12.318407,-30.800024,-51.634079,-32.427822,-44.440048,-38.154186,-12.39338,-11.848256,178.16965,-48.151142,23.692862,-42.189465,127.78102,-30.765047,-52.024765,-48.090263,22.656754,-13.311942,1.5651633,-34.387943,-57.725803,-32.476936,-44.817867,-42.273876,128.63498,-34.535973,-57.816105,-16.327749,137.03378
2526500000,-16.230688,11.898098,-38.113789,-12.849855,-30.809189,-53.280167,-32.522652,-45.599159,-38.169514,-12.935536,-11.837309,177.93735,-48.050278,25.757689,-42.302254,125.93684,-30.777172,-53.696205,-47.979023,24.889565,-13.276415,1.1100154,-34.445992,-58.919117,-32.575287,-45.986027,-42.377434,126.75409,-34.595581,-58.933632,-16.352686,136.50656
2527000000,-16.136915,11.595776,-38.140682,-13.422465,-30.838966,-54.958126,-32.629539,-46.62043,-38.198071,-13.519113,-11.829155,177.70328,-47.951958,27.966444,-42.401924,124.1693,-30.807819,-55.395657,-47.85043,27.195175,-13.243491,0.6614815,-34.497189,-60.070328,-32.685856,-47.032082,-42.468372,124.90455,-34.64724,-60.011997,-16.377249,136.01878
