!CSV A.01.01
!Keysight Technologies,N5222B,MY58422327,A.13.60.06
!Date: Monday, March 28, 2022 16:15:45
!Source: Standard

BEGIN CH1_DATA
Freq(Hz),S11(DB),S11(DEG),S12(DB),S12(DEG),S13(DB),S13(DEG),S14(DB),S14(DEG),S21(DB),S21(DEG),S22(DB),S22(DEG),S23(DB),S23(DEG),S24(DB),S24(DEG),S31(DB),S31(DEG),S32(DB),S32(DEG),S33(DB),S33(DEG),S34(DB),S34(DEG),S41(DB),S41(DEG),S42(DB),S42(DEG),S43(DB),S43(DEG),S44(DB),S44(DEG)
2500000000,-17.021605,22.553778,-34.592022,33.163013,-31.974928,0.10188098,-31.802889,7.7469015,-34.633736,33.018841,-13.423037,-173.96487,-39.117062,11.389605,-39.052193,-107.57254,-31.959593,-0.1917008,-39.044933,11.523991,-15.656901,24.845045,-34.754345,-1.7176665,-31.86027,7.6411786,-39.051834,-108.09086,-34.834927,-1.7354095,-16.328362,164.76543
2500500000,-17.010159,22.188196,-34.670868,32.024773,-31.923712,-0.67451519,-31.866999,6.559516,-34.712719,31.879652,-13.380139,-174.0957,-39.197071,9.6626167,-38.949997,-109.62511,-31.915436,-0.97414601,-39.123631,9.8661585,-15.601075,24.32531,-34.758945,-2.5262139,-31.92141,6.4343143,-38.95517,-110.13627,-34.834869,-2.5535223,-16.319405,164.38777
2501000000,-16.995338,21.84219,-34.75259,30.90134,-31.873144,-1.4808644,-31.936787,5.4487195,-34.79475,30.765276,-13.335901,-174.20921,-39.297417,7.8795924,-38.861839,-111.76262,-31.872122,-1.7719097,-39.220673,8.1194429,-15.544106,23.793663,-34.764179,-3.4545069,-31.989523,5.3101869,-38.868767,-112.21622,-34.842285,-3.472331,-16.309851,164.00047
2501500000,-16.975739,21.509167,-34.822937,29.845261,-31.832165,-2.258374,-32.006203,4.4612389,-34.86607,29.692684,-13.294312,-174.33971,-39.427479,6.1544361,-38.792381,-113.87312,-31.839163,-2.5359721,-39.340691,6.3716974,-15.489953,23.2491,-34.783569,-4.3799882,-32.059608,4.2994142,-38.800232,-114.27267,-34.860714,-4.4167647,-16.297384,163.61945
2502000000,-16.955486,21.146673,-34.883747,28.761606,-31.792656,-3.0128489,-32.066502,3.5507438,-34.930351,28.593748,-13.254215,-174.46608,-39.574585,4.4502845,-38.731403,-115.86115,-31.805086,-3.2535484,-39.476082,4.6592159,-15.43819,22.696938,-34.810883,-5.3630137,-32.121918,3.3496592,-38.730732,-116.26191,-34.887886,-5.3906436,-16.282995,163.22926
2502500000,-16.931671,20.77599,-34.945797,27.683081,-31.74906,-3.7724199,-32.118618,2.6695843,-34.995125,27.501623,-13.213854,-174.59042,-39.731213,2.8179648,-38.67078,-117.76768,-31.768589,-3.9592085,-39.620667,3.0258241,-15.391469,22.149641,-34.858261,-6.2980509,-32.178219,2.4479158,-38.661724,-118.16831,-34.935482,-6.3255563,-16.267361,162.81178
2503000000,-16.905354,20.383444,-34.999828,26.614416,-31.713017,-4.5072656,-32.161888,1.8059161,-35.053642,26.40959,-13.177122,-174.73271,-39.902035,1.242239,-38.594219,-119.64661,-31.732409,-4.6551776,-39.783173,1.3696876,-15.347216,21.616621,-34.916378,-7.0687399,-32.225334,1.575938,-38.579994,-120.07985,-34.993832,-7.1173949,-16.250257,162.39294
2503500000,-16.884306,19.960957,-35.047142,25.48913,-31.675043,-5.2284341,-32.202152,0.93154275,-35.104019,25.269819,-13.14156,-174.86908,-40.063866,-0.32112226,-38.503857,-121.46681,-31.693203,-5.3370967,-39.941776,-0.27717865,-15.306065,21.105709,-34.967308,-7.6895132,-32.268082,0.69658625,-38.486717,-121.95411,-35.045456,-7.724225,-16.231672,161.96074
2504000000,-16.861002,19.535509,-35.095928,24.334866,-31.634886,-5.8827291,-32.239552,0.039217513,-35.162086,24.125595,-13.105478,-174.99597,-40.243832,-1.916263,-38.388561,-123.29156,-31.651588,-5.9512486,-40.118572,-1.9778886,-15.265604,20.61731,-35.001949,-8.2330656,-32.30986,-0.18426549,-38.374744,-123.83578,-35.077652,-8.2757797,-16.212393,161.49208
2504500000,-16.837761,19.118519,-35.149681,23.190006,-31.58349,-6.5233669,-32.278862,-0.84533548,-35.215088,23.004662,-13.071773,-175.13297,-40.429932,-3.6511183,-38.248871,-125.25675,-31.594419,-6.5768142,-40.310783,-3.7948165,-15.223939,20.159676,-35.017929,-8.6925468,-32.348858,-1.0571131,-38.238487,-125.84125,-35.096306,-8.7476835,-16.189594,161.01576
2505000000,-16.811823,18.709398,-35.198162,21.978951,-31.524065,-7.2207761,-32.314098,-1.69429,-35.267776,21.815271,-13.040112,-175.28069,-40.648682,-5.4065943,-38.084015,-127.38672,-31.53116,-7.2399998,-40.536652,-5.6286478,-15.18094,19.698795,-35.016953,-9.1357574,-32.38578,-1.9099013,-38.080967,-127.97679,-35.098179,-9.2007561,-16.167677,160.49167
2505500000,-16.784191,18.291059,-35.249016,20.772232,-31.454094,-7.9514785,-32.348713,-2.5475354,-35.32103,20.654411,-13.008586,-175.41249,-40.90173,-7.217711,-37.912617,-129.84041,-31.457664,-7.9673843,-40.804531,-7.5033422,-15.135786,19.243923,-34.991787,-9.6042957,-32.425617,-2.7577658,-37.917789,-130.42416,-35.072479,-9.6727343,-16.144665,159.94092
2506000000,-16.755589,17.862827,-35.304359,19.504211,-31.376678,-8.756876,-32.384155,-3.3753107,-35.374763,19.428699,-12.979037,-175.54608,-41.179386,-9.0417967,-37.751301,-132.53427,-31.37822,-8.753314,-41.102932,-9.3356285,-15.090195,18.792658,-34.946281,-10.14033,-32.461697,-3.5912631,-37.760525,-133.12122,-35.030388,-10.210884,-16.12237,159.34038
2506500000,-16.726274,17.436497,-35.370079,18.197706,-31.301563,-9.6405897,-32.412239,-4.1466784,-35.441135,18.14422,-12.951488,-175.68724,-41.519421,-10.864603,-37.604477,-135.46924,-31.301107,-9.6154661,-41.448975,-11.081712,-15.045112,18.34288,-34.887169,-10.808648,-32.495979,-4.3454614,-37.616962,-136.06557,-34.974045,-10.84959,-16.102911,158.70935
2507000000,-16.698418,17.000048,-35.448029,16.944223,-31.22505,-10.595492,-32.431435,-4.9259548,-35.515579,16.892164,-12.923159,-175.80373,-41.915596,-12.542768,-37.486984,-138.65442,-31.216839,-10.548438,-41.858185,-12.727778,-14.999043,17.898724,-34.824127,-11.587337,-32.517628,-5.0959477,-37.50235,-139.23511,-34.910656,-11.634285,-16.088428,158.03432
2507500000,-16.665802,16.571833,-35.531387,15.713987,-31.152309,-11.639406,-32.443577,-5.7648702,-35.595554,15.64753,-12.895691,-175.92584,-42.377281,-13.928241,-37.404991,-141.98627,-31.138245,-11.581102,-42.324459,-14.049253,-14.951912,17.466999,-34.759888,-12.512401,-32.530933,-5.9117599,-37.421341,-142.54645,-34.847214,-12.553489,-16.079639,157.3405
2508000000,-16.638002,16.121964,-35.618416,14.518909,-31.086275,-12.755206,-32.45985,-6.6812706,-35.682495,14.456085,-12.867987,-176.03529,-42.889332,-14.9216,-37.361065,-145.39893,-31.065556,-12.702397,-42.831261,-14.968445,-14.905074,17.041721,-34.706371,-13.561418,-32.548523,-6.7914767,-37.381886,-145.93512,-34.795349,-13.595371,-16.076887,156.63881
2508500000,-16.611813,15.666588,-35.707645,13.382606,-31.03126,-13.927032,-32.487869,-7.5988612,-35.771233,13.2991,-12.838248,-176.13194,-43.446865,-15.348392,-37.351665,-148.82605,-31.006792,-13.873748,-43.38311,-15.413003,-14.854719,16.625799,-34.669949,-14.667565,-32.572208,-7.6665273,-37.375145,-149.33644,-34.759853,-14.696068,-16.079544,155.93309
2509000000,-16.592834,15.18885,-35.796021,12.24804,-30.986729,-15.112875,-32.521786,-8.4681902,-35.864883,12.15524,-12.810165,-176.24657,-44.027042,-15.154561,-37.377769,-152.22672,-30.955629,-15.078398,-43.961994,-15.194337,-14.803539,16.211411,-34.650276,-15.753502,-32.603783,-8.5147676,-37.397491,-152.71561,-34.739098,-15.778028,-16.085121,155.24541
2509500000,-16.578445,14.719942,-35.886963,11.126613,-30.94606,-16.306639,-32.562054,-9.2710629,-35.966072,11.042816,-12.779583,-176.35817,-44.589928,-14.239038,-37.426865,-155.56256,-30.912622,-16.308798,-44.527855,-14.230443,-14.748883,15.799886,-34.641598,-16.777102,-32.63834,-9.2984066,-37.444149,-156.01477,-34.727627,-16.799858,-16.094011,154.56477
2510000000,-16.572113,14.256048,-35.99218,10.012229,-30.910484,-17.52371,-32.597721,-9.9831944,-36.071728,9.9606676,-12.747508,-176.46153,-45.132755,-12.627212,-37.495312,-158.82361,-30.875254,-17.550072,-45.072754,-12.567126,-14.69264,15.380893,-34.631893,-17.727339,-32.67165,-9.9958944,-37.510155,-159.26187,-34.71743,-17.720825,-16.106718,153.88481
2510500000,-16.57638,13.791623,-36.106049,8.9732246,-30.882414,-18.792908,-32.622917,-10.601027,-36.193733,8.9481716,-12.717084,-176.58119,-45.616409,-10.236479,-37.575882,-162.00966,-30.844957,-18.835863,-45.562237,-10.175023,-14.636075,14.942296,-34.61673,-18.590862,-32.692215,-10.623625,-37.588734,-162.45361,-34.700783,-18.594833,-16.119623,153.24538
2511000000,-16.583332,13.367475,-36.225094,8.0390339,-30.866486,-20.096863,-32.635105,-11.218726,-36.31805,8.1012716,-12.68644,-176.69255,-46.005779,-7.0715714,-37.672382,-165.17039,-30.829407,-20.156021,-45.933502,-6.9592953,-14.577947,14.491958,-34.584084,-19.433138,-32.698189,-11.221597,-37.683205,-165.62321,-34.67165,-19.460661,-16.135893,152.60698
2511500000,-16.592855,12.972121,-36.334103,7.2672248,-30.868132,-21.375439,-32.635853,-11.812225,-36.426033,7.4069486,-12.654642,-176.79134,-46.227219,-3.5540006,-37.786453,-168.33035,-30.828938,-21.462208,-46.159286,-3.4775739,-14.52134,14.021005,-34.543343,-20.303959,-32.693966,-11.821677,-37.79678,-168.77608,-34.62888,-20.359909,-16.154375,151.98865
2512000000,-16.605803,12.605712,-36.434719,6.5841088,-30.876318,-22.605476,-32.624172,-12.408828,-36.520565,6.7788124,-12.62232,-176.90714,-46.294907,-0.052100025,-37.922935,-171.38774,-30.835762,-22.702688,-46.222813,0.054979768,-14.470077,13.529208,-34.499737,-21.294525,-32.675419,-12.445645,-37.936146,-171.80835,-34.585957,-21.338926,-16.174671,151.39285
2512500000,-16.617176,12.259257,-36.516827,5.8842444,-30.897945,-23.796732,-32.601627,-13.005372,-36.59536,6.1463628,-12.590027,-177.02393,-46.230534,3.4348581,-38.072094,-174.37637,-30.859373,-23.932272,-46.158127,3.4311702,-14.419621,13.04341,-34.451694,-22.243187,-32.649014,-13.064313,-38.084656,-174.79128,-34.539978,-22.300198,-16.193981,150.82408
2513000000,-16.626823,11.920149,-36.594147,5.2320881,-30.923393,-24.885099,-32.559021,-13.640157,-36.658665,5.5498033,-12.55678,-177.13792,-45.979263,6.2372518,-38.238991,-177.24707,-30.883978,-25.026003,-45.917557,6.2236819,-14.372064,12.553231,-34.397408,-23.260311,-32.606407,-13.727359,-38.248817,-177.71335,-34.486744,-23.31769,-16.214062,150.26823
2513500000,-16.637459,11.588534,-36.660633,4.558989,-30.94088,-25.920603,-32.504448,-14.351411,-36.712158,4.8965936,-12.524299,-177.25681,-45.629791,7.9854217,-38.42107,-179.98343,-30.905054,-26.049223,-45.589207,7.9707336,-14.3278,12.066872,-34.343391,-24.313942,-32.550255,-14.480809,-38.428959,179.54433,-34.433712,-24.375759,-16.234516,149.73125
2514000000,-16.652933,11.243149,-36.714722,3.9137471,-30.952112,-26.933756,-32.439484,-15.199869,-36.755318,4.2128716,-12.49084,-177.37956,-45.281086,8.6131659,-38.598171,177.49052,-30.916849,-27.06465,-45.244415,8.6738386,-14.283731,11.586108,-34.289017,-25.419525,-32.489712,-15.337671,-38.613102,176.96225,-34.376503,-25.478397,-16.255899,149.19241
2514500000,-16.667889,10.927978,-36.762829,3.2045474,-30.961823,-27.990417,-32.374783,-16.143684,-36.795097,3.4537547,-12.457587,-177.51016,-44.962521,8.2880955,-38.771797,175.02922,-30.925503,-28.11285,-44.936665,8.3870554,-14.242938,11.106907,-34.22913,-26.55868,-32.426918,-16.322462,-38.79324,174.45042,-34.315929,-26.63596,-16.2771,148.68802
2515000000,-16.685789,10.624573,-36.810284,2.4759669,-30.974567,-29.037405,-32.313324,-17.211082,-36.834751,2.6787615,-12.425532,-177.64261,-44.736809,7.3626547,-38.938519,172.6981,-30.936802,-29.167627,-44.709866,7.5179048,-14.201717,10.637935,-34.168385,-27.783886,-32.370842,-17.389845,-38.971668,172.09088,-34.259705,-27.878395,-16.297667,148.20955
2515500000,-16.710279,10.338265,-36.847378,1.6945773,-30.991951,-30.102518,-32.258125,-18.341152,-36.874176,1.875214,-12.394457,-177.77931,-44.578476,6.0879097,-39.087891,170.36458,-30.955162,-30.222057,-44.55175,6.3115392,-14.161071,10.17505,-34.114037,-29.039551,-32.320759,-18.526981,-39.128479,169.78854,-34.205273,-29.167433,-16.315392,147.7561
2516000000,-16.741863,10.081554,-36.886059,0.81268013,-31.016777,-31.12479,-32.209396,-19.56526,-36.914642,0.96323746,-12.361657,-177.90401,-44.507015,4.5270753,-39.2314,167.96826,-30.974657,-31.267292,-44.470333,4.7864499,-14.119834,9.7144642,-34.054611,-30.384666,-32.275909,-19.70686,-39.282829,167.42636,-34.148827,-30.497009,-16.33157,147.29405
2516500000,-16.77886,9.8935947,-36.944019,-0.056761675,-31.042627,-32.102066,-32.171982,-20.807888,-36.978249,0.062206235,-12.329199,-178.03764,-44.515556,2.840127,-39.388763,165.5634,-31.000326,-32.257816,-44.488575,3.1124349,-14.080085,9.2450027,-34.006458,-31.811548,-32.240341,-20.926512,-39.449322,165.09128,-34.105347,-31.924831,-16.344435,146.88438
2517000000,-16.817627,9.7714109,-37.001701,-0.80994254,-31.060816,-33.062916,-32.141788,-22.073261,-37.037262,-0.67501348,-12.298149,-178.19005,-44.596691,1.1295923,-39.547493,163.25816,-31.019176,-33.238113,-44.570602,1.4945505,-14.04322,8.7761154,-33.973938,-33.263889,-32.21339,-22.153761,-39.617275,162.88474,-34.073795,-33.372978,-16.355005,146.47308
2517500000,-16.862007,9.7223415,-37.061314,-1.5914633,-31.086987,-33.973446,-32.113102,-23.372879,-37.094852,-1.4467517,-12.265159,-178.32524,-44.803932,-0.45099729,-39.709877,160.94608,-31.048365,-34.158619,-44.780033,0.030551227,-14.008335,8.3305159,-33.949989,-34.714626,-32.182308,-23.407635,-39.772678,160.71561,-34.048134,-34.803467,-16.361563,146.06129
2518000000,-16.903057,9.7541323,-37.103462,-2.3041556,-31.099068,-34.830284,-32.093964,-24.715569,-37.137909,-2.1565347,-12.232691,-178.47621,-45.073666,-1.5199398,-39.863895,158.72409,-31.065073,-35.023262,-45.046127,-0.94829547,-13.975184,7.9033351,-33.931061,-36.153397,-32.160671,-24.726439,-39.920883,158.59427,-34.026165,-36.217735,-16.364199,145.66168
2518500000,-16.94117,9.8696795,-37.142952,-3.1262259,-31.10223,-35.712883,-32.088837,-26.068224,-37.179871,-2.9582705,-12.200328,-178.63245,-45.373623,-1.9923019,-40.014771,156.51199,-31.070721,-35.916237,-45.324818,-1.3104602,-13.942709,7.4997144,-33.914539,-37.549248,-32.151886,-26.047657,-40.049374,156.42383,-34.005707,-37.628212,-16.36167,145.24228
2519000000,-16.972044,10.052855,-37.184303,-3.9589989,-31.100912,-36.650959,-32.093636,-27.405041,-37.219761,-3.7994933,-12.16658,-178.7901,-45.683804,-2.2281539,-40.15984,154.19669,-31.071173,-36.843773,-45.618816,-1.5122225,-13.909695,7.1247244,-33.896286,-38.979862,-32.148731,-27.364988,-40.177879,154.15373,-33.984421,-39.068546,-16.354263,144.80544
2519500000,-16.990808,10.289228,-37.224503,-4.8499646,-31.10129,-37.609039,-32.101276,-28.688625,-37.260239,-4.6921692,-12.134149,-178.96053,-46.032345,-1.828519,-40.312962,151.81754,-31.072186,-37.81583,-45.941399,-1.1703238,-13.872931,6.7689738,-33.877483,-40.45472,-32.15004,-28.644451,-40.314613,151.82854,-33.964859,-40.557068,-16.342991,144.35188
2520000000,-16.999281,10.549627,-37.27734,-5.8489747,-31.102087,-38.597504,-32.109119,-29.951838,-37.314774,-5.6472588,-12.103361,-179.14818,-46.342548,-0.91119599,-40.493336,149.43469,-31.077183,-38.815414,-46.237854,-0.26674533,-13.833105,6.4269776,-33.867424,-42.011711,-32.150494,-29.91744,-40.473068,149.4227,-33.949959,-42.127499,-16.330149,143.86832
2520500000,-16.995848,10.823972,-37.35323,-6.8363609,-31.106874,-39.570793,-32.113979,-31.242632,-37.389763,-6.5972486,-12.071427,-179.32962,-46.606556,0.39850703,-40.688633,147.19691,-31.08761,-39.785225,-46.477852,0.87066805,-13.790616,6.0831943,-33.870651,-43.577953,-32.150749,-31.214041,-40.655544,147.1378,-33.954098,-43.714809,-16.315346,143.35342
2521000000,-16.983646,11.089883,-37.442867,-7.7227063,-31.11006,-40.519142,-32.128395,-32.545235,-37.476982,-7.4745331,-12.043467,-179.53879,-46.820614,1.8806423,-40.881828,145.08286,-31.096743,-40.730152,-46.69315,2.2848208,-13.744442,5.7268744,-33.887184,-45.106159,-32.15609,-32.542278,-40.845478,144.96227,-33.971649,-45.283268,-16.300303,142.81026
2521500000,-16.959229,11.347165,-37.548973,-8.5016623,-31.10854,-41.452419,-32.145313,-33.812233,-37.582581,-8.252532,-12.015992,-179.74622,-46.992847,3.4755349,-41.083237,143.13997,-31.097078,-41.644295,-46.883968,3.7893126,-13.696902,5.3444257,-33.904663,-46.599476,-32.166035,-33.853241,-41.038452,142.96373,-33.989994,-46.788773,-16.287981,142.23227
2522000000,-16.926064,11.58814,-37.660858,-9.038518,-31.096706,-42.410709,-32.159492,-35.093258,-37.690445,-8.7728891,-11.989199,-179.9601,-47.132401,5.3014612,-41.267902,141.36554,-31.087671,-42.573334,-47.040192,5.5955529,-13.649304,4.949873,-33.927528,-48.098705,-32.180588,-35.180061,-41.219238,141.08141,-34.014919,-48.302216,-16.279091,141.61819
2522500000,-16.882568,11.817631,-37.743675,-9.4708509,-31.080854,-43.39465,-32.1745,-36.388065,-37.766544,-9.2015867,-11.965074,179.81757,-47.203316,7.0879531,-41.428791,139.70396,-31.07556,-43.530727,-47.133717,7.4755874,-13.604163,4.5373731,-33.953259,-49.563801,-32.192646,-36.511387,-41.37606,139.35616,-34.046455,-49.783154,-16.274008,140.98547
2523000000,-16.82773,12.012877,-37.810543,-9.9123859,-31.058262,-44.415539,-32.193615,-37.735977,-37.834515,-9.6562796,-11.94305,179.58943,-47.26202,8.8151312,-41.554386,138.06335,-31.055576,-44.537262,-47.186577,9.2968616,-13.559363,4.120677,-33.982071,-51.021599,-32.210747,-37.910118,-41.504364,137.625,-34.078541,-51.254612,-16.273432,140.34253
2523500000,-16.764589,12.174268,-37.881203,-10.298516,-31.028683,-45.484455,-32.221737,-39.12418,-37.89814,-10.056178,-11.921224,179.37363,-47.299938,10.660809,-41.660835,136.27567,-31.027723,-45.588654,-47.221333,11.305865,-13.51575,3.6975183,-34.016468,-52.480526,-32.241089,-39.354694,-41.61274,135.77383,-34.115604,-52.716587,-16.278286,139.70964
2524000000,-16.69528,12.301719,-37.940636,-10.640897,-30.995613,-46.666752,-32.26469,-40.516224,-37.95694,-10.407585,-11.902914,179.14688,-47.296906,12.487335,-41.757957,134.39409,-30.994587,-46.729767,-47.209377,13.134212,-13.474864,3.2693663,-34.056583,-53.941666,-32.28297,-40.795494,-41.7178,133.81575,-34.161636,-54.176052,-16.287603,139.06261
2524500000,-16.621328,12.378921,-37.980862,-10.873505,-30.961023,-47.941509,-32.313496,-41.879711,-37.99337,-10.648116,-11.884015,178.92328,-47.266987,14.238534,-41.870705,132.45915,-30.961668,-47.959675,-47.167645,14.903806,-13.432412,2.8462873,-34.105011,-55.348122,-32.335285,-42.194378,-41.828541,131.89375,-34.213116,-55.572598,-16.303976,138.44838
2525000000,-16.53484,12.421284,-37.998592,-11.179582,-30.930929,-49.332481,-32.370472,-43.252151,-38.007282,-10.984794,-11.866414,178.69592,-47.2258,15.708116,-41.970173,130.49083,-30.929102,-49.317089,-47.111591,16.415874,-13.390244,2.4206183,-34.157032,-56.730499,-32.396206,-43.609348,-41.928326,129.91579,-34.267853,-56.947567,-16.324139,137.85098
2525500000,-16.445061,12.375607,-38.012383,-11.561905,-30.907431,-50.822113,-32.442356,-44.634411,-38.024845,-11.421647,-11.850443,178.47189,-47.24688,17.582064,-42.072609,128.48915,-30.901474,-50.763332,-47.083752,18.283451,-13.346237,1.9800612,-34.218727,-58.062305,-32.46978,-45.017647,-42.028172,127.90476,-34.331989,-58.24263,-16.347805,137.28308
2526000000,-16.352665,12.245311,-38.016483,-11.980268,-30.899107,-52.449619,-32.532787,-45.961235,-38.027737,-11.829053,-11.837166,178.23608,-47.174221,19.507334,-42.184097,126.475,-30.886211,-52.381973,-46.994839,20.040688,-13.307167,1.5209659,-34.276711,-59.303604,-32.563549,-46.39064,-42.136753,125.87894,-34.393475,-59.467075,-16.373381,136.75409
2526500000,-16.255365,12.041454,-38.017456,-12.490248,-30.909983,-54.130424,-32.642067,-47.19606,-38.031986,-12.368611,-11.825635,178.00006,-47.082214,21.432655,-42.303913,124.53048,-30.893076,-54.060154,-46.900539,21.740274,-13.27073,1.0646061,-34.33025,-60.49535,-32.674961,-47.678322,-42.245075,123.94691,-34.448647,-60.629322,-16.400473,136.23732
2527000000,-16.157589,11.736232,-38.030697,-13.068426,-30.94199,-55.837849,-32.763149,-48.297848,-38.049332,-12.94316,-11.816584,177.7625,-46.990318,23.397953,-42.39975,122.6907,-30.919926,-55.782188,-46.812759,23.488035,-13.23754,0.61466271,-34.379875,-61.679764,-32.802677,-48.815331,-42.343876,122.09325,-34.497314,-61.78154,-16.426327,135.76335
