!CSV A.01.01
!Keysight Technologies,N5222B,MY58422327,A.13.60.06
!Date: Monday, March 28, 2022 16:16:47
!Source: Standard

BEGIN CH1_DATA
Freq(Hz),S11(DB),S11(DEG),S12(DB),S12(DEG),S13(DB),S13(DEG),S14(DB),S14(DEG),S21(DB),S21(DEG),S22(DB),S22(DEG),S23(DB),S23(DEG),S24(DB),S24(DEG),S31(DB),S31(DEG),S32(DB),S32(DEG),S33(DB),S33(DEG),S34(DB),S34(DEG),S41(DB),S41(DEG),S42(DB),S42(DEG),S43(DB),S43(DEG),S44(DB),S44(DEG)
2500000000,-16.97892,22.677738,-34.934895,33.43808,-31.820578,1.857102,-31.725775,8.1830454,-34.939964,33.889992,-13.437416,-174.14755,-39.2449,7.54287,-39.019634,-106.04145,-31.850019,1.5216349,-39.145962,7.4283552,-15.645372,25.206013,-34.989571,-0.87627023,-31.809452,7.8262239,-39.003262,-105.36716,-35.062634,-0.91323698,-16.326031,164.85185
2500500000,-16.964518,22.304779,-35.014435,32.32468,-31.776735,1.0627185,-31.790754,6.9993815,-35.020874,32.661236,-13.396059,-174.27328,-39.326576,5.7748532,-38.919388,-108.06049,-31.813282,0.75255042,-39.226013,5.6995106,-15.589368,24.685665,-35.009903,-1.6127752,-31.879412,6.6559453,-38.899387,-107.38453,-35.077217,-1.675059,-16.315813,164.48166
2501000000,-16.946875,21.944082,-35.098919,31.209856,-31.736696,0.27582595,-31.863224,5.897491,-35.108513,31.45937,-13.352466,-174.37834,-39.425018,3.9318402,-38.827473,-110.14542,-31.778538,-0.0079265712,-39.326084,3.8646295,-15.532553,24.153057,-35.028175,-2.4527242,-31.954496,5.5828958,-38.812164,-109.53012,-35.096565,-2.5274408,-16.303362,164.09735
2501500000,-16.925566,21.596426,-35.166561,30.162861,-31.700838,-0.46501881,-31.938175,4.9159193,-35.187469,30.333506,-13.311667,-174.49939,-39.545959,2.0965319,-38.757229,-112.2754,-31.747379,-0.72290015,-39.448509,2.0537186,-15.478053,23.607931,-35.057812,-3.2623513,-32.029457,4.6213617,-38.741852,-111.62267,-35.123581,-3.3610139,-16.289064,163.7126
2502000000,-16.904087,21.220234,-35.230652,29.072834,-31.663839,-1.1682276,-32.004517,3.9946606,-35.262859,29.198259,-13.272252,-174.61797,-39.696411,0.32269686,-38.691837,-114.29692,-31.714401,-1.3936749,-39.592552,0.26076788,-15.425702,23.054796,-35.091763,-4.0917029,-32.09602,3.7211115,-38.682949,-113.66277,-35.157974,-4.2135558,-16.273415,163.31209
2502500000,-16.878922,20.836189,-35.293396,27.972874,-31.620699,-1.893417,-32.063129,3.1382539,-35.34111,28.11186,-13.232073,-174.73642,-39.854263,-1.3986923,-38.630222,-116.22396,-31.676004,-2.0746455,-39.745071,-1.4842286,-15.377848,22.507483,-35.141094,-4.8879747,-32.157326,2.8858612,-38.623745,-115.53801,-35.206463,-5.0206103,-16.257101,162.89111
2503000000,-16.851439,20.431475,-35.351254,26.886919,-31.582653,-2.5938296,-32.111748,2.3231339,-35.407627,27.050983,-13.195574,-174.87521,-40.022732,-3.084116,-38.561539,-118.11243,-31.636444,-2.7207243,-39.913509,-3.1901512,-15.332584,21.972031,-35.192631,-5.5402379,-32.20636,2.0695229,-38.55368,-117.44146,-35.262928,-5.6753855,-16.239685,162.46892
2503500000,-16.828953,19.992805,-35.402935,25.728167,-31.539696,-3.2771573,-32.154812,1.5079018,-35.468266,25.925627,-13.159739,-175.00922,-40.193966,-4.7709775,-38.476349,-119.94456,-31.592772,-3.3670888,-40.081524,-4.8840294,-15.291031,21.455378,-35.236282,-6.0033455,-32.251667,1.2611955,-38.472393,-119.27012,-35.306896,-6.1733265,-16.221281,162.03276
2504000000,-16.805382,19.551567,-35.464027,24.568323,-31.492271,-3.9102294,-32.195496,0.66375458,-35.531681,24.836832,-13.123748,-175.13643,-40.372169,-6.4771481,-38.365253,-121.81844,-31.542246,-3.9542942,-40.265141,-6.5830011,-15.250239,20.962002,-35.260361,-6.431963,-32.291878,0.43945625,-38.368813,-121.12164,-35.330864,-6.6065025,-16.201656,161.56017
2504500000,-16.782209,19.112549,-35.517467,23.409523,-31.428577,-4.5519829,-32.236328,-0.16692655,-35.592361,23.752558,-13.090745,-175.27452,-40.565155,-8.3174591,-38.233585,-123.77537,-31.474554,-4.5656195,-40.458355,-8.3947468,-15.208311,20.49563,-35.26017,-6.8188086,-32.331539,-0.37669328,-38.2388,-123.06622,-35.335274,-6.9817395,-16.178759,161.08676
2505000000,-16.75606,18.688496,-35.574059,22.185829,-31.359875,-5.2469277,-32.274094,-0.97051293,-35.642628,22.587406,-13.059993,-175.42181,-40.783997,-10.203407,-38.078667,-125.91373,-31.40168,-5.2354207,-40.678864,-10.229243,-15.165737,20.033384,-35.244076,-7.1821632,-32.368633,-1.1764007,-38.084438,-125.19221,-35.321526,-7.3620977,-16.157032,160.56531
2505500000,-16.728706,18.24773,-35.636951,21.023277,-31.280378,-6.026053,-32.312115,-1.7687985,-35.696587,21.433268,-13.029685,-175.55254,-41.041679,-12.143316,-37.917465,-128.3382,-31.317636,-5.9976974,-40.933662,-12.151711,-15.121032,19.579123,-35.199104,-7.596065,-32.406487,-1.9783803,-37.924618,-127.58755,-35.278282,-7.7907591,-16.133137,160.0181
2506000000,-16.701921,17.800396,-35.69812,19.812298,-31.199251,-6.8938041,-32.347172,-2.5304492,-35.75441,20.218994,-13.001476,-175.68394,-41.32795,-14.121153,-37.76004,-131.01169,-31.231977,-6.8480611,-41.218025,-14.082902,-15.076002,19.13028,-35.137932,-8.1355677,-32.443405,-2.7213795,-37.767883,-130.26143,-35.220085,-8.3185339,-16.10976,159.42104
2506500000,-16.674568,17.352947,-35.773727,18.576349,-31.120274,-7.8508081,-32.37698,-3.2362647,-35.822437,18.963066,-12.975132,-175.81795,-41.67104,-16.069263,-37.619595,-133.91934,-31.149755,-7.7851648,-41.553032,-16.017382,-15.029793,18.684298,-35.06694,-8.8136663,-32.472874,-3.4218442,-37.626221,-133.15977,-35.148315,-8.9792557,-16.088984,158.78856
2507000000,-16.649652,16.90247,-35.860992,17.339523,-31.046503,-8.8652563,-32.393188,-3.9575837,-35.901917,17.726679,-12.947644,-175.92503,-42.073605,-17.915869,-37.504887,-137.06357,-31.067913,-8.7904224,-41.949177,-17.812967,-14.982882,18.241446,-34.993603,-9.6210232,-32.48819,-4.1338162,-37.514278,-136.28329,-35.074139,-9.783639,-16.073296,158.11153
2507500000,-16.620613,16.473507,-35.94973,16.173452,-30.976498,-9.9536695,-32.399021,-4.7323794,-35.985924,16.528944,-12.921224,-176.03851,-42.541195,-19.528461,-37.423634,-140.32622,-30.995651,-9.8813238,-42.405228,-19.378742,-14.934916,17.809156,-34.920403,-10.558116,-32.495682,-4.8937387,-37.437119,-139.56113,-35.003685,-10.711896,-16.062902,157.41301
2508000000,-16.596395,16.027039,-36.040775,15.071373,-30.916109,-11.104013,-32.407864,-5.5784206,-36.077538,15.38146,-12.893255,-176.14197,-43.061256,-20.704288,-37.377781,-143.67012,-30.93157,-11.034101,-42.916611,-20.507524,-14.887118,17.380003,-34.858574,-11.617261,-32.504715,-5.7142177,-37.391006,-142.91298,-34.942497,-11.756282,-16.05883,156.70667
2508500000,-16.572495,15.580206,-36.131069,13.989665,-30.866224,-12.290412,-32.426392,-6.4350386,-36.16798,14.262296,-12.863869,-176.23067,-43.624275,-21.443403,-37.364105,-147.05617,-30.875296,-12.226748,-43.460285,-21.250984,-14.835922,16.959307,-34.815022,-12.713859,-32.522011,-6.5455904,-37.378193,-146.26604,-34.900879,-12.873428,-16.060139,155.99597
2509000000,-16.554518,15.115362,-36.220619,12.862109,-30.822401,-13.478863,-32.449692,-7.2660894,-36.258217,13.137963,-12.835866,-176.33887,-44.217999,-21.517885,-37.380959,-150.44579,-30.828539,-13.428678,-44.026279,-21.39715,-14.784659,16.538805,-34.78442,-13.803456,-32.543137,-7.3425207,-37.398865,-149.62152,-34.873863,-13.953354,-16.064192,155.30058
2509500000,-16.539871,14.653968,-36.314598,11.776621,-30.787321,-14.675515,-32.476059,-8.0360975,-36.359489,12.016513,-12.805451,-176.44496,-44.806351,-20.929089,-37.423187,-153.7951,-30.787634,-14.653955,-44.594242,-20.841599,-14.729987,16.122982,-34.764595,-14.83666,-32.567108,-8.0943546,-37.441479,-152.92447,-34.851772,-14.974709,-16.07173,154.60916
2510000000,-16.532915,14.194465,-36.420094,10.681962,-30.753658,-15.901883,-32.500462,-8.7270584,-36.469555,10.920359,-12.773843,-176.54224,-45.380119,-19.726351,-37.485142,-157.07976,-30.754879,-15.899974,-45.14473,-19.724127,-14.67366,15.70283,-34.743565,-15.801081,-32.589245,-8.7698784,-37.502983,-156.15361,-34.831757,-15.929356,-16.083221,153.91658
2510500000,-16.536755,13.732716,-36.541668,9.6573544,-30.727312,-17.16243,-32.512798,-9.349761,-36.59531,9.9123201,-12.74378,-176.657,-45.931042,-17.796188,-37.566273,-160.32422,-30.728178,-17.179426,-45.66753,-17.913355,-14.616785,15.267377,-34.71397,-16.717754,-32.597424,-9.384305,-37.579136,-159.37836,-34.803501,-16.845629,-16.095726,153.26302
2511000000,-16.543867,13.303782,-36.66589,8.7827549,-30.715063,-18.458597,-32.511292,-9.9733133,-36.726612,9.052062,-12.713272,-176.76471,-46.395985,-14.971401,-37.663677,-163.5255,-30.715534,-18.482002,-46.120613,-15.340897,-14.558452,14.816399,-34.674976,-17.645445,-32.593781,-9.9978685,-37.670746,-162.57962,-34.768032,-17.764555,-16.111712,152.60858
2511500000,-16.55405,12.913692,-36.778179,8.0651255,-30.716829,-19.737354,-32.501297,-10.588725,-36.845234,8.363327,-12.682128,-176.85748,-46.731197,-11.665389,-37.783726,-166.72137,-30.716869,-19.767126,-46.443321,-12.253471,-14.501207,14.348555,-34.626141,-18.605303,-32.58017,-10.612247,-37.783703,-165.75273,-34.717045,-18.727957,-16.130543,151.97415
2512000000,-16.566868,12.54814,-36.879299,7.4269361,-30.726778,-20.940763,-32.47884,-11.221167,-36.951767,7.7829051,-12.65026,-176.96422,-46.923111,-8.0536833,-37.929829,-169.80597,-30.726557,-20.990223,-46.625607,-8.9826145,-14.449165,13.857779,-34.578892,-19.657387,-32.554623,-11.251301,-37.922585,-168.85878,-34.669357,-19.766949,-16.15204,151.36182
2512500000,-16.57748,12.201101,-36.964638,6.7749901,-30.74901,-22.112654,-32.447586,-11.860635,-37.040344,7.1948395,-12.61806,-177.07066,-46.961025,-4.3766184,-38.086086,-172.78899,-30.748827,-22.182421,-46.68573,-5.5660329,-14.397418,13.374041,-34.531593,-20.691908,-32.519142,-11.907371,-38.073208,-171.83069,-34.621845,-20.789894,-16.172943,150.784
2513000000,-16.587296,11.862645,-37.04253,6.1489801,-30.769569,-23.195787,-32.40099,-12.543158,-37.1152,6.6650133,-12.585078,-177.1725,-46.801655,-1.0599593,-38.252377,-175.65047,-30.774378,-23.267727,-46.540276,-2.4197526,-14.348478,12.87849,-34.480621,-21.769022,-32.468601,-12.592062,-38.241127,-174.73694,-34.569485,-21.891266,-16.194559,150.2197
2513500000,-16.597946,11.53039,-37.112343,5.522018,-30.787657,-24.222782,-32.339775,-13.30992,-37.178108,6.105268,-12.552503,-177.28143,-46.506161,1.2099491,-38.426479,-178.31696,-30.793253,-24.296738,-46.26733,-0.32307407,-14.303061,12.385092,-34.429577,-22.886038,-32.404381,-13.361859,-38.417473,-177.50992,-34.517876,-23.018353,-16.216385,149.67516
2514000000,-16.612717,11.187639,-37.171249,4.8999195,-30.797756,-25.23455,-32.274479,-14.202463,-37.228504,5.5314589,-12.518395,-177.39554,-46.152733,2.3091018,-38.606201,179.05107,-30.806265,-25.299715,-45.949635,0.67021608,-14.258282,11.896719,-34.380341,-24.045725,-32.337265,-14.25234,-38.596195,179.84859,-34.466011,-24.187033,-16.239656,149.13434
2514500000,-16.62789,10.871706,-37.227695,4.25178,-30.805965,-26.268698,-32.20882,-15.181953,-37.274117,4.9181838,-12.48455,-177.51773,-45.837067,2.3391411,-38.77882,176.51074,-30.816782,-26.31057,-45.663498,0.5468092,-14.216653,11.411915,-34.328548,-25.227383,-32.269844,-15.270111,-38.773582,177.28328,-34.413383,-25.384638,-16.262592,148.63229
2515000000,-16.645346,10.569771,-37.28149,3.6111295,-30.816961,-27.318539,-32.145149,-16.257021,-37.316658,4.2962074,-12.451814,-177.64444,-45.595074,1.6045698,-38.948864,174.05927,-30.827135,-27.334585,-45.446083,-0.14445768,-14.175469,10.938087,-34.277542,-26.467249,-32.205864,-16.355778,-38.946735,174.83374,-34.367195,-26.646635,-16.284285,148.15428
2515500000,-16.668705,10.285171,-37.320152,2.937052,-30.830147,-28.37232,-32.086693,-17.407324,-37.345879,3.6028557,-12.419615,-177.77431,-45.421482,0.44010898,-39.116093,171.62711,-30.841711,-28.365189,-45.304012,-1.3840342,-14.13476,10.470645,-34.231113,-27.70652,-32.149334,-17.529808,-39.110588,172.41023,-34.321957,-27.928955,-16.303225,147.70874
2516000000,-16.698622,10.026132,-37.363033,2.1557183,-30.84848,-29.411369,-32.035522,-18.638527,-37.382439,2.8176844,-12.3856,-177.8985,-45.341721,-1.2519282,-39.278576,169.14781,-30.85449,-29.356676,-45.246899,-3.0118175,-14.09342,10.002398,-34.178112,-29.029701,-32.096951,-18.7498,-39.282093,169.90738,-34.276833,-29.251272,-16.320309,147.2552
2516500000,-16.733814,9.8333464,-37.420597,1.3577434,-30.870127,-30.403997,-31.993898,-19.904982,-37.437145,2.0014143,-12.352444,-178.03442,-45.366302,-3.0940852,-39.455196,166.70387,-30.872347,-30.358856,-45.289555,-4.8262897,-14.053878,9.5307741,-34.133068,-30.426826,-32.054283,-20.013691,-39.468796,167.45534,-34.237926,-30.608496,-16.333391,146.85417
2517000000,-16.771395,9.7005758,-37.477932,0.72587705,-30.884275,-31.387978,-31.958862,-21.183382,-37.491959,1.3543586,-12.321017,-178.18762,-45.473869,-4.9129524,-39.642544,164.39978,-30.887184,-31.35009,-45.405807,-6.6082711,-14.016757,9.0627079,-34.101112,-31.839197,-32.020885,-21.294655,-39.656128,165.14543,-34.207546,-31.990198,-16.343088,146.45166
2517500000,-16.814558,9.634757,-37.530701,0.093011916,-30.909273,-32.335434,-31.925936,-22.506556,-37.545586,0.68604934,-12.288408,-178.32442,-45.718159,-6.6705618,-39.827686,162.15109,-30.909317,-32.295036,-45.645317,-8.3812513,-13.981837,8.6157179,-34.073906,-33.252899,-31.985298,-22.613653,-39.846031,162.87016,-34.177876,-33.36758,-16.348135,146.04643
2518000000,-16.855339,9.6466455,-37.564785,-0.51805782,-30.922394,-33.239647,-31.900099,-23.896427,-37.580078,0.091141388,-12.256423,-178.4756,-46.035309,-7.8152571,-40.005547,159.9928,-30.921917,-33.186169,-45.973904,-9.5752563,-13.947391,8.1869707,-34.045952,-34.684048,-31.961983,-23.993774,-40.024101,160.71484,-34.15123,-34.773808,-16.349348,145.64711
2518500000,-16.894279,9.7489986,-37.592876,-1.2166039,-30.930033,-34.141285,-31.889994,-25.311203,-37.60804,-0.60471076,-12.22466,-178.62849,-46.392216,-8.3817034,-40.168869,157.84369,-30.92968,-34.109619,-46.35305,-10.276541,-13.913913,7.78092,-34.023533,-36.103302,-31.95134,-25.406607,-40.190598,158.58716,-34.126152,-36.188847,-16.345194,145.22319
2519000000,-16.926271,9.9184074,-37.621609,-1.9580411,-30.930698,-35.09729,-31.888655,-26.713535,-37.633629,-1.3480489,-12.191901,-178.77945,-46.775703,-8.6434908,-40.332081,155.68495,-30.932035,-35.046722,-46.771931,-10.606451,-13.880007,7.3973265,-33.99968,-37.544277,-31.952715,-26.814171,-40.353401,156.41455,-34.098991,-37.639439,-16.336,144.77469
2519500000,-16.945572,10.151185,-37.648582,-2.7888556,-30.932749,-36.065598,-31.898342,-28.076605,-37.659225,-2.1830091,-12.159472,-178.94153,-47.208076,-8.2507792,-40.495792,153.4614,-30.931684,-36.02187,-47.231071,-10.258118,-13.842636,7.0329318,-33.977249,-39.051968,-31.963465,-28.191406,-40.524101,154.18938,-34.076653,-39.150894,-16.324018,144.3063
2520000000,-16.954662,10.402548,-37.685883,-3.7002683,-30.938017,-37.072514,-31.908989,-29.409121,-37.68774,-3.1173418,-12.128679,-179.12025,-47.613224,-7.1215458,-40.677734,151.20779,-30.938053,-37.010056,-47.677753,-9.1672401,-13.803198,6.6820059,-33.961922,-40.633026,-31.972851,-29.511793,-40.709724,151.93689,-34.061378,-40.743401,-16.311283,143.80769
2520500000,-16.951656,10.666146,-37.743191,-4.6139078,-30.945654,-38.034328,-31.923273,-30.759577,-37.743229,-4.074625,-12.096464,-179.29042,-47.978241,-5.4922194,-40.870289,149.0777,-30.945734,-37.98695,-48.067734,-7.4240966,-13.760488,6.3309751,-33.966496,-42.252274,-31.984421,-30.841454,-40.909794,149.82065,-34.066437,-42.346035,-16.29776,143.2807
2521000000,-16.941401,10.919521,-37.814014,-5.4782701,-30.953304,-38.978062,-31.943914,-32.083633,-37.816006,-4.9753847,-12.068536,-179.48994,-48.282539,-3.4523158,-41.066055,147.05545,-30.952345,-38.945076,-48.403763,-5.2908311,-13.714428,5.9689608,-33.983429,-43.808296,-32.003197,-32.188774,-41.105965,147.84689,-34.080246,-43.906277,-16.284615,142.73077
2521500000,-16.918026,11.165731,-37.900341,-6.2857871,-30.955137,-39.900665,-31.967081,-33.37608,-37.904076,-5.8092585,-12.039907,-179.68822,-48.518261,-1.2840686,-41.263802,145.21837,-30.953468,-39.854294,-48.684116,-2.8754368,-13.66748,5.5821209,-33.99947,-45.338318,-32.025627,-33.499363,-41.300339,146.05492,-34.099857,-45.41753,-16.273699,142.14664
2522000000,-16.886927,11.401476,-37.990997,-6.8662834,-30.946714,-40.837746,-31.988241,-34.661549,-37.999279,-6.3960624,-12.012013,-179.89531,-48.71225,1.2878798,-41.440323,143.5334,-30.946339,-40.783092,-48.901939,-0.12587027,-13.620139,5.1845479,-34.024174,-46.868359,-32.047726,-34.79377,-41.47414,144.34277,-34.123047,-46.959583,-16.266247,141.53236
2522500000,-16.845966,11.622735,-38.06118,-7.3843684,-30.932312,-41.797253,-32.006699,-35.960133,-38.068363,-6.8859558,-11.986025,179.88681,-48.819839,3.9249802,-41.584431,141.89388,-30.933336,-41.74704,-49.021744,2.7687521,-13.574727,4.7660904,-34.050503,-48.392117,-32.066555,-36.10141,-41.627434,142.74557,-34.149765,-48.45755,-16.262581,140.90253
2523000000,-16.793144,11.819762,-38.125744,-7.9057717,-30.910654,-42.789471,-32.031467,-37.30555,-38.134281,-7.4197216,-11.962092,179.65875,-48.873142,6.4191275,-41.702919,140.19753,-30.909769,-42.734962,-49.085026,5.4837685,-13.530017,4.3454285,-34.084545,-49.903625,-32.092216,-37.4716,-41.750278,141.07544,-34.182423,-49.962341,-16.262833,140.26369
2523500000,-16.731466,11.987095,-38.190987,-8.3799562,-30.881557,-43.856415,-32.06398,-38.677631,-38.204388,-7.884038,-11.938964,179.44064,-48.891182,8.8582802,-41.806374,138.39453,-30.879766,-43.794796,-49.108566,8.24051,-13.487141,3.9199018,-34.125076,-51.415913,-32.12479,-38.851604,-41.851131,139.28328,-34.222752,-51.468815,-16.267904,139.63412
2524000000,-16.663326,12.121481,-38.252903,-8.7689257,-30.849014,-45.010628,-32.107037,-40.039398,-38.272778,-8.2605104,-11.919947,179.21179,-48.865944,11.262465,-41.905346,136.46062,-30.846445,-44.944458,-49.0495,10.826825,-13.447203,3.4918079,-34.174118,-52.890289,-32.16988,-40.229343,-41.953213,137.41373,-34.273243,-52.9534,-16.27796,138.99231
2524500000,-16.591175,12.203324,-38.294537,-9.0572004,-30.813877,-46.268047,-32.158424,-41.381912,-38.319344,-8.5124235,-11.900869,178.98485,-48.780075,13.478178,-42.013054,134.50389,-30.812267,-46.197227,-48.955158,13.128901,-13.405422,3.0719759,-34.232296,-54.326736,-32.222321,-41.572372,-42.063324,135.48946,-34.33073,-54.372986,-16.293365,138.37915
2525000000,-16.503841,12.25496,-38.315536,-9.388525,-30.78476,-47.633247,-32.214344,-42.715897,-38.341797,-8.7876291,-11.883092,178.75444,-48.688148,15.261977,-42.112255,132.51295,-30.78063,-47.56839,-48.855232,15.033344,-13.363632,2.6490352,-34.298592,-55.723209,-32.27858,-42.94165,-42.164337,133.5033,-34.395603,-55.754677,-16.313688,137.7807
2525500000,-16.414091,12.215335,-38.337528,-9.8035841,-30.761848,-49.084396,-32.283527,-44.075542,-38.355942,-9.0924234,-11.867355,178.53154,-48.663261,17.292601,-42.211754,130.51462,-30.757282,-49.020618,-48.820255,17.125456,-13.319335,2.2118919,-34.370407,-57.036953,-32.347374,-44.309425,-42.265934,131.55458,-34.465698,-57.035702,-16.336533,137.21001
2526000000,-16.32052,12.084087,-38.343269,-10.191128,-30.750488,-50.671246,-32.369244,-45.38549,-38.354404,-9.4590712,-11.853868,178.29546,-48.581215,19.285353,-42.326366,128.45253,-30.744951,-50.637802,-48.726849,19.056488,-13.279821,1.7559581,-34.441139,-58.241386,-32.436493,-45.644833,-42.367046,129.55945,-34.533241,-58.225594,-16.361801,136.67685
2526500000,-16.222502,11.87213,-38.346039,-10.700366,-30.756863,-52.342213,-32.470291,-46.6241,-38.350834,-9.968874,-11.842105,178.06252,-48.502365,21.240559,-42.437321,126.47749,-30.753937,-52.314274,-48.6535,21.121994,-13.242899,1.3026147,-34.506657,-59.369843,-32.53775,-46.901203,-42.471802,127.61554,-34.593437,-59.362751,-16.388317,136.15744
2527000000,-16.124971,11.557594,-38.362667,-11.258324,-30.785044,-54.04554,-32.586575,-47.732998,-38.358063,-10.524497,-11.832765,177.8264,-48.424805,23.419437,-42.530724,124.53844,-30.783573,-54.031639,-48.60984,23.272718,-13.208491,0.85184479,-34.56105,-60.472076,-32.655823,-48.039574,-42.560345,125.7085,-34.644371,-60.463821,-16.414707,135.67923
