!CSV A.01.01
!Keysight Technologies,N5222B,MY58422327,A.13.60.06
!Date: Monday, March 28, 2022 16:17:48
!Source: Standard

BEGIN CH1_DATA
Freq(Hz),S11(DB),S11(DEG),S12(DB),S12(DEG),S13(DB),S13(DEG),S14(DB),S14(DEG),S21(DB),S21(DEG),S22(DB),S22(DEG),S23(DB),S23(DEG),S24(DB),S24(DEG),S31(DB),S31(DEG),S32(DB),S32(DEG),S33(DB),S33(DEG),S34(DB),S34(DEG),S41(DB),S41(DEG),S42(DB),S42(DEG),S43(DB),S43(DEG),S44(DB),S44(DEG)
2500000000,-16.978495,22.660624,-34.346828,34.838558,-32.004303,1.9784708,-31.953396,6.6371918,-34.641529,33.526234,-13.419863,-173.88043,-39.061066,11.441661,-39.451435,-108.96014,-31.991192,1.4362308,-38.892609,11.417151,-15.62641,24.944973,-34.750793,-3.6158297,-32.013767,6.6162052,-39.486,-109.03027,-34.790363,-3.5080037,-16.351145,164.5717
2500500000,-16.964914,22.291189,-34.420494,33.354366,-31.94878,1.1552471,-32.025539,5.4849982,-34.728695,32.28455,-13.37699,-174.01047,-39.145145,9.8073721,-39.339996,-110.95277,-31.952768,0.6956346,-38.981003,9.7466793,-15.572696,24.415569,-34.776821,-4.3646479,-32.084808,5.4624677,-39.372276,-111.00123,-34.809845,-4.2967033,-16.342924,164.20049
2501000000,-16.947914,21.933012,-34.502476,31.882418,-31.900713,0.32865098,-32.104523,4.4287291,-34.820965,31.075012,-13.332423,-174.12134,-39.247726,8.1104364,-39.235725,-113.00102,-31.914089,-0.014169588,-39.078232,8.025588,-15.517839,23.879578,-34.801342,-5.1753197,-32.161469,4.3966155,-39.272057,-113.04099,-34.828026,-5.1522479,-16.333231,163.82216
2501500000,-16.925951,21.588501,-34.585434,30.494974,-31.861303,-0.44142732,-32.184082,3.5011182,-34.90416,29.934681,-13.290176,-174.24686,-39.37624,6.4653955,-39.151901,-115.0685,-31.877329,-0.67016816,-39.203117,6.3097119,-15.465486,23.336746,-34.837246,-5.978344,-32.238411,3.4628134,-39.18988,-115.09262,-34.856598,-6.015069,-16.320341,163.44699
2502000000,-16.90444,21.210352,-34.66943,29.103287,-31.823088,-1.1631147,-32.254887,2.6328921,-34.984341,28.792793,-13.249166,-174.37401,-39.51202,4.8764415,-39.075611,-117.03936,-31.835535,-1.2927395,-39.337315,4.5945077,-15.415206,22.789738,-34.874031,-6.8225055,-32.30508,2.5925517,-39.111477,-117.04525,-34.88974,-6.9254036,-16.305996,163.05884
2502500000,-16.879667,20.822971,-34.75787,27.754789,-31.783003,-1.8738624,-32.315662,1.8385571,-35.062206,27.680861,-13.20803,-174.49878,-39.654942,3.3462372,-38.99749,-118.92286,-31.782404,-1.9507552,-39.489498,2.9369445,-15.368411,22.250275,-34.928406,-7.6048002,-32.361549,1.7701716,-39.031612,-118.90102,-34.940857,-7.804934,-16.290316,162.64679
2503000000,-16.852953,20.411497,-34.84119,26.455009,-31.742804,-2.5527806,-32.366272,1.0622979,-35.132729,26.601494,-13.170744,-174.64542,-39.805115,1.8208501,-38.907101,-120.79557,-31.727737,-2.6323123,-39.658318,1.2773083,-15.323733,21.71689,-34.987698,-8.2464781,-32.410019,0.96119761,-38.936516,-120.80344,-35.00145,-8.5555115,-16.273479,162.23227
2503500000,-16.832649,19.970533,-34.925537,25.146824,-31.701492,-3.1720345,-32.408974,0.28734449,-35.195351,25.456024,-13.13394,-174.78798,-39.947208,0.24699923,-38.799049,-122.62535,-31.676479,-3.317909,-39.825249,-0.36020663,-15.282956,21.203054,-35.037182,-8.7097435,-32.45319,0.16126306,-38.832916,-122.62953,-35.059799,-9.1144142,-16.255022,161.80472
2504000000,-16.810848,19.53591,-35.011688,23.879044,-31.645664,-3.7678411,-32.44611,-0.50609547,-35.262733,24.321514,-13.097315,-174.92381,-40.103325,-1.4329838,-38.676022,-124.46087,-31.620008,-3.9848826,-40.011986,-2.0650313,-15.242523,20.71154,-35.063061,-9.1136312,-32.492344,-0.67815292,-38.707417,-124.46602,-35.097759,-9.6155005,-16.235308,161.3398
2504500000,-16.789825,19.108053,-35.095875,22.667395,-31.574881,-4.382082,-32.483772,-1.3244126,-35.328545,23.197786,-13.063725,-175.0723,-40.281281,-3.2556329,-38.524117,-126.40738,-31.55592,-4.6642127,-40.213066,-3.8182759,-15.200739,20.248678,-35.067646,-9.469286,-32.532883,-1.5085104,-38.553074,-126.42806,-35.116081,-10.030774,-16.212357,160.86748
2505000000,-16.765049,18.69735,-35.173195,21.418791,-31.497671,-5.0679789,-32.517967,-2.1017954,-35.389553,22.012142,-13.033031,-175.22729,-40.499512,-5.0973196,-38.345264,-128.52765,-31.487337,-5.3896322,-40.450321,-5.5644498,-15.158462,19.792191,-35.052498,-9.8498907,-32.570133,-2.3067408,-38.374855,-128.56277,-35.119644,-10.430392,-16.190042,160.34804
2505500000,-16.738605,18.276653,-35.248718,20.217129,-31.407282,-5.8151536,-32.553524,-2.9092243,-35.454277,20.866091,-13.002896,-175.36349,-40.755302,-6.9520411,-38.161919,-130.95949,-31.410002,-6.1582665,-40.721046,-7.2959833,-15.113513,19.337564,-35.013546,-10.263682,-32.608246,-3.1031489,-38.193626,-130.98216,-35.094528,-10.867011,-16.16647,159.80026
2506000000,-16.711338,17.849756,-35.316513,18.943005,-31.314714,-6.6998239,-32.589043,-3.6793721,-35.518871,19.663479,-12.975124,-175.4987,-41.0467,-8.7932806,-37.978832,-133.6758,-31.329262,-6.9967256,-41.020012,-8.9863396,-15.067816,18.887173,-34.959511,-10.788318,-32.646564,-3.86766,-38.012878,-133.68997,-35.053322,-11.363637,-16.143557,159.20351
2506500000,-16.682859,17.42264,-35.394505,17.566948,-31.228315,-7.6714134,-32.620266,-4.39713,-35.594986,18.385176,-12.948483,-175.63548,-41.390789,-10.569463,-37.81356,-136.64943,-31.249319,-7.9204593,-41.359982,-10.624599,-15.022014,18.43437,-34.892029,-11.425456,-32.68018,-4.567996,-37.848995,-136.67197,-34.998024,-11.966685,-16.123137,158.56941
2507000000,-16.656313,16.989204,-35.486134,16.183062,-31.142023,-8.7383041,-32.637024,-5.0905442,-35.686523,17.172863,-12.920795,-175.74596,-41.79744,-12.149122,-37.683029,-139.8477,-31.169353,-8.9172745,-41.762665,-12.080148,-14.975555,17.983217,-34.821022,-12.194745,-32.698814,-5.2763915,-37.716114,-139.87572,-34.938297,-12.699717,-16.108213,157.89496
2507500000,-16.624607,16.573862,-35.590279,14.811625,-31.064356,-9.8902254,-32.645802,-5.8803411,-35.782917,16.007786,-12.89421,-175.86124,-42.264549,-13.428175,-37.584412,-143.2056,-31.094624,-9.9819899,-42.209042,-13.234324,-14.928692,17.542364,-34.752991,-13.096655,-32.707413,-6.0348334,-37.622185,-143.22325,-34.878246,-13.569004,-16.098505,157.19991
2508000000,-16.596178,16.134438,-35.710602,13.464237,-30.99684,-11.13323,-32.660545,-6.726264,-35.881737,14.921059,-12.86599,-175.96362,-42.771526,-14.162998,-37.523769,-146.64665,-31.027468,-11.133512,-42.683739,-13.907971,-14.882577,17.106417,-34.695427,-14.092753,-32.719082,-6.8675575,-37.56559,-146.64398,-34.828545,-14.538517,-16.095285,156.49728
2508500000,-16.568647,15.684193,-35.840931,12.198347,-30.944981,-12.417579,-32.682861,-7.5778608,-35.97683,13.888216,-12.835748,-176.05434,-43.313725,-14.36236,-37.501812,-150.10123,-30.973047,-12.34347,-43.192261,-14.174125,-14.833347,16.681795,-34.649555,-15.152159,-32.740482,-7.7262187,-37.545536,-150.07495,-34.793644,-15.538336,-16.097322,155.79066
2509000000,-16.54838,15.212167,-35.984604,10.99064,-30.906597,-13.737616,-32.712124,-8.3982754,-36.072155,12.872685,-12.807083,-176.16669,-43.850441,-13.817082,-37.51096,-153.49689,-30.929501,-13.562799,-43.70549,-13.893003,-14.784253,16.262432,-34.617435,-16.197227,-32.768406,-8.5465403,-37.554295,-153.47234,-34.7672,-16.512888,-16.102095,155.10017
2509500000,-16.53096,14.741273,-36.135841,9.874506,-30.882217,-15.037591,-32.742298,-9.1457615,-36.16684,11.866313,-12.775478,-176.2757,-44.356483,-12.586679,-37.546173,-156.83318,-30.892323,-14.8027,-44.209934,-13.00296,-14.731653,15.847974,-34.593933,-17.192417,-32.800385,-9.3113279,-37.587723,-156.79073,-34.747234,-17.457191,-16.110027,154.41762
2510000000,-16.522409,14.270492,-36.292152,8.8824816,-30.867697,-16.341707,-32.773365,-9.8021688,-36.266434,10.866853,-12.742678,-176.37762,-44.795975,-10.81534,-37.597198,-160.0746,-30.863415,-16.045645,-44.675934,-11.571669,-14.677136,15.435323,-34.567905,-18.121817,-32.831402,-9.9780302,-37.635651,-160.04831,-34.722649,-18.322613,-16.121935,153.73193
2510500000,-16.525019,13.793091,-36.456249,7.9764438,-30.862089,-17.628021,-32.791859,-10.390129,-36.379375,9.9326124,-12.711577,-176.4986,-45.169506,-8.5329247,-37.657452,-163.31311,-30.842394,-17.318123,-45.097633,-9.5525122,-14.621574,15.007041,-34.534439,-19.016609,-32.852474,-10.563058,-37.694359,-163.2926,-34.68924,-19.15317,-16.134466,153.08717
2511000000,-16.53161,13.350147,-36.627918,7.2581587,-30.870117,-18.916048,-32.797482,-10.953656,-36.491722,9.1333256,-12.68031,-176.61273,-45.423454,-5.7795696,-37.730728,-166.52806,-30.836782,-18.598423,-45.422451,-6.8700757,-14.564436,14.562324,-34.490791,-19.928589,-32.856674,-11.122073,-37.766964,-166.5094,-34.641769,-19.995171,-16.150154,152.44051
2511500000,-16.541208,12.939251,-36.781624,6.7120862,-30.890131,-20.13825,-32.789207,-11.516132,-36.595352,8.4474974,-12.648384,-176.71468,-45.541618,-2.9940915,-37.824696,-169.74649,-30.844072,-19.842236,-45.620373,-3.9010358,-14.508259,14.098607,-34.436153,-20.881609,-32.84901,-11.67248,-37.860828,-169.73427,-34.582504,-20.921515,-16.168665,151.81316
2512000000,-16.554556,12.556578,-36.922478,6.2963905,-30.912226,-21.284422,-32.769402,-12.060472,-36.684685,7.8147907,-12.616002,-176.83145,-45.552586,-0.4826858,-37.941078,-172.88934,-30.856636,-21.0051,-45.689953,-0.97714341,-14.457621,13.609273,-34.384335,-21.945721,-32.827957,-12.238862,-37.975178,-172.85941,-34.527813,-21.966125,-16.188992,151.20654
2512500000,-16.56679,12.194238,-37.040195,5.9403119,-30.94417,-22.405903,-32.736557,-12.614025,-36.758278,7.187171,-12.583576,-176.94934,-45.48753,1.8242502,-38.0728,-175.97256,-30.879972,-22.155983,-45.650574,1.8743939,-14.407429,13.127823,-34.336655,-23.000221,-32.79644,-12.814231,-38.10471,-175.93088,-34.474388,-23.008024,-16.209084,150.63184
2513000000,-16.579369,11.842496,-37.14732,5.6568942,-30.976164,-23.406204,-32.683464,-13.210885,-36.825253,6.5854487,-12.550597,-177.06114,-45.312328,3.7008049,-38.222668,-178.99364,-30.902489,-23.192604,-45.468735,4.2249875,-14.360372,12.642241,-34.285007,-24.096973,-32.745922,-13.418661,-38.252502,-178.91823,-34.421173,-24.096291,-16.229979,150.06786
2513500000,-16.592077,11.502419,-37.2341,5.448,-31.005066,-24.343292,-32.615841,-13.926342,-36.878292,5.9728432,-12.518004,-177.17778,-45.074631,4.7364826,-38.384529,178.19968,-30.9196,-24.182259,-45.193928,5.8524795,-14.316802,12.159093,-34.231953,-25.225555,-32.678402,-14.13587,-38.411522,178.26277,-34.367401,-25.205719,-16.250631,149.52071
2514000000,-16.610222,11.162137,-37.298149,5.2761235,-31.022182,-25.249998,-32.538605,-14.778192,-36.923946,5.3385787,-12.484663,-177.29918,-44.831745,4.9908748,-38.551308,175.48209,-30.929733,-25.155817,-44.896809,6.4393511,-14.273624,11.687696,-34.181904,-26.40082,-32.60498,-14.982128,-38.568657,175.58884,-34.314495,-26.350698,-16.273146,148.97546
2514500000,-16.628183,10.851824,-37.334152,5.0801678,-31.0387,-26.199121,-32.462826,-15.741746,-36.965122,4.6481724,-12.451394,-177.42751,-44.62315,4.5306897,-38.714909,172.89067,-30.940022,-26.167484,-44.623077,6.1246796,-14.232544,11.219307,-34.132282,-27.609478,-32.53299,-15.945291,-38.728619,172.96582,-34.259254,-27.542301,-16.295193,148.46652
2515000000,-16.647816,10.561013,-37.355644,4.8481746,-31.054132,-27.133404,-32.391987,-16.83271,-37.003704,3.9440753,-12.418865,-177.55983,-44.489044,3.6516566,-38.875038,170.40819,-30.951775,-27.177526,-44.429482,5.2707782,-14.191504,10.762952,-34.086315,-28.862068,-32.465096,-17.01877,-38.885887,170.42488,-34.206688,-28.786892,-16.316113,147.97928
2515500000,-16.673525,10.288256,-37.353401,4.5233407,-31.072571,-28.064966,-32.33009,-18.009689,-37.037678,3.1655371,-12.387031,-177.69579,-44.404114,2.5739748,-39.028976,167.92874,-30.968811,-28.177116,-44.301929,4.0132546,-14.149888,10.309754,-34.042377,-30.098314,-32.404678,-18.163204,-39.028172,167.93393,-34.157242,-30.069151,-16.335123,147.52129
2516000000,-16.705503,10.047237,-37.33606,4.0264983,-31.092712,-28.950171,-32.27692,-19.252522,-37.080208,2.2891052,-12.353636,-177.82413,-44.398071,1.1247677,-39.175812,165.4184,-30.988869,-29.148327,-44.243038,2.4931929,-14.108291,9.8568211,-33.995487,-31.390924,-32.35133,-19.364758,-39.172428,165.35901,-34.108284,-31.366753,-16.352453,147.05077
2516500000,-16.741333,9.8777456,-37.324322,3.4037888,-31.110817,-29.788641,-32.235203,-20.532408,-37.142323,1.4325844,-12.321072,-177.96083,-44.460293,-0.34900159,-39.336437,162.91129,-31.008512,-30.080627,-44.269402,0.78896928,-14.067017,9.3975477,-33.952667,-32.74601,-32.304802,-20.62512,-39.331833,162.81226,-34.063725,-32.741428,-16.366896,146.63272
2517000000,-16.778996,9.7663088,-37.304012,2.7990983,-31.119095,-30.612064,-32.20232,-21.821947,-37.203541,0.7562179,-12.290311,-178.11253,-44.572792,-1.8037256,-39.49715,160.53587,-31.022057,-30.995924,-44.367973,-0.95838696,-14.029199,8.9378223,-33.917236,-34.115566,-32.26799,-21.891151,-39.499954,160.37608,-34.030457,-34.15205,-16.379183,146.21289
2517500000,-16.821548,9.7255783,-37.293041,2.0604906,-31.126713,-31.37874,-32.17004,-23.158398,-37.261562,0.080246709,-12.257582,-178.24854,-44.804653,-3.0865667,-39.656803,158.17212,-31.044312,-31.854494,-44.601242,-2.5584726,-13.99201,8.500926,-33.882389,-35.497169,-32.23204,-23.21052,-39.665688,157.99306,-34.001236,-35.554043,-16.387774,145.79659
2518000000,-16.860508,9.7635107,-37.269417,1.2690665,-31.116667,-32.147007,-32.14716,-24.53042,-37.301132,-0.53632909,-12.225688,-178.39928,-45.083649,-3.9563627,-39.807377,155.87973,-31.051397,-32.659134,-44.890682,-3.5585103,-13.956736,8.0792179,-33.851124,-36.934731,-32.207123,-24.57795,-39.825035,155.6808,-33.974724,-36.978569,-16.392868,145.39243
2518500000,-16.895416,9.8815718,-37.254032,0.26379177,-31.095509,-32.962425,-32.139019,-25.93301,-37.333832,-1.2565109,-12.19348,-178.55199,-45.383362,-4.3296623,-39.95023,153.57745,-31.048227,-33.494884,-45.210114,-4.0960803,-13.921238,7.6771107,-33.824608,-38.364254,-32.194912,-25.976469,-39.976917,153.39383,-33.951897,-38.39172,-16.392939,144.9688
2519000000,-16.923439,10.06089,-37.255077,-0.80639488,-31.068224,-33.87072,-32.140686,-27.298267,-37.364407,-1.9990528,-12.159631,-178.70271,-45.702858,-4.4579153,-40.095943,151.20877,-31.037189,-34.374634,-45.551113,-4.2745118,-13.884711,7.293375,-33.797989,-39.836391,-32.193058,-27.359089,-40.12278,151.01947,-33.929676,-39.821785,-16.388033,144.53008
2519500000,-16.939541,10.291584,-37.27145,-1.8961846,-31.041933,-34.853817,-32.151299,-28.622028,-37.394897,-2.8229182,-12.126379,-178.86708,-46.058552,-4.115447,-40.254341,148.81161,-31.026009,-35.296059,-45.9174,-3.8314421,-13.84517,6.9251304,-33.777,-41.356674,-32.199959,-28.693525,-40.283112,148.62544,-33.907604,-41.291546,-16.379463,144.07584
2520000000,-16.945774,10.542266,-37.303989,-3.0886226,-31.024544,-35.907619,-32.15966,-29.89465,-37.435848,-3.7368436,-12.094707,-179.04805,-46.405621,-3.1586952,-40.435543,146.41924,-31.015066,-36.270161,-46.253948,-2.7727559,-13.804289,6.5643573,-33.762039,-42.926208,-32.206791,-29.98534,-40.46384,146.2426,-33.892513,-42.845654,-16.369841,143.59657
2520500000,-16.94043,10.801228,-37.369015,-4.2645903,-31.010565,-36.939018,-32.167664,-31.187784,-37.495872,-4.6252227,-12.06181,-179.22505,-46.710239,-1.6991502,-40.62664,144.20572,-31.008366,-37.233356,-46.530445,-1.2542067,-13.761042,6.2017093,-33.762436,-44.52776,-32.213039,-31.302965,-40.65844,144.0127,-33.895313,-44.400169,-16.358395,143.09137
2521000000,-16.927128,11.053066,-37.458256,-5.3170643,-31.000397,-37.964653,-32.18058,-32.47776,-37.571613,-5.4535613,-12.033274,-179.42891,-46.959255,0.068509571,-40.817165,142.12233,-31.000597,-38.19231,-46.759193,0.44754261,-13.715136,5.8285742,-33.776096,-46.094017,-32.223797,-32.621723,-40.853817,141.91057,-33.905556,-45.896301,-16.34668,142.56631
2521500000,-16.901684,11.298879,-37.563164,-6.2433248,-30.98856,-38.97953,-32.193707,-33.742401,-37.654823,-6.2082491,-12.003767,-179.63255,-47.154198,2.0109742,-41.006248,140.19077,-30.985405,-39.146233,-46.927002,2.2480876,-13.66897,5.4347644,-33.789509,-47.633869,-32.238895,-33.91404,-41.044792,140.00998,-33.913998,-47.367405,-16.336277,142.00601
2522000000,-16.867683,11.530387,-37.669632,-6.8889189,-30.968599,-40.014729,-32.202339,-35.01302,-37.741585,-6.721056,-11.975449,-179.84497,-47.313442,4.3120465,-41.17659,138.38527,-30.965374,-40.125782,-47.061241,4.2357039,-13.62205,5.0308995,-33.809307,-49.183746,-32.250618,-35.217545,-41.220482,138.22426,-33.92606,-48.867111,-16.328848,141.41376
2522500000,-16.823805,11.744251,-37.755707,-7.3730946,-30.94607,-41.088028,-32.210262,-36.337963,-37.801231,-7.1703858,-11.949218,179.93149,-47.372196,6.6392212,-41.323704,136.6725,-30.943077,-41.154224,-47.121426,6.3121901,-13.577413,4.6116714,-33.837433,-50.728764,-32.261539,-36.552048,-41.364197,136.5703,-33.941071,-50.365257,-16.324816,140.80124
2523000000,-16.768402,11.92465,-37.826832,-7.8551693,-30.921463,-42.182571,-32.221653,-37.722042,-37.85907,-7.6724939,-11.924951,179.69502,-47.376774,8.857707,-41.435955,134.95891,-30.914238,-42.206295,-47.142113,8.1432686,-13.533087,4.1899157,-33.872021,-52.272221,-32.275295,-37.95586,-41.47438,134.88519,-33.960533,-51.889103,-16.324259,140.17896
2523500000,-16.703791,12.071236,-37.888069,-8.3189507,-30.891397,-43.345387,-32.243469,-39.170586,-37.910114,-8.1083097,-11.901414,179.47043,-47.337994,10.971632,-41.536652,133.12384,-30.881577,-43.341576,-47.14315,9.9372835,-13.489992,3.7622137,-33.916286,-53.796982,-32.303051,-39.414589,-41.569813,133.09544,-33.988834,-53.432579,-16.328463,139.56274
2524000000,-16.634241,12.178756,-37.942978,-8.7172623,-30.859644,-44.585991,-32.280605,-40.630817,-37.955589,-8.4745436,-11.881767,179.23335,-47.247025,12.831927,-41.636837,131.16878,-30.846539,-44.55426,-47.112522,11.62505,-13.449916,3.3276424,-33.970192,-55.273102,-32.342941,-40.876312,-41.66293,131.14581,-34.030201,-54.951843,-16.337114,138.93097
2524500000,-16.561171,12.234705,-37.978806,-9.0241785,-30.829521,-45.941948,-32.328819,-42.066124,-37.984669,-8.7905083,-11.861838,178.99794,-47.143265,14.34298,-41.742046,129.20482,-30.813425,-45.8568,-47.054829,13.223194,-13.409051,2.8978951,-34.030048,-56.696346,-32.39484,-42.299877,-41.754845,129.20634,-34.078079,-56.438835,-16.35137,138.32552
2525000000,-16.475611,12.256183,-37.990379,-9.3891773,-30.806122,-47.382828,-32.385265,-43.526108,-37.991383,-9.1634026,-11.843719,178.75784,-47.057491,15.505395,-41.840065,127.24334,-30.783943,-47.27573,-47.00272,14.467319,-13.368136,2.471375,-34.096756,-58.074627,-32.453674,-43.755482,-41.840992,127.20665,-34.132599,-57.869843,-16.370085,137.73257
2525500000,-16.387234,12.195192,-37.998924,-9.8723078,-30.790504,-48.897869,-32.459465,-44.991123,-38.000919,-9.6274824,-11.827706,178.52325,-47.008091,16.94025,-41.938526,125.23512,-30.759916,-48.758156,-46.990437,16.184473,-13.325105,2.033515,-34.167706,-59.354366,-32.528946,-45.208473,-41.928871,125.1424,-34.194351,-59.216743,-16.392721,137.16971
2526000000,-16.296177,12.049995,-37.998005,-10.376634,-30.79315,-50.546219,-32.556797,-46.420708,-38.004612,-10.087234,-11.814433,178.27644,-46.908932,18.305269,-42.033333,123.28539,-30.748611,-50.393829,-46.915215,17.639788,-13.286956,1.5783955,-34.234184,-60.546642,-32.626881,-46.628075,-42.024551,123.08855,-34.255238,-60.477718,-16.417433,136.64293
2526500000,-16.200338,11.827834,-37.994694,-11.006545,-30.813242,-52.216488,-32.672764,-47.764126,-38.003483,-10.656075,-11.80301,178.03073,-46.841736,19.621059,-42.128002,121.35453,-30.757689,-52.090454,-46.857964,19.094563,-13.251048,1.1262887,-34.290092,-61.66853,-32.744938,-47.95475,-42.119808,121.0933,-34.306293,-61.710438,-16.443642,136.12743
2527000000,-16.104374,11.512923,-38.009705,-11.705447,-30.856867,-53.90287,-32.810673,-48.949921,-38.015625,-11.241778,-11.794018,177.78534,-46.794567,21.132513,-42.200546,119.46317,-30.78759,-53.849892,-46.822647,20.716124,-13.217837,0.68207514,-34.337704,-62.794582,-32.878845,-49.135006,-42.20229,119.17761,-34.350601,-62.93684,-16.46899,135.65315
