!CSV A.01.01
!Keysight Technologies,N5222B,MY58422327,A.13.60.06
!Date: Monday, March 28, 2022 16:00:05
!Source: Standard

BEGIN CH1_DATA
Freq(Hz),S11(DB),S11(DEG),S12(DB),S12(DEG),S13(DB),S13(DEG),S14(DB),S14(DEG),S21(DB),S21(DEG),S22(DB),S22(DEG),S23(DB),S23(DEG),S24(DB),S24(DEG),S31(DB),S31(DEG),S32(DB),S32(DEG),S33(DB),S33(DEG),S34(DB),S34(DEG),S41(DB),S41(DEG),S42(DB),S42(DEG),S43(DB),S43(DEG),S44(DB),S44(DEG)
2500000000,-17.261301,25.895905,-36.187912,-8.4597979,-30.686518,4.3494287,-32.21225,23.109123,-36.242779,-8.2780027,-13.438366,-175.80746,-39.557819,29.396765,-39.379837,-88.228798,-30.642241,3.9622896,-39.482361,29.428457,-16.698803,24.462889,-33.28574,-5.9570274,-32.257652,22.943394,-39.344803,-88.163002,-33.345444,-6.1734548,-16.109028,165.73926
2500500000,-17.239553,25.534948,-36.282646,-10.153218,-30.699316,3.5339994,-32.304008,21.988098,-36.339062,-9.9958782,-13.397509,-175.9281,-39.680649,28.481047,-39.322712,-89.757942,-30.662287,3.1298242,-39.617626,28.494457,-16.633764,24.027115,-33.246372,-6.5461001,-32.350136,21.834543,-39.284302,-89.702705,-33.307552,-6.7729611,-16.097628,165.32317
2501000000,-17.213604,25.182863,-36.387981,-11.911407,-30.712715,2.7323561,-32.406006,20.971983,-36.450058,-11.758585,-13.354819,-176.03131,-39.819229,27.516018,-39.261879,-91.37719,-30.683769,2.3351247,-39.760372,27.547861,-16.567369,23.586405,-33.199734,-7.3034105,-32.454414,20.808613,-39.222389,-91.41394,-33.264565,-7.5403037,-16.086197,164.8933
2501500000,-17.182869,24.843098,-36.496014,-13.527762,-30.729034,1.9849149,-32.51487,20.125914,-36.566502,-13.391329,-13.314098,-176.14607,-39.97131,26.650969,-39.215454,-93.046951,-30.709465,1.6202184,-39.915298,26.678602,-16.501993,23.129345,-33.159554,-8.1459007,-32.563454,19.968704,-39.17506,-93.148735,-33.226952,-8.3979015,-16.073549,164.46651
2502000000,-17.152281,24.474903,-36.59877,-15.142033,-30.749081,1.2922145,-32.622925,19.380688,-36.679485,-14.985674,-13.274129,-176.25883,-40.124271,25.904041,-39.158119,-94.713142,-30.735807,0.95318973,-40.079933,25.882219,-16.439047,22.675564,-33.129654,-9.1033993,-32.670364,19.222822,-39.120872,-94.868141,-33.198948,-9.3571301,-16.060513,164.03232
2502500000,-17.117052,24.099215,-36.706455,-16.747793,-30.768782,0.62367082,-32.726471,18.763868,-36.794792,-16.556162,-13.233186,-176.37308,-40.268517,25.19314,-39.092228,-96.394592,-30.758661,0.34186631,-40.227184,25.203362,-16.379253,22.209059,-33.11348,-10.109335,-32.773197,18.603373,-39.060596,-96.622154,-33.186523,-10.359806,-16.047173,163.58492
2503000000,-17.07761,23.702202,-36.811153,-18.305124,-30.791353,0.023578776,-32.819576,18.26158,-36.908993,-18.028732,-13.194943,-176.51501,-40.409561,24.499729,-39.021481,-98.180687,-30.782518,-0.20249723,-40.375183,24.520357,-16.320929,21.748137,-33.115696,-11.071758,-32.865593,18.087397,-38.99369,-98.471001,-33.189938,-11.322416,-16.032024,163.13931
2503500000,-17.041346,23.270596,-36.905521,-19.847977,-30.81419,-0.44861773,-32.904007,17.863146,-37.003075,-19.486668,-13.156743,-176.66319,-40.532562,23.74131,-38.933331,-100.00513,-30.799732,-0.64829665,-40.509064,23.783981,-16.266499,21.300285,-33.120213,-11.928661,-32.947567,17.691473,-38.917049,-100.32497,-33.198475,-12.189471,-16.015583,162.68317
2504000000,-17.001785,22.822353,-37.004238,-21.44816,-30.822636,-0.81963515,-32.974239,17.57221,-37.097702,-20.987043,-13.118987,-176.81673,-40.66803,22.907793,-38.829884,-101.96537,-30.804619,-0.98491007,-40.652981,23.005003,-16.212862,20.867987,-33.124523,-12.746201,-33.019623,17.382944,-38.828823,-102.30796,-33.204105,-13.026394,-15.998011,162.19228
2504500000,-16.961153,22.362558,-37.099987,-23.028324,-30.815792,-1.1261177,-33.028328,17.367853,-37.179176,-22.478851,-13.084802,-176.98999,-40.815926,21.964264,-38.7206,-104.14699,-30.788801,-1.2659758,-40.803753,22.134327,-16.158604,20.455885,-33.123184,-13.506119,-33.074455,17.157389,-38.727734,-104.47826,-33.206936,-13.75705,-15.976921,161.69392
2505000000,-16.917942,21.883337,-37.191044,-24.659359,-30.789812,-1.4011608,-33.058468,17.216293,-37.253258,-24.068089,-13.054409,-177.17995,-40.990669,21.038445,-38.611301,-106.57728,-30.753731,-1.5322998,-40.980598,21.294312,-16.104753,20.045988,-33.118923,-14.206692,-33.103859,16.994505,-38.627377,-106.8898,-33.203754,-14.4731,-15.957047,161.14485
2505500000,-16.874916,21.367853,-37.285275,-26.296444,-30.735065,-1.6863836,-33.07058,17.056677,-37.331638,-25.691221,-13.025737,-177.36168,-41.196831,20.097492,-38.51067,-109.26679,-30.694582,-1.8324723,-41.175819,20.415836,-16.049177,19.64319,-33.097626,-14.913802,-33.116379,16.82505,-38.534206,-109.52176,-33.184044,-15.150978,-15.937046,160.56886
2506000000,-16.834433,20.831072,-37.375114,-28.035658,-30.661112,-2.0682807,-33.064804,16.891047,-37.400223,-27.47526,-13.001257,-177.54863,-41.432308,19.221733,-38.431343,-112.18793,-30.615353,-2.2285252,-41.398582,19.573027,-15.992763,19.247448,-33.066761,-15.605919,-33.113052,16.638969,-38.459618,-112.43923,-33.154613,-15.855923,-15.9183,159.95085
2506500000,-16.795761,20.28137,-37.469372,-29.937485,-30.575428,-2.5357287,-33.03508,16.738638,-37.482132,-29.451223,-12.98029,-177.7412,-41.703411,18.501225,-38.377842,-115.35715,-30.526802,-2.7217367,-41.65852,18.886454,-15.935489,18.857803,-33.02689,-16.352921,-33.091511,16.480286,-38.412758,-115.56489,-33.116734,-16.583031,-15.902706,159.3065
2507000000,-16.763145,19.723042,-37.593353,-31.878078,-30.474173,-3.1296418,-32.984325,16.4967,-37.593987,-31.490051,-12.960879,-177.90506,-42.012218,18.075552,-38.374874,-118.7226,-30.423267,-3.3475552,-41.965508,18.432552,-15.87587,18.465616,-32.981239,-17.112633,-33.044655,16.235796,-38.410183,-118.88861,-33.072289,-17.343107,-15.892338,158.63159
2507500000,-16.728647,19.181747,-37.735531,-33.786678,-30.371717,-3.889847,-32.9175,16.133299,-37.727982,-33.542324,-12.945027,-178.06856,-42.349125,18.089796,-38.41721,-122.17297,-30.31999,-4.13586,-42.292877,18.385416,-15.814671,18.075191,-32.925377,-17.923775,-32.982143,15.874651,-38.453041,-122.29508,-33.017532,-18.150944,-15.885934,157.94446
2508000000,-16.701689,18.619427,-37.88765,-35.726849,-30.272627,-4.768436,-32.850174,15.630183,-37.882851,-35.615673,-12.929152,-178.2049,-42.674339,18.575312,-38.508041,-125.61016,-30.222624,-5.0452847,-42.620487,18.877714,-15.754141,17.680063,-32.86628,-18.810268,-32.916866,15.399508,-38.540569,-125.70528,-32.959476,-19.027475,-15.884335,157.24722
2508500000,-16.677481,18.064629,-38.058559,-37.591728,-30.179346,-5.7431598,-32.784714,15.054978,-38.065895,-37.63208,-12.912963,-178.31508,-42.980942,19.546934,-38.641495,-128.99222,-30.130461,-6.0370231,-42.921806,19.808966,-15.690665,17.288324,-32.806076,-19.74136,-32.852055,14.850744,-38.66909,-129.08446,-32.900291,-19.975924,-15.887455,156.5421
2509000000,-16.663013,17.494095,-38.239811,-39.460926,-30.092457,-6.7850075,-32.717484,14.420324,-38.262085,-39.565197,-12.89879,-178.43269,-43.226463,20.970772,-38.807831,-132.20018,-30.046095,-7.1132965,-43.171211,21.245642,-15.627218,16.890713,-32.744198,-20.730179,-32.78569,14.260265,-38.832066,-132.31996,-32.840034,-20.958801,-15.893305,155.85057
2509500000,-16.654787,16.943777,-38.435944,-41.280022,-30.013052,-7.9216423,-32.651169,13.769505,-38.473148,-41.486153,-12.881774,-178.53076,-43.399693,22.670954,-38.994102,-135.28145,-29.969467,-8.243803,-43.340111,22.960787,-15.561833,16.485662,-32.68465,-21.743521,-32.718796,13.636532,-39.017326,-135.42325,-32.784405,-21.97407,-15.903204,155.16403
2510000000,-16.657068,16.416231,-38.641651,-43.13203,-29.941845,-9.0988464,-32.582382,13.08709,-38.703705,-43.396435,-12.862261,-178.60898,-43.485889,24.38187,-39.19511,-138.2444,-29.901632,-9.4535646,-43.421551,24.661282,-15.495946,16.076725,-32.624203,-22.802162,-32.645981,12.989865,-39.219475,-138.3969,-32.725555,-23.018213,-15.917185,154.47731
2510500000,-16.670429,15.911574,-38.876854,-44.94553,-29.877401,-10.363634,-32.508595,12.393398,-38.960567,-45.162785,-12.843576,-178.69533,-43.510967,26.124762,-39.40575,-141.11546,-29.843304,-10.721303,-43.450275,26.338388,-15.431198,15.649536,-32.561916,-23.874126,-32.569637,12.28475,-39.427677,-141.32201,-32.665607,-24.103735,-15.931118,153.83517
2511000000,-16.685501,15.461245,-39.139832,-46.586716,-29.827255,-11.66924,-32.434093,11.629115,-39.24218,-46.74509,-12.822865,-178.76936,-43.453224,27.761023,-39.61832,-143.9467,-29.797731,-12.021038,-43.401669,27.956364,-15.366369,15.207915,-32.495815,-24.994783,-32.492443,11.529036,-39.64296,-144.15916,-32.600742,-25.216089,-15.948017,153.19075
2511500000,-16.703547,15.055221,-39.406601,-47.989536,-29.791454,-13.005581,-32.359058,10.850571,-39.531635,-48.068268,-12.800101,-178.82976,-43.328156,29.147717,-39.842613,-146.74313,-29.766409,-13.341277,-43.286015,29.26634,-15.303512,14.751146,-32.427166,-26.203226,-32.412258,10.739857,-39.877617,-147.01247,-32.534,-26.399719,-15.967524,152.56395
2512000000,-16.722588,14.684601,-39.67004,-49.228188,-29.762466,-14.350564,-32.276382,10.049785,-39.81097,-49.169292,-12.775631,-178.90738,-43.162594,30.061487,-40.082741,-149.54312,-29.741064,-14.658916,-43.129719,30.141148,-15.248528,14.267797,-32.367085,-27.501673,-32.325336,9.9321547,-40.123581,-149.84999,-32.476639,-27.688797,-15.989995,151.95757
2512500000,-16.740318,14.33635,-39.908627,-50.374123,-29.753536,-15.710651,-32.186104,9.2329521,-40.069038,-50.143929,-12.751925,-178.98805,-42.963257,30.706871,-40.348106,-152.34201,-29.734898,-15.995349,-42.941479,30.773397,-15.195583,13.807863,-32.311951,-28.790251,-32.233849,9.0883589,-40.388901,-152.69734,-32.424103,-28.96117,-16.012135,151.38579
2513000000,-16.756306,13.999423,-40.141548,-51.4678,-29.758562,-17.056511,-32.081959,8.3215303,-40.310406,-51.045895,-12.727523,-179.05962,-42.730888,30.822496,-40.633076,-155.11664,-29.741081,-17.29089,-42.71722,30.929361,-15.146568,13.355264,-32.261066,-30.124136,-32.130371,8.1672487,-40.680176,-155.47624,-32.371826,-30.275135,-16.03557,150.83231
2513500000,-16.772921,13.67412,-40.358479,-52.590641,-29.772615,-18.329691,-31.97175,7.2975063,-40.529739,-51.950165,-12.702984,-179.13484,-42.508743,30.401394,-40.938091,-157.73595,-29.753357,-18.529713,-42.500359,30.575222,-15.101109,12.916922,-32.213566,-31.484245,-32.021938,7.1126919,-40.998787,-158.1156,-32.325928,-31.615229,-16.058802,150.30217
2514000000,-16.794117,13.344966,-40.582638,-53.757454,-29.793344,-19.557888,-31.865883,6.1175847,-40.739952,-52.916916,-12.677364,-179.20959,-42.314205,29.482809,-41.253735,-160.26184,-29.769037,-19.719593,-42.312607,29.755644,-15.055725,12.503951,-32.171413,-32.872002,-31.918205,5.9331179,-41.324093,-160.64139,-32.279762,-32.975571,-16.082644,149.78052
2514500000,-16.815601,13.048049,-40.813194,-55.033394,-29.81978,-20.761936,-31.765547,4.8482823,-40.94101,-54.02076,-12.651581,-179.28877,-42.176189,28.166655,-41.587669,-162.75919,-29.787977,-20.894398,-42.175514,28.538477,-15.011164,12.105657,-32.132233,-34.303127,-31.820618,4.648829,-41.6726,-163.11397,-32.236115,-34.391888,-16.104904,149.29796
2515000000,-16.840336,12.774602,-41.067604,-56.331383,-29.853798,-21.911669,-31.677021,3.4523191,-41.177917,-55.196831,-12.62627,-179.36798,-42.101204,26.723049,-41.939037,-165.10001,-29.814695,-22.0369,-42.098007,27.187235,-14.965169,11.719845,-32.100281,-35.748253,-31.735531,3.2757616,-42.038517,-165.40359,-32.204659,-35.840679,-16.124687,148.83992
2515500000,-16.87232,12.537791,-41.343048,-57.557163,-29.890656,-23.011248,-31.600107,2.0194824,-41.426201,-56.295643,-12.601471,-179.44794,-42.075199,25.265633,-42.28569,-167.27513,-29.845818,-23.13517,-42.063236,25.786533,-14.917732,11.342842,-32.071014,-37.175983,-31.659966,1.8302596,-42.402725,-167.55956,-32.176846,-37.264114,-16.140274,148.40628
2516000000,-16.909679,12.349385,-41.624443,-58.774235,-29.933733,-24.0317,-31.537786,0.50473535,-41.682465,-57.409134,-12.574463,-179.50848,-42.096283,23.694368,-42.653713,-169.52306,-29.881563,-24.178627,-42.071949,24.252459,-14.869118,10.975279,-32.041351,-38.630005,-31.597809,0.32838225,-42.772545,-169.70738,-32.145832,-38.707077,-16.153708,147.95871
2516500000,-16.949862,12.25306,-41.937485,-59.975716,-29.97629,-24.985428,-31.492065,-1.0456157,-41.979797,-58.577293,-12.546837,-179.57513,-42.174786,22.182449,-43.053448,-171.57033,-29.918186,-25.168663,-42.131435,22.765877,-14.819437,10.597507,-32.013241,-40.122948,-31.553453,-1.2156205,-43.180202,-171.65411,-32.119946,-40.218075,-16.162626,147.55341
2517000000,-16.98745,12.229733,-42.311745,-60.920082,-30.008123,-25.885691,-31.466333,-2.5865593,-42.325993,-59.416088,-12.518625,-179.6608,-42.296078,20.691198,-43.456081,-173.36583,-29.95014,-26.09758,-42.240227,21.286936,-14.770731,10.218987,-31.996466,-41.665447,-31.527399,-2.7248549,-43.601685,-173.32837,-32.102375,-41.75774,-16.168579,147.13443
2517500000,-17.027252,12.275049,-42.684086,-61.62373,-30.045588,-26.723934,-31.448406,-4.0897813,-42.661072,-60.089588,-12.487651,-179.73666,-42.498932,19.443398,-43.858101,-175.03719,-29.98794,-26.965263,-42.430996,20.026445,-14.722626,9.860342,-31.988583,-43.207878,-31.507383,-4.2297616,-44.021881,-174.83852,-32.093777,-43.289864,-16.170897,146.70808
2518000000,-17.060036,12.399646,-43.057339,-61.913868,-30.06761,-27.499481,-31.442129,-5.5610638,-43.001907,-60.413044,-12.456715,-179.82997,-42.726799,18.568096,-44.269279,-176.5038,-30.011963,-27.764196,-42.643421,19.141842,-14.674896,9.5139589,-31.98362,-44.725872,-31.499691,-5.7000265,-44.442516,-176.09656,-32.088921,-44.810211,-16.170378,146.28049
2518500000,-17.08569,12.596465,-43.41267,-62.053944,-30.075775,-28.271877,-31.445223,-6.9950995,-43.31929,-60.646172,-12.425229,-179.92957,-42.963051,18.072392,-44.672096,-177.85936,-30.024048,-28.555937,-42.86869,18.54969,-14.624857,9.1848679,-31.979786,-46.244431,-31.501816,-7.1134348,-44.82766,-177.13696,-32.085434,-46.316338,-16.166126,145.82135
2519000000,-17.10117,12.831818,-43.759415,-62.024162,-30.077211,-29.094257,-31.451586,-8.3530273,-43.637012,-60.734856,-12.3921,179.97002,-43.216568,17.777433,-45.08065,-179.1118,-30.029308,-29.393358,-43.123806,18.188694,-14.572957,8.866271,-31.97743,-47.795589,-31.507183,-8.4827919,-45.187023,-178.11371,-32.082272,-47.867947,-16.160204,145.3459
2519500000,-17.103903,13.093488,-44.094345,-61.767101,-30.077291,-29.949577,-31.458088,-9.6524544,-43.949493,-60.673527,-12.358904,179.85168,-43.484417,17.928743,-45.488235,179.77441,-30.030127,-30.253641,-43.395443,18.330343,-14.517097,8.5505943,-31.981689,-49.400822,-31.513584,-9.788497,-45.546772,-179.02692,-32.085751,-49.456886,-16.152246,144.85492
2520000000,-17.097698,13.350196,-44.40313,-61.530537,-30.076405,-30.811756,-31.46106,-10.940753,-44.248287,-60.537205,-12.327119,179.71625,-43.733227,18.479595,-45.904415,178.86761,-30.032001,-31.128748,-43.640087,18.7757,-14.459137,8.2307796,-31.997328,-51.023746,-31.513699,-11.082199,-45.896328,-179.8829,-32.099667,-51.076927,-16.144526,144.34106
2520500000,-17.081697,13.602136,-44.719536,-61.161293,-30.072729,-31.666462,-31.460999,-12.23266,-44.55381,-60.27457,-12.293623,179.58336,-43.955555,19.354517,-46.29388,178.3342,-30.029938,-32.008312,-43.872875,19.603945,-14.39951,7.8961878,-32.025787,-52.655777,-31.511602,-12.373917,-46.232285,179.47852,-32.125702,-52.681435,-16.137047,143.80774
2521000000,-17.059635,13.837284,-45.025204,-60.666225,-30.064985,-32.538101,-31.463112,-13.53798,-44.853455,-59.855686,-12.263449,179.41312,-44.150646,20.481049,-46.623837,177.95624,-30.026249,-32.894806,-44.073883,20.756063,-14.337662,7.5455499,-32.064079,-54.22081,-31.512115,-13.685935,-46.531483,178.95203,-32.15863,-54.260185,-16.129925,143.25667
2521500000,-17.026888,14.054543,-45.336582,-59.991039,-30.053249,-33.413792,-31.463547,-14.824203,-45.142616,-59.290558,-12.233041,179.23857,-44.307415,21.882086,-46.906715,177.79919,-30.017323,-33.777798,-44.23283,22.122496,-14.275887,7.1614728,-32.103264,-55.766758,-31.51038,-14.975918,-46.785717,178.5383,-32.195488,-55.790237,-16.126394,142.68808
2522000000,-16.988005,14.246089,-45.665958,-59.070141,-30.033993,-34.318783,-31.461117,-16.141401,-45.441639,-58.511234,-12.203531,179.05377,-44.4202,23.58289,-47.11676,177.51846,-30.001804,-34.699234,-44.345219,23.885048,-14.214209,6.7594709,-32.147644,-57.28894,-31.508415,-16.325954,-46.981865,177.98576,-32.239643,-57.33651,-16.125513,142.10925
2522500000,-16.942856,14.422718,-45.956596,-57.712257,-30.010267,-35.272709,-31.460543,-17.513685,-45.709511,-57.466816,-12.176548,178.85037,-44.441376,25.409058,-47.275974,176.93071,-29.983841,-35.662086,-44.37085,25.68751,-14.155899,6.3354158,-32.198929,-58.785343,-31.507977,-17.708181,-47.153049,177.13708,-32.288258,-58.849785,-16.12715,141.52438
2523000000,-16.889242,14.577779,-46.202755,-56.195946,-29.980219,-36.274353,-31.465179,-18.945293,-45.934322,-56.268684,-12.151761,178.6355,-44.417461,27.022066,-47.421112,175.94063,-29.962488,-36.685745,-44.337891,27.289204,-14.099237,5.9024,-32.251141,-60.268997,-31.514574,-19.165058,-47.294758,175.87137,-32.339622,-60.339115,-16.130766,140.94576
2523500000,-16.829411,14.716012,-46.427753,-54.520412,-29.951649,-37.38802,-31.480867,-20.442232,-46.174828,-55.048134,-12.127697,178.42955,-44.350204,28.633394,-47.568649,174.46432,-29.940535,-37.775135,-44.279587,28.924669,-14.045033,5.4621863,-32.311699,-61.749241,-31.534191,-20.661781,-47.446438,174.30296,-32.399601,-61.822754,-16.13714,140.37973
2524000000,-16.764168,14.834736,-46.628845,-52.599289,-29.927984,-38.554047,-31.513321,-21.927797,-46.399208,-53.552612,-12.107716,178.20433,-44.236179,30.086014,-47.751514,172.75618,-29.922733,-38.929878,-44.158081,30.368797,-13.995593,5.0152497,-32.379807,-63.165344,-31.569456,-22.180084,-47.636276,172.43167,-32.467655,-63.265701,-16.146212,139.80699
2524500000,-16.696226,14.919198,-46.746792,-50.312279,-29.907839,-39.804123,-31.560333,-23.410015,-46.576485,-51.577663,-12.087889,177.98021,-44.07872,31.309143,-47.959877,170.99963,-29.908503,-40.134796,-43.996849,31.515121,-13.945054,4.573679,-32.454674,-64.525314,-31.620708,-23.648832,-47.837688,170.45604,-32.538101,-64.64463,-16.158215,139.25542
2525000000,-16.614643,14.982368,-46.766079,-47.969093,-29.897068,-41.123119,-31.620874,-24.857565,-46.669731,-49.422253,-12.070172,177.74942,-43.917923,32.096142,-48.17469,168.9424,-29.905067,-41.437561,-43.837467,32.267406,-13.895087,4.1371651,-32.528206,-65.815956,-31.684155,-25.103271,-48.05154,168.19417,-32.609447,-65.951218,-16.174379,138.7171
2525500000,-16.530468,14.981232,-46.716137,-46.067341,-29.900013,-42.457233,-31.698723,-26.269213,-46.689125,-47.453407,-12.055586,177.52121,-43.768276,33.057232,-48.409092,166.61348,-29.910627,-42.734142,-43.68391,33.201141,-13.84381,3.6747801,-32.59761,-67.075249,-31.764753,-26.484203,-48.311054,165.83926,-32.679043,-67.233757,-16.191051,138.20253
2526000000,-16.441504,14.912818,-46.619511,-44.270515,-29.916868,-43.858063,-31.792244,-27.578983,-46.647583,-45.443314,-12.044532,177.27666,-43.569939,33.707813,-48.721924,164.55904,-29.929293,-44.089771,-43.493771,33.799908,-13.799592,3.2019346,-32.672367,-68.298164,-31.860138,-27.789148,-48.648438,163.53752,-32.755619,-68.492035,-16.208679,137.7258
2526500000,-16.345352,14.777506,-46.463966,-42.945095,-29.946867,-45.229614,-31.900389,-28.772434,-46.530872,-43.829681,-12.036224,177.03955,-43.385502,34.108215,-49.027813,162.6391,-29.960886,-45.412464,-43.319901,34.198376,-13.759292,2.7382164,-32.745476,-69.458313,-31.96707,-28.978041,-48.96257,161.50706,-32.827637,-69.673828,-16.22607,137.25098
2527000000,-16.247955,14.553084,-46.301338,-42.12405,-29.991116,-46.5676,-32.018082,-29.790165,-46.388992,-42.734703,-12.031543,176.80165,-43.214535,34.342892,-49.302307,160.82457,-30.003019,-46.71199,-43.159298,34.463516,-13.721353,2.2902467,-32.813019,-70.61837,-32.085995,-29.992573,-49.271542,159.56404,-32.899979,-70.859299,-16.241238,136.80286
