!CSV A.01.01
!Keysight Technologies,N5222B,MY58422327,A.13.60.06
!Date: Monday, March 28, 2022 16:33:04
!Source: Standard

BEGIN CH1_DATA
Freq(Hz),S11(DB),S11(DEG),S12(DB),S12(DEG),S13(DB),S13(DEG),S14(DB),S14(DEG),S21(DB),S21(DEG),S22(DB),S22(DEG),S23(DB),S23(DEG),S24(DB),S24(DEG),S31(DB),S31(DEG),S32(DB),S32(DEG),S33(DB),S33(DEG),S34(DB),S34(DEG),S41(DB),S41(DEG),S42(DB),S42(DEG),S43(DB),S43(DEG),S44(DB),S44(DEG)
2500000000,-17.288559,22.761787,-32.963108,26.50445,-32.841522,-7.3588433,-34.154831,6.4969687,-33.008465,26.183599,-13.404904,-173.79153,-40.232021,10.428479,-41.179043,-122.04926,-32.797203,-7.5053687,-40.172592,10.584024,-15.462293,24.917833,-34.043468,-13.718731,-34.209965,6.3652043,-41.183369,-122.03761,-34.128426,-13.722783,-16.610647,164.47609
2500500000,-17.278456,22.44681,-33.042046,25.2314,-32.82616,-7.9989414,-34.26828,5.3904505,-33.090786,24.885578,-13.361526,-173.94072,-40.345917,8.7071514,-41.027088,-123.8175,-32.78566,-8.1620598,-40.280201,8.8022556,-15.412563,24.376551,-34.062435,-14.569849,-34.320183,5.2477798,-41.0312,-123.79625,-34.144115,-14.562703,-16.603275,164.15712
2501000000,-17.265421,22.141012,-33.126781,23.974028,-32.810658,-8.6025333,-34.388016,4.4341412,-33.177345,23.613749,-13.317107,-174.07263,-40.48011,6.8827844,-40.878944,-125.71947,-32.775188,-8.7528868,-40.411827,6.974546,-15.3613,23.83045,-34.077229,-15.513716,-34.440948,4.2721004,-40.882263,-125.65824,-34.158791,-15.49814,-16.594299,163.83138
2501500000,-17.249096,21.841457,-33.202457,22.784657,-32.797722,-9.1207952,-34.509613,3.6502829,-33.258617,22.408266,-13.276032,-174.21745,-40.639423,5.1491179,-40.754105,-127.64856,-32.765129,-9.2826195,-40.579617,5.2527866,-15.31191,23.272898,-34.098015,-16.498133,-34.56356,3.4999669,-40.75042,-127.5527,-34.178661,-16.475979,-16.581741,163.50911
2502000000,-17.232904,21.51685,-33.273594,21.587366,-32.776928,-9.5736027,-34.619316,2.9779046,-33.33411,21.194431,-13.236526,-174.36032,-40.820881,3.4454925,-40.639744,-129.54225,-32.749249,-9.7215042,-40.756821,3.5906727,-15.264315,22.716473,-34.126339,-17.544046,-34.674263,2.8152895,-40.630299,-129.44209,-34.203598,-17.516741,-16.567089,163.17245
2502500000,-17.21287,21.190033,-33.345272,20.402777,-32.745193,-10.014759,-34.72147,2.4422743,-33.411793,20.000843,-13.197145,-174.49907,-41.014477,1.860198,-40.533539,-131.33244,-32.720207,-10.177803,-40.952866,2.0518696,-15.220377,22.156885,-34.171112,-18.603945,-34.778294,2.2578468,-40.515476,-131.23268,-34.244808,-18.572313,-16.550619,162.81285
2503000000,-17.19083,20.845015,-33.409599,19.215738,-32.71402,-10.464984,-34.808701,1.9617631,-33.480156,18.834379,-13.161829,-174.65417,-41.223907,0.31737721,-40.414978,-133.08853,-32.689926,-10.608196,-41.149776,0.54913276,-15.180197,21.608002,-34.227924,-19.583755,-34.86581,1.7842515,-40.393997,-133.02098,-34.302593,-19.557808,-16.532661,162.44769
2503500000,-17.173616,20.473978,-33.471508,18.008018,-32.677677,-10.873713,-34.883965,1.5543609,-33.544716,17.620892,-13.12746,-174.80049,-41.429535,-1.158982,-40.2892,-134.76947,-32.655022,-11.017368,-41.338177,-0.87738681,-15.142921,21.07617,-34.290096,-20.440273,-34.943192,1.3592997,-40.262165,-134.72765,-34.362995,-20.418428,-16.513193,162.07025
2504000000,-17.153358,20.102987,-33.535824,16.778345,-32.63179,-11.216961,-34.947754,1.1255144,-33.614346,16.419947,-13.092547,-174.93724,-41.644291,-2.6296599,-40.134487,-136.43333,-32.611206,-11.34699,-41.537422,-2.390043,-15.107637,20.573065,-34.345024,-21.237871,-35.00518,0.95229912,-40.108147,-136.43442,-34.413338,-21.214989,-16.493074,161.65704
2504500000,-17.133278,19.740223,-33.599674,15.577287,-32.567459,-11.537611,-35.003113,0.75439858,-33.677399,15.237946,-13.06064,-175.08194,-41.858562,-4.2358251,-39.944317,-138.17422,-32.54678,-11.674509,-41.739334,-4.0315189,-15.071942,20.100384,-34.392738,-21.925777,-35.060768,0.57571673,-39.924278,-138.22902,-34.460785,-21.941034,-16.468264,161.23695
2505000000,-17.109303,19.388254,-33.657307,14.2986,-32.484188,-11.909283,-35.043621,0.42424959,-33.739838,13.998396,-13.031363,-175.22913,-42.107876,-5.8071332,-39.720425,-140.08046,-32.467457,-12.037106,-41.982327,-5.6881676,-15.035185,19.638651,-34.431591,-22.560165,-35.104401,0.24697463,-39.703804,-140.16879,-34.499649,-22.608738,-16.443689,160.76968
2505500000,-17.082209,19.019619,-33.722202,13.034996,-32.380592,-12.367578,-35.078911,0.067552641,-33.803902,12.753588,-13.001452,-175.35838,-42.385452,-7.4516444,-39.484646,-142.31902,-32.364384,-12.470647,-42.256721,-7.4120088,-14.996606,19.192345,-34.452049,-23.188963,-35.138138,-0.11501753,-39.474228,-142.43758,-34.520344,-23.261721,-16.41744,160.27545
2506000000,-17.05545,18.639732,-33.787479,11.729387,-32.266811,-12.940321,-35.107903,-0.28026679,-33.86982,11.452422,-12.973312,-175.48814,-42.684605,-9.1064501,-39.25407,-144.86293,-32.253578,-13.030893,-42.56657,-9.1667747,-14.957019,18.756039,-34.458237,-23.829712,-35.166206,-0.45708326,-39.242355,-144.97635,-34.527931,-23.938702,-16.390713,159.73343
2506500000,-17.027891,18.259249,-33.863789,10.356379,-32.151859,-13.655753,-35.124863,-0.56602257,-33.947121,10.113845,-12.946235,-175.62503,-43.039349,-10.835192,-39.033218,-147.72188,-32.138649,-13.710205,-42.920361,-10.923411,-14.915675,18.327337,-34.45266,-24.536013,-35.186932,-0.73315465,-39.027355,-147.82466,-34.52758,-24.653278,-16.36528,159.15363
2507000000,-17.003973,17.87351,-33.956017,9.0149765,-32.033859,-14.485262,-35.120087,-0.86193508,-34.03677,8.7977457,-12.918326,-175.73825,-43.466576,-12.425257,-38.84116,-150.82077,-32.018898,-14.511457,-43.349583,-12.647358,-14.872047,17.906427,-34.443703,-25.305185,-35.182789,-1.0162512,-38.84124,-150.92546,-34.522884,-25.443098,-16.344509,158.52521
2507500000,-16.974995,17.510191,-34.05489,7.7421799,-31.919851,-15.444624,-35.104237,-1.2491839,-34.138187,7.5331531,-12.891598,-175.85849,-43.958614,-13.774667,-38.682304,-154.12531,-31.90337,-15.454435,-43.847561,-14.066183,-14.826353,17.490768,-34.434128,-26.168543,-35.165794,-1.4065816,-38.684357,-154.19658,-34.516094,-26.275852,-16.328337,157.87282
2508000000,-16.949453,17.133551,-34.159328,6.5178432,-31.817667,-16.508783,-35.091152,-1.7280188,-34.245262,6.3231616,-12.86324,-175.96921,-44.512341,-14.65413,-38.562511,-157.53134,-31.797693,-16.502554,-44.416275,-15.088115,-14.780607,17.075396,-34.430367,-27.074488,-35.15107,-1.8791906,-38.566643,-157.61415,-34.516438,-27.169811,-16.317909,157.20322
2508500000,-16.924906,16.75732,-34.265957,5.3566766,-31.724913,-17.643764,-35.082623,-2.2242718,-34.349857,5.1831756,-12.833591,-176.06831,-45.11343,-15.0492,-38.47226,-161.00293,-31.704092,-17.629438,-45.040249,-15.518977,-14.730841,16.671652,-34.435581,-27.99934,-35.143284,-2.3558376,-38.484974,-161.10374,-34.52269,-28.089684,-16.312576,156.52338
2509000000,-16.905819,16.368204,-34.37307,4.226542,-31.647106,-18.820578,-35.075737,-2.6882749,-34.455521,4.0719075,-12.805636,-176.18741,-45.753281,-14.688179,-38.419128,-164.50784,-31.620861,-18.81251,-45.708683,-15.180716,-14.681105,16.267563,-34.450733,-28.886393,-35.135773,-2.8033516,-38.439754,-164.57967,-34.539837,-28.97683,-16.309887,155.85181
2509500000,-16.888042,15.986184,-34.480927,3.1172571,-31.575342,-20.020906,-35.063953,-3.0794828,-34.563984,2.9917307,-12.77522,-176.30293,-46.396343,-13.523096,-38.396992,-167.92998,-31.544193,-20.008667,-46.381947,-13.868672,-14.627878,15.86105,-34.466949,-29.690956,-35.124687,-3.1919298,-38.418938,-168.01083,-34.558342,-29.781176,-16.31044,155.18042
2510000000,-16.878265,15.6027,-34.597206,2.015435,-31.508266,-21.255449,-35.041172,-3.4064202,-34.676788,1.9217273,-12.743898,-176.40959,-47.020809,-11.51231,-38.400082,-171.33041,-31.47349,-21.263145,-47.031105,-11.704364,-14.572309,15.449306,-34.477783,-30.478674,-35.101963,-3.5148797,-38.41679,-171.36697,-34.566833,-30.53474,-16.315126,154.50081
2510500000,-16.878153,15.209233,-34.723942,0.98245376,-31.451784,-22.5613,-35.001335,-3.7102058,-34.798759,0.9141109,-12.714273,-176.5334,-47.59465,-8.4374809,-38.413113,-174.7005,-31.413008,-22.579033,-47.622646,-8.403038,-14.516719,15.02024,-34.477657,-31.201794,-35.06179,-3.8098633,-38.428913,-174.71008,-34.565834,-31.26997,-16.321859,153.85132
2511000000,-16.880196,14.850334,-34.857422,0.089857921,-31.407446,-23.894554,-34.944981,-4.0450211,-34.924374,0.025632143,-12.6848,-176.64777,-48.037781,-4.2933025,-38.441998,-178.06145,-31.367262,-23.926735,-48.056843,-4.075788,-14.460108,14.575997,-34.461994,-31.924175,-35.002468,-4.1376414,-38.46059,-178.08116,-34.552761,-32.008095,-16.332685,153.19521
2511500000,-16.885641,14.519454,-34.983234,-0.66151696,-31.378088,-25.224417,-34.874977,-4.4262214,-35.041016,-0.70823121,-12.654348,-176.74821,-48.263165,0.35316175,-38.490574,178.5724,-31.337828,-25.280714,-48.263836,0.75128496,-14.404359,14.11279,-34.440765,-32.726837,-34.925701,-4.5086584,-38.51075,178.54332,-34.52895,-32.797371,-16.34866,152.55556
2512000000,-16.893576,14.210896,-35.09137,-1.3396682,-31.35672,-26.517172,-34.789371,-4.8691931,-35.145081,-1.4083928,-12.623447,-176.85983,-48.272583,4.9731874,-38.572052,175.23955,-31.315039,-26.588097,-48.259075,5.4524646,-14.354817,13.626532,-34.417866,-33.621494,-34.835304,-4.9603395,-38.593002,175.24129,-34.508343,-33.673141,-16.367933,151.94054
2512500000,-16.89978,13.920171,-35.186604,-1.9996735,-31.34952,-27.79818,-34.689117,-5.3768024,-35.236748,-2.0961902,-12.592373,-176.96815,-48.113747,9.3799467,-38.671619,172.01082,-31.309261,-27.859266,-48.050442,9.9015551,-14.304767,13.152718,-34.399952,-34.476192,-34.733013,-5.4741998,-38.689011,172.01743,-34.48843,-34.505352,-16.387646,151.36409
2513000000,-16.90523,13.631549,-35.276287,-2.6230347,-31.344578,-28.97994,-34.570019,-5.9801588,-35.322395,-2.7288351,-12.559729,-177.06639,-47.732929,12.774699,-38.790459,168.86266,-31.303621,-29.051708,-47.652115,13.456128,-14.257925,12.673379,-34.376003,-35.328949,-34.610477,-6.0890808,-38.797974,168.91141,-34.462616,-35.354656,-16.408911,150.81064
2513500000,-16.911816,13.342331,-35.355831,-3.2559588,-31.334879,-30.125811,-34.441864,-6.7434621,-35.399353,-3.3651037,-12.526535,-177.17671,-47.254345,14.658481,-38.926895,165.88995,-31.293404,-30.184412,-47.146923,15.216936,-14.213861,12.1977,-34.350712,-36.191433,-34.480518,-6.8880305,-38.932526,165.9082,-34.432293,-36.247139,-16.430115,150.28474
2514000000,-16.923937,13.045687,-35.426117,-3.8756375,-31.316603,-31.283117,-34.312397,-7.6881599,-35.467167,-3.9905701,-12.492428,-177.29288,-46.79369,15.152592,-39.066284,163.10458,-31.276281,-31.338299,-46.664185,15.601774,-14.170556,11.728474,-34.316345,-37.07777,-34.352772,-7.8721285,-39.076118,163.0909,-34.399441,-37.145771,-16.452583,149.76894
2514500000,-16.937393,12.777344,-35.490463,-4.5115533,-31.299637,-32.490471,-34.190071,-8.7823572,-35.52375,-4.668663,-12.459298,-177.41881,-46.400867,14.592176,-39.198292,160.42812,-31.257452,-32.528969,-46.256912,14.878621,-14.128604,11.262688,-34.274269,-37.996719,-34.231892,-9.0044603,-39.214561,160.41177,-34.360661,-38.086315,-16.47287,149.29332
2515000000,-16.953623,12.530366,-35.548023,-5.1788321,-31.287394,-33.727699,-34.078133,-10.007679,-35.580772,-5.351716,-12.426502,-177.54529,-46.134071,13.4029,-39.323807,157.87274,-31.244856,-33.768456,-45.985847,13.600635,-14.087032,10.805959,-34.230431,-38.992874,-34.125015,-10.222995,-39.342155,157.87189,-34.319721,-39.089466,-16.490911,148.84175
2515500000,-16.977556,12.309734,-35.601006,-5.869174,-31.283936,-35.022766,-33.9814,-11.303254,-35.632584,-6.0587273,-12.393926,-177.67781,-45.941978,11.851974,-39.429073,155.35829,-31.238203,-35.03981,-45.799564,11.959844,-14.045287,10.351963,-34.186356,-40.015495,-34.030602,-11.532286,-39.4524,155.34019,-34.276146,-40.101162,-16.505262,148.41608
2516000000,-17.007544,12.126328,-35.653603,-6.6434011,-31.291109,-36.275677,-33.893154,-12.663176,-35.686604,-6.8529882,-12.359469,-177.80568,-45.858032,10.022738,-39.527649,152.72093,-31.241722,-36.308132,-45.714954,10.107627,-14.003104,9.8984413,-34.136341,-41.090496,-33.947105,-12.882316,-39.554329,152.69748,-34.230488,-41.203819,-16.517784,147.97226
2516500000,-17.042526,12.025451,-35.723663,-7.4128008,-31.304562,-37.480701,-33.819416,-14.063444,-35.756924,-7.6306677,-12.325814,-177.94557,-45.883671,8.231905,-39.640892,150.03117,-31.252989,-37.545486,-45.733292,8.2148705,-13.961629,9.4356823,-34.088947,-42.262238,-33.873867,-14.271931,-39.671944,150.01808,-34.185406,-42.36488,-16.526608,147.57838
2517000000,-17.077513,11.998741,-35.793476,-8.0266514,-31.316504,-38.687599,-33.755939,-15.478952,-35.832169,-8.2705269,-12.294248,-178.10295,-45.970161,6.3801179,-39.770439,147.40788,-31.262178,-38.762951,-45.830406,6.2570567,-13.922318,8.970479,-34.05275,-43.511211,-33.811836,-15.668342,-39.800331,147.4292,-34.150696,-43.593224,-16.533319,147.17854
2517500000,-17.117235,12.051989,-35.861668,-8.65452,-31.33824,-39.808304,-33.695587,-16.930874,-35.905426,-8.8898172,-12.261114,-178.2458,-46.204079,4.8675714,-39.908466,144.82529,-31.286182,-39.929108,-46.062992,4.6717024,-13.885015,8.5225391,-34.023777,-44.780041,-33.752266,-17.120401,-39.934689,144.856,-34.118713,-44.841053,-16.536163,146.7782
2518000000,-17.152098,12.197369,-35.91898,-9.1843901,-31.350271,-40.899406,-33.647312,-18.44693,-35.963474,-9.412797,-12.228707,-178.40456,-46.506268,3.9005368,-40.043468,142.35448,-31.301027,-41.026539,-46.355766,3.6089835,-13.84897,8.0888462,-34.002701,-46.04353,-33.702503,-18.608246,-40.067039,142.38173,-34.096096,-46.111279,-16.535412,146.3894
2518500000,-17.179832,12.431796,-35.965763,-9.7378616,-31.353857,-41.971279,-33.611534,-19.961279,-36.010872,-9.9604921,-12.196621,-178.5658,-46.812111,3.5743382,-40.169392,139.86832,-31.31148,-42.123264,-46.663433,3.1775036,-13.81418,7.6765904,-33.985332,-47.296749,-33.67094,-20.122643,-40.185379,139.90671,-34.077717,-47.351925,-16.529293,145.97507
2519000000,-17.197229,12.726563,-36.004555,-10.295404,-31.353603,-43.105896,-33.589413,-21.455896,-36.053234,-10.525353,-12.163118,-178.72336,-47.134575,3.5065925,-40.299686,137.36357,-31.315748,-43.247852,-46.989067,3.0117321,-13.778698,7.2859797,-33.967915,-48.52523,-33.648735,-21.607363,-40.311081,137.34099,-34.059952,-48.60202,-16.518463,145.54343
2519500000,-17.199434,13.062346,-36.034149,-10.911859,-31.35257,-44.262054,-33.572266,-22.907354,-36.085186,-11.106283,-12.130305,-178.89522,-47.471306,4.147285,-40.440834,134.83467,-31.318348,-44.392925,-47.356537,3.4819539,-13.740685,6.9127493,-33.946014,-49.791531,-33.631397,-23.042707,-40.44994,134.78116,-34.039795,-49.854393,-16.504007,145.09329
2520000000,-17.189579,13.403726,-36.071671,-11.587265,-31.356676,-45.475121,-33.552284,-24.333088,-36.121918,-11.770173,-12.099152,-179.08299,-47.757046,5.232892,-40.604065,132.30936,-31.325626,-45.598621,-47.684109,4.6077437,-13.701185,6.5525045,-33.922878,-51.114727,-33.612221,-24.469172,-40.610756,132.20586,-34.018291,-51.171936,-16.488682,144.6097
2520500000,-17.167126,13.744555,-36.117889,-12.234592,-31.36705,-46.687843,-33.533455,-25.808416,-36.167027,-12.415618,-12.066874,-179.26802,-47.999664,6.6162686,-40.78212,129.90517,-31.334866,-46.786087,-47.943695,5.953939,-13.658825,6.1922417,-33.912174,-52.47961,-33.591545,-25.942528,-40.791512,129.77422,-34.006992,-52.546551,-16.472618,144.09674
2521000000,-17.136786,14.057302,-36.164246,-12.820314,-31.381315,-47.884132,-33.525234,-27.310089,-36.211678,-13.016739,-12.038619,-179.48155,-48.210918,7.9784207,-40.962708,127.67355,-31.347498,-47.967426,-48.169746,7.5502954,-13.612791,5.8285165,-33.905701,-53.830276,-33.579666,-27.465811,-40.983948,127.46432,-34.007664,-53.916546,-16.456095,143.5602
2521500000,-17.094088,14.352437,-36.212231,-13.367803,-31.395348,-49.045975,-33.521061,-28.809929,-36.264984,-13.575498,-12.010221,-179.69582,-48.408031,9.659482,-41.15168,125.63111,-31.360569,-49.129322,-48.368492,9.2729216,-13.566492,5.4370441,-33.897602,-55.210102,-33.575863,-28.983822,-41.183239,125.40162,-34.003853,-55.2644,-16.442421,142.99017
2522000000,-17.042824,14.625199,-36.259132,-13.773148,-31.402985,-50.202202,-33.522266,-30.327612,-36.311218,-13.978889,-11.98282,-179.92067,-48.56646,11.574342,-41.32819,123.81762,-31.367844,-50.292313,-48.5434,11.289845,-13.518943,5.0358591,-33.899433,-56.604248,-33.577213,-30.51819,-41.371357,123.5939,-34.006886,-56.650043,-16.4321,142.39001
2522500000,-16.983124,14.868752,-36.273308,-14.164661,-31.408278,-51.371258,-33.525326,-31.882141,-36.328125,-14.345158,-11.958559,179.84517,-48.653591,13.612621,-41.479446,122.17472,-31.374479,-51.461338,-48.640438,13.490808,-13.473752,4.6164675,-33.906982,-58.026188,-33.584721,-32.0737,-41.534897,121.99033,-34.015259,-58.051266,-16.425495,141.77267
2523000000,-16.911934,15.081427,-36.280861,-14.629049,-31.410324,-52.565556,-33.535416,-33.488998,-36.332043,-14.780029,-11.936624,179.6026,-48.706356,15.437429,-41.591621,120.59511,-31.376478,-52.665756,-48.691574,15.520144,-13.428429,4.1937962,-33.922001,-59.463322,-33.598278,-33.680618,-41.650627,120.47337,-34.028328,-59.466961,-16.422333,141.14601
2523500000,-16.832371,15.264204,-36.285015,-15.099133,-31.408045,-53.792458,-33.56287,-35.127464,-36.333435,-15.245435,-11.915709,179.37325,-48.746376,17.353771,-41.674442,118.9341,-31.377068,-53.906708,-48.725094,17.588358,-13.384806,3.7624009,-33.948517,-60.887825,-33.625591,-35.323322,-41.735374,118.88982,-34.050938,-60.887085,-16.424778,140.52856
2524000000,-16.745287,15.405924,-36.287266,-15.585662,-31.403419,-55.083897,-33.604782,-36.763939,-36.331532,-15.737215,-11.89882,179.13539,-48.775002,19.178837,-41.739723,117.15094,-31.375082,-55.173317,-48.735214,19.541525,-13.343782,3.3192773,-33.983181,-62.281258,-33.670895,-36.963669,-41.798069,117.14516,-34.083191,-62.283573,-16.431572,139.90364
2524500000,-16.653776,15.489079,-36.274635,-16.033438,-31.398935,-56.393345,-33.663128,-38.389225,-36.315308,-16.19208,-11.881829,178.90092,-48.76421,21.149899,-41.806507,115.30963,-31.371456,-56.499653,-48.715031,21.526213,-13.301486,2.8853006,-34.027153,-63.662834,-33.727367,-38.576508,-41.86203,115.38658,-34.121658,-63.638466,-16.44335,139.30724
2525000000,-16.54911,15.52198,-36.245087,-16.544119,-31.390753,-57.78474,-33.730675,-40.003353,-36.286987,-16.742979,-11.866441,178.66481,-48.776535,22.756203,-41.857979,113.42035,-31.367826,-57.894329,-48.704422,23.276569,-13.259436,2.4499259,-34.076431,-64.999001,-33.796734,-40.184814,-41.908932,113.53753,-34.170578,-64.984856,-16.459465,138.72331
2525500000,-16.441757,15.45937,-36.215149,-17.17474,-31.383635,-59.254009,-33.817814,-41.606686,-36.258892,-17.385908,-11.85302,178.43753,-48.813412,25.161501,-41.912552,111.4352,-31.362354,-59.338757,-48.706909,25.513153,-13.216284,1.9999835,-34.131779,-66.276558,-33.883896,-41.768749,-41.95628,111.58801,-34.224644,-66.250694,-16.47772,138.16518
2526000000,-16.331734,15.302853,-36.176296,-17.816122,-31.381809,-60.845886,-33.925915,-43.138412,-36.219128,-18.041214,-11.842142,178.19794,-48.774509,27.454645,-41.975632,109.42954,-31.36359,-60.943764,-48.638454,27.665253,-13.177876,1.5337694,-34.190784,-67.463768,-33.990929,-43.303913,-42.007519,109.61592,-34.282833,-67.42997,-16.498554,137.64378
2526500000,-16.218641,15.055081,-36.13863,-18.620033,-31.394594,-62.518833,-34.055637,-44.550358,-36.182636,-18.84634,-11.832735,177.96391,-48.727962,29.879503,-42.042942,107.49823,-31.378897,-62.617523,-48.592754,29.901482,-13.142096,1.0715438,-34.249447,-68.567337,-34.118988,-44.732311,-42.058247,107.68789,-34.335552,-68.53215,-16.520187,137.12752
2527000000,-16.107147,14.704986,-36.11517,-19.504766,-31.422546,-64.257805,-34.201149,-45.821198,-36.162067,-19.743347,-11.825701,177.73041,-48.642574,32.598442,-42.096916,105.6832,-31.406967,-64.327057,-48.529896,32.510029,-13.108498,0.61798579,-34.296242,-69.634033,-34.264927,-45.996246,-42.101868,105.83855,-34.380127,-69.593178,-16.541035,136.64847
