!CSV A.01.01
!Keysight Technologies,N5222B,MY58422327,A.13.60.06
!Date: Monday, March 28, 2022 16:29:56
!Source: Standard

BEGIN CH1_DATA
Freq(Hz),S11(DB),S11(DEG),S12(DB),S12(DEG),S13(DB),S13(DEG),S14(DB),S14(DEG),S21(DB),S21(DEG),S22(DB),S22(DEG),S23(DB),S23(DEG),S24(DB),S24(DEG),S31(DB),S31(DEG),S32(DB),S32(DEG),S33(DB),S33(DEG),S34(DB),S34(DEG),S41(DB),S41(DEG),S42(DB),S42(DEG),S43(DB),S43(DEG),S44(DB),S44(DEG)
2500000000,-17.314465,22.622181,-33.073147,26.730928,-32.73259,-6.8031874,-34.110722,6.4759669,-33.093185,26.725107,-13.408049,-173.83275,-40.277027,9.0033197,-41.142391,-121.99951,-32.703205,-6.9207325,-40.202808,9.1150446,-15.467464,25.078257,-34.101208,-13.423117,-34.1633,6.1846433,-41.151634,-121.9973,-34.182652,-13.545688,-16.607756,164.52441
2500500000,-17.30558,22.316742,-33.156952,25.452656,-32.711651,-7.3918066,-34.222603,5.3572845,-33.176048,25.418091,-13.365748,-173.97653,-40.387493,7.2193308,-40.987976,-123.76647,-32.683727,-7.5129118,-40.314758,7.3219314,-15.416693,24.533957,-34.117203,-14.285937,-34.279793,5.0794911,-40.995728,-123.76455,-34.20005,-14.403761,-16.599379,164.20233
2501000000,-17.29353,22.030607,-33.248417,24.222109,-32.687191,-7.9743733,-34.342594,4.4059734,-33.264843,24.172283,-13.321835,-174.10239,-40.521755,5.4007277,-40.834373,-125.64998,-32.659649,-8.0921183,-40.441292,5.5034652,-15.364969,23.983541,-34.133949,-15.216161,-34.403835,4.1254926,-40.844128,-125.64061,-34.218956,-15.342445,-16.588953,163.87151
2501500000,-17.276672,21.757313,-33.329357,23.067005,-32.664375,-8.5011168,-34.461201,3.6420577,-33.346695,22.976709,-13.280704,-174.24057,-40.683983,3.6465259,-40.706512,-127.584,-32.638676,-8.5939474,-40.599232,3.7560556,-15.315432,23.420908,-34.15789,-16.178671,-34.526939,3.3527675,-40.717022,-127.57522,-34.243736,-16.309141,-16.574562,163.53711
2502000000,-17.258856,21.450958,-33.40704,21.914335,-32.636276,-8.9709682,-34.565598,2.9934397,-33.422234,21.794094,-13.24073,-174.3755,-40.87093,1.97607,-40.586117,-129.468,-32.609093,-9.0591869,-40.779327,2.0538342,-15.267896,22.854923,-34.187958,-17.203606,-34.637215,2.7175412,-40.594852,-129.44241,-34.273331,-17.316582,-16.558563,163.18718
2502500000,-17.236507,21.135479,-33.482338,20.813164,-32.59882,-9.4542913,-34.658539,2.4310393,-33.497715,20.630293,-13.200641,-174.50995,-41.058624,0.41512069,-40.471779,-131.26076,-32.570786,-9.5450964,-40.96912,0.4551245,-15.225245,22.294193,-34.234306,-18.234722,-34.73642,2.1612663,-40.479084,-131.23335,-34.320961,-18.349205,-16.541842,162.80539
2503000000,-17.212349,20.797863,-33.545982,19.70701,-32.562351,-9.9348984,-34.740448,1.9403566,-33.565361,19.471817,-13.164412,-174.66409,-41.255871,-1.0788282,-40.34956,-133.08412,-32.531845,-10.020921,-41.171986,-1.1092713,-15.184368,21.744553,-34.294529,-19.187126,-34.821136,1.6875163,-40.353191,-133.03061,-34.383793,-19.294592,-16.52449,162.42009
2503500000,-17.193083,20.430197,-33.604,18.562746,-32.524391,-10.370975,-34.809479,1.4952044,-33.62849,18.256447,-13.129345,-174.81378,-41.452862,-2.5605183,-40.215038,-134.79193,-32.491154,-10.465167,-41.3671,-2.614677,-15.147979,21.21497,-34.359253,-19.994278,-34.893028,1.2655245,-40.216316,-134.74123,-34.447899,-20.088243,-16.506311,162.02679
2504000000,-17.17099,20.057819,-33.663357,17.388296,-32.474113,-10.747803,-34.863949,1.0385673,-33.697037,17.042313,-13.09451,-174.95499,-41.650436,-4.0906801,-40.062656,-136.51385,-32.439877,-10.849889,-41.572865,-4.1134434,-15.112897,20.713753,-34.414223,-20.713646,-34.951668,0.82774651,-40.060989,-136.46281,-34.50246,-20.818024,-16.487213,161.59964
2504500000,-17.149942,19.687954,-33.718712,16.212206,-32.405121,-11.106246,-34.91853,0.59143746,-33.761707,15.826902,-13.062666,-175.10463,-41.860909,-5.7563076,-39.880348,-138.2816,-32.36792,-11.235782,-41.777832,-5.7513313,-15.076862,20.24143,-34.459831,-21.373411,-35.005161,0.42232519,-39.879581,-138.24796,-34.547745,-21.466736,-16.465103,161.17162
2505000000,-17.124712,19.334698,-33.773212,14.965958,-32.320671,-11.493374,-34.959095,0.20550594,-33.826557,14.574509,-13.033591,-175.25616,-42.094055,-7.452106,-39.665665,-140.21776,-32.284744,-11.655674,-42.019531,-7.4655848,-15.040514,19.78278,-34.496899,-21.959192,-35.044552,0.066796117,-39.665096,-140.19524,-34.583817,-22.069292,-16.442907,160.6981
2505500000,-17.09734,18.966398,-33.83498,13.699439,-32.217415,-11.995507,-34.99332,-0.20726365,-33.894764,13.319806,-13.004628,-175.38551,-42.362427,-9.2348585,-39.438663,-142.50842,-32.181835,-12.168599,-42.291855,-9.223135,-15.001518,19.338146,-34.510647,-22.526484,-35.074219,-0.31430385,-39.439167,-142.4978,-34.59856,-22.644342,-16.41942,160.20457
2506000000,-17.070063,18.586382,-33.899445,12.394197,-32.10144,-12.61022,-35.019855,-0.60204971,-33.967655,12.020678,-12.976664,-175.5146,-42.669357,-11.049417,-39.20953,-145.02635,-32.069408,-12.789612,-42.592381,-11.00983,-14.960993,18.90732,-34.509476,-23.126097,-35.097565,-0.69965798,-39.213135,-145.0285,-34.59832,-23.250612,-16.394798,159.66338
2506500000,-17.041536,18.207602,-33.977924,11.023817,-31.984951,-13.353421,-35.035118,-0.972853,-34.053719,10.680618,-12.950081,-175.64995,-43.030453,-12.918061,-38.989571,-147.85625,-31.956566,-13.543485,-42.949841,-12.872066,-14.918921,18.482784,-34.497883,-23.81752,-35.112305,-1.0443439,-38.999969,-147.8622,-34.587078,-23.928417,-16.372442,159.09291
2507000000,-17.016171,17.824072,-34.070568,9.7067242,-31.864412,-14.232068,-35.036442,-1.3382462,-34.152992,9.4040108,-12.921754,-175.76138,-43.467964,-14.749237,-38.798561,-150.9716,-31.83917,-14.406258,-43.375011,-14.651752,-14.875292,18.059822,-34.477947,-24.581062,-35.107765,-1.4188718,-38.810364,-150.97658,-34.569309,-24.690117,-16.353161,158.47699
2507500000,-16.985474,17.457998,-34.17424,8.4720535,-31.748922,-15.254693,-35.026009,-1.8219613,-34.258541,8.1940269,-12.895262,-175.87981,-43.974739,-16.235945,-38.640881,-154.29182,-31.725891,-15.394791,-43.866451,-16.169216,-14.827982,17.645023,-34.460018,-25.43557,-35.09499,-1.8935483,-38.655464,-154.27312,-34.550632,-25.540394,-16.33816,157.83788
2508000000,-16.959047,17.076878,-34.279255,7.3069391,-31.64707,-16.402905,-35.020504,-2.3964026,-34.367977,7.0644765,-12.867282,-175.98747,-44.544937,-17.266241,-38.520889,-157.72536,-31.623392,-16.515646,-44.43261,-17.300123,-14.781646,17.229641,-34.446583,-26.364042,-35.08736,-2.4544578,-38.541435,-157.69695,-34.539108,-26.467701,-16.327715,157.18207
2508500000,-16.933573,16.692739,-34.381271,6.2271533,-31.560205,-17.610886,-35.024948,-2.9662273,-34.472351,6.0094748,-12.837716,-176.08244,-45.16428,-17.749695,-38.440884,-161.21446,-31.537041,-17.707235,-45.054859,-17.901011,-14.730904,16.82189,-34.444771,-27.339224,-35.088665,-3.0292454,-38.4603,-161.1808,-34.539104,-27.435255,-16.321909,156.5127
2509000000,-16.914175,16.29158,-34.480309,5.1287789,-31.487459,-18.851103,-35.037502,-3.4748561,-34.575069,4.9768653,-12.809852,-176.19937,-45.829323,-17.548315,-38.398415,-164.70007,-31.463701,-18.93722,-45.726696,-17.761782,-14.680017,16.410906,-34.456451,-28.271305,-35.098614,-3.5290403,-38.416336,-164.67075,-34.548912,-28.362528,-16.318798,155.84798
2509500000,-16.896572,15.904873,-34.579891,4.0390296,-31.423313,-20.091536,-35.04702,-3.8800871,-34.673962,3.9557054,-12.779534,-176.30806,-46.498985,-16.443665,-38.381588,-168.1248,-31.398859,-20.178196,-46.416199,-16.801445,-14.626169,16.000479,-34.47345,-29.111145,-35.10598,-3.9456859,-38.397861,-168.09976,-34.565212,-29.22777,-16.318848,155.18073
2510000000,-16.886723,15.51254,-34.689533,2.9312959,-31.368391,-21.363993,-35.045979,-4.179749,-34.778046,2.9309809,-12.747933,-176.40958,-47.156155,-14.513546,-38.385868,-171.47125,-31.339697,-21.440308,-47.083324,-14.879202,-14.57061,15.581957,-34.483288,-29.884584,-35.101215,-4.2424541,-38.400669,-171.46246,-34.576244,-30.008816,-16.323183,154.50076
2510500000,-16.887651,15.113303,-34.808712,1.8846513,-31.320974,-22.671623,-35.020798,-4.4215631,-34.892918,1.9489532,-12.718108,-176.52649,-47.767895,-11.545824,-38.404243,-174.76202,-31.289049,-22.742081,-47.726387,-11.926691,-14.515744,15.145774,-34.482121,-30.600597,-35.077579,-4.4977489,-38.417526,-174.79608,-34.577522,-30.746469,-16.329134,153.85287
2511000000,-16.890591,14.749191,-34.940712,0.98033965,-31.285254,-23.997068,-34.976521,-4.6559515,-35.015221,1.097739,-12.68754,-176.63683,-48.255241,-7.4672418,-38.437336,-178.06732,-31.252167,-24.078997,-48.238293,-7.6547432,-14.458906,14.697429,-34.468929,-31.342014,-35.032555,-4.7455735,-38.447113,-178.12166,-34.566879,-31.488873,-16.340199,153.19769
2511500000,-16.897293,14.414532,-35.061882,0.23310497,-31.263838,-25.328672,-34.914932,-4.9168434,-35.130337,0.40409377,-12.655926,-176.73344,-48.528397,-2.6364689,-38.486485,178.59309,-31.23315,-25.427237,-48.52655,-2.7864637,-14.403863,14.235019,-34.445854,-32.131302,-34.965942,-5.0494494,-38.501175,178.52184,-34.544094,-32.255482,-16.355211,152.56175
2512000000,-16.905792,14.105154,-35.171608,-0.43863112,-31.25309,-26.604561,-34.830608,-5.246532,-35.229153,-0.24446894,-12.623579,-176.84494,-48.56905,2.1485238,-38.565189,175.33424,-31.219351,-26.702084,-48.568504,2.2219355,-14.35417,13.751356,-34.42194,-32.999325,-34.883408,-5.3832397,-38.579807,175.24339,-34.517616,-33.122337,-16.374269,151.94649
2512500000,-16.914194,13.812716,-35.268005,-1.084928,-31.25486,-27.870834,-34.728996,-5.6296825,-35.312904,-0.89072013,-12.591415,-176.95741,-48.431496,6.7148652,-38.658562,172.13203,-31.221764,-27.961153,-48.423931,6.9238973,-14.303935,13.28056,-34.401676,-33.840004,-34.784801,-5.7990098,-38.677261,172.08125,-34.497391,-33.968937,-16.394241,151.37193
2513000000,-16.920902,13.529663,-35.354591,-1.7001503,-31.259687,-29.02352,-34.605339,-6.1341982,-35.389431,-1.527136,-12.557619,-177.06516,-48.065254,10.305322,-38.768425,169.01212,-31.224607,-29.10969,-48.036228,10.620533,-14.256638,12.801437,-34.372849,-34.685101,-34.663692,-6.287138,-38.789761,168.97322,-34.470177,-34.808418,-16.415403,150.81795
2513500000,-16.928564,13.246984,-35.429653,-2.329668,-31.256414,-30.116074,-34.46772,-6.8181944,-35.457142,-2.1885209,-12.523814,-177.18088,-47.599209,12.359715,-38.899494,166.02116,-31.222416,-30.197548,-47.552567,12.748504,-14.211831,12.322832,-34.342636,-35.57209,-34.525249,-6.9723458,-38.924362,165.9769,-34.440327,-35.696323,-16.437048,150.29501
2514000000,-16.940798,12.959359,-35.501019,-2.9448569,-31.243954,-31.205099,-34.328156,-7.7222538,-35.518307,-2.8369129,-12.489276,-177.30559,-47.126343,13.035816,-39.031086,163.19008,-31.208677,-31.28097,-47.07478,13.458859,-14.167428,11.849269,-34.30468,-36.490906,-34.383965,-7.8650107,-39.059109,163.1763,-34.403263,-36.621193,-16.459293,149.78079
2514500000,-16.953661,12.700978,-35.563187,-3.5693815,-31.228493,-32.369976,-34.194637,-8.7827902,-35.575451,-3.5271807,-12.455414,-177.44199,-46.741875,12.617549,-39.164925,160.46468,-31.191971,-32.424492,-46.681129,12.953346,-14.12536,11.378606,-34.266438,-37.446095,-34.249588,-8.9364033,-39.193958,160.46689,-34.363319,-37.565483,-16.480328,149.3127
2515000000,-16.968912,12.463823,-35.621422,-4.1971307,-31.221323,-33.558022,-34.07127,-10.020722,-35.632355,-4.2373576,-12.42291,-177.57957,-46.457737,11.546925,-39.297016,157.84323,-31.179899,-33.60894,-46.390362,11.933339,-14.083888,10.917743,-34.224087,-38.445614,-34.126133,-10.149681,-39.324646,157.89935,-34.320816,-38.574776,-16.498354,148.86931
2515500000,-16.991312,12.245971,-35.670601,-4.8552308,-31.21525,-34.782799,-33.965874,-11.334962,-35.684311,-4.9391689,-12.391416,-177.72012,-46.266216,10.112963,-39.412189,155.27834,-31.17362,-34.83009,-46.186916,10.45282,-14.042148,10.462367,-34.182781,-39.465916,-34.017757,-11.475352,-39.435081,155.35251,-34.279537,-39.59367,-16.512278,148.45135
2516000000,-17.019741,12.058186,-35.722057,-5.5909247,-31.22156,-35.997639,-33.877285,-12.737961,-35.740822,-5.7209587,-12.358339,-177.85309,-46.177605,8.3448935,-39.523724,152.65346,-31.177309,-36.032196,-46.093571,8.657093,-13.999957,10.0068,-34.133736,-40.553333,-33.927658,-12.873476,-39.54208,152.71359,-34.230408,-40.661674,-16.523527,148.01567
2516500000,-17.053335,11.949736,-35.787678,-6.2935343,-31.233891,-37.181705,-33.801826,-14.14487,-35.811878,-6.4587326,-12.32606,-177.99562,-46.191933,6.4985757,-39.649525,150.00758,-31.188719,-37.223053,-46.0938,6.8611493,-13.958909,9.5437517,-34.086559,-41.706718,-33.851025,-14.302708,-39.661999,150.05356,-34.182114,-41.833923,-16.530735,147.62669
2517000000,-17.088058,11.913859,-35.847496,-6.8954577,-31.244755,-38.335533,-33.736336,-15.551351,-35.880814,-7.0416903,-12.295503,-178.15204,-46.296021,4.693378,-39.780579,147.46107,-31.198715,-38.370216,-46.169201,4.9751573,-13.919548,9.0814123,-34.044891,-42.924828,-33.787006,-15.721965,-39.794121,147.4951,-34.145271,-43.062984,-16.535166,147.22299
2517500000,-17.128384,11.952586,-35.909355,-7.4803796,-31.264254,-39.434898,-33.673557,-17.004982,-35.945728,-7.6002049,-12.263307,-178.29234,-46.523495,3.1171896,-39.914913,144.91629,-31.218237,-39.477306,-46.390549,3.3463454,-13.882063,8.6342745,-34.008465,-44.171371,-33.723259,-17.185476,-39.930588,144.9337,-34.108612,-44.316319,-16.536518,146.8172
2518000000,-17.163177,12.091792,-35.950687,-8.0267076,-31.274763,-40.470184,-33.623001,-18.513933,-35.990479,-8.0818119,-12.231688,-178.44734,-46.805275,2.1940503,-40.047386,142.46725,-31.227556,-40.516506,-46.674446,2.2437243,-13.846025,8.2030878,-33.977531,-45.469208,-33.670761,-18.702833,-40.064842,142.49783,-34.081039,-45.599506,-16.534607,146.41856
2518500000,-17.192118,12.318781,-35.983585,-8.61061,-31.276953,-41.502445,-33.587158,-20.049191,-36.022873,-8.6135073,-12.200029,-178.60561,-47.11063,1.6757823,-40.169498,140.00914,-31.228434,-41.550514,-46.980873,1.6829572,-13.810799,7.7929173,-33.957516,-46.775539,-33.634586,-20.246134,-40.187519,140.06261,-34.060883,-46.88166,-16.528042,145.99466
2519000000,-17.21142,12.613418,-36.010891,-9.2136736,-31.272669,-42.575813,-33.561966,-21.565996,-36.045551,-9.1818199,-12.167342,-178.7607,-47.44495,1.4392112,-40.291901,137.47978,-31.22448,-42.639351,-47.314987,1.4485705,-13.775151,7.401907,-33.936329,-48.069206,-33.610085,-21.774567,-40.315651,137.5647,-34.043491,-48.152153,-16.516653,145.5517
2519500000,-17.215551,12.951334,-36.033363,-9.8691673,-31.26449,-43.683449,-33.546032,-23.04813,-36.063625,-9.8107891,-12.13511,-178.92822,-47.828323,1.940076,-40.433319,134.94405,-31.220181,-43.761311,-47.688538,1.7888421,-13.735673,7.029717,-33.917625,-49.383892,-33.59449,-23.257172,-40.455776,135.06056,-34.022888,-49.449387,-16.502577,145.09068
2520000000,-17.207781,13.303503,-36.059902,-10.594127,-31.262072,-44.843479,-33.528584,-24.508364,-36.083805,-10.549081,-12.104105,-179.11281,-48.166153,2.990195,-40.598282,132.41479,-31.217443,-44.917297,-48.024448,2.7686017,-13.695225,6.6680956,-33.899105,-50.732018,-33.580853,-24.733627,-40.617794,132.5262,-34.003342,-50.797031,-16.487501,144.60001
2520500000,-17.18553,13.651299,-36.098164,-11.322668,-31.262535,-45.998997,-33.516418,-25.992411,-36.114895,-11.279477,-12.072052,-179.29295,-48.453297,4.4937301,-40.783844,130.04854,-31.219826,-46.076481,-48.321636,4.158042,-13.651813,6.3012414,-33.892086,-52.123737,-33.570129,-26.215929,-40.796734,130.16969,-33.996559,-52.186321,-16.472092,144.08194
2521000000,-17.154217,13.977244,-36.142578,-12.009023,-31.260946,-47.144958,-33.513412,-27.494829,-36.153458,-12.017772,-12.044538,-179.50406,-48.683163,6.1290565,-40.976059,127.83775,-31.220646,-47.211887,-48.583138,5.7859569,-13.605756,5.9258375,-33.891907,-53.501743,-33.569443,-27.717115,-40.988132,127.98279,-33.995216,-53.555225,-16.456482,143.53972
2521500000,-17.110491,14.274028,-36.190079,-12.639747,-31.255964,-48.308483,-33.514534,-28.944651,-36.200241,-12.702951,-12.016242,-179.71443,-48.913513,7.9225259,-41.177807,125.88166,-31.217438,-48.365231,-48.810287,7.5707083,-13.558928,5.5259123,-33.891308,-54.886192,-33.571697,-29.16749,-41.180389,126.04286,-33.992088,-54.918705,-16.443579,142.96765
2522000000,-17.059557,14.546889,-36.239792,-13.154728,-31.249016,-49.503887,-33.514133,-30.401487,-36.249218,-13.239924,-11.988898,-179.93675,-49.103905,10.073716,-41.356491,124.20119,-31.209997,-49.543507,-49.000557,9.6251125,-13.511844,5.1165061,-33.897205,-56.297771,-33.575199,-30.626818,-41.355949,124.29796,-33.996353,-56.346054,-16.434113,142.36295
2522500000,-16.998394,14.792519,-36.268421,-13.630573,-31.241369,-50.733009,-33.512547,-31.89819,-36.276615,-13.738102,-11.964402,179.83321,-49.206745,12.428488,-41.499165,122.70458,-31.200912,-50.77375,-49.130955,11.840963,-13.467082,4.6894579,-33.911407,-57.723232,-33.576508,-32.10165,-41.500854,122.75947,-34.006935,-57.763763,-16.428383,141.74448
2523000000,-16.926611,15.002406,-36.287697,-14.120311,-31.232138,-52.001442,-33.518135,-33.456024,-36.299496,-14.29003,-11.942359,179.59381,-49.270649,14.573275,-41.596745,121.23895,-31.190912,-52.036751,-49.230412,13.953755,-13.422812,4.2624683,-33.93232,-59.151005,-33.582882,-33.649792,-41.595802,121.25149,-34.027332,-59.192947,-16.426399,141.11882
2523500000,-16.846121,15.183889,-36.305195,-14.611378,-31.223072,-53.312943,-33.534782,-35.076061,-36.32341,-14.81482,-11.921305,179.36693,-49.325413,16.74078,-41.656811,119.6568,-31.181524,-53.337044,-49.294533,16.315107,-13.379763,3.8296757,-33.962078,-60.567101,-33.599632,-35.254425,-41.661629,119.65829,-34.055138,-60.618649,-16.42951,140.50557
2524000000,-16.759491,15.323794,-36.319641,-15.053658,-31.21681,-54.66938,-33.568306,-36.714035,-36.342583,-15.287684,-11.903827,179.1292,-49.349499,18.915468,-41.6987,117.88686,-31.174488,-54.712822,-49.328049,18.460875,-13.33939,3.391294,-34.002316,-61.937637,-33.631908,-36.896271,-41.70351,117.85712,-34.094593,-62.007648,-16.43697,139.8786
2524500000,-16.667454,15.407215,-36.312649,-15.444013,-31.209383,-56.078259,-33.618187,-38.348011,-36.342266,-15.693466,-11.886353,178.89552,-49.333004,21.138824,-41.745384,116.0368,-31.168766,-56.115219,-49.320305,20.79048,-13.297924,2.958106,-34.046417,-63.281456,-33.680122,-38.522411,-41.747829,116.01118,-34.136833,-63.351658,-16.449387,139.28345
2525000000,-16.561872,15.437718,-36.286793,-15.901024,-31.204851,-57.550171,-33.677338,-39.965694,-36.322178,-16.167768,-11.870873,178.65778,-49.316952,23.008757,-41.775181,114.11942,-31.163275,-57.593418,-49.303024,22.836752,-13.256009,2.5245829,-34.095707,-64.575394,-33.739384,-40.160797,-41.778996,114.06744,-34.185574,-64.667953,-16.465942,138.70078
2525500000,-16.45385,15.375566,-36.256287,-16.482475,-31.202307,-59.095249,-33.760269,-41.593857,-36.299141,-16.746136,-11.85759,178.43019,-49.330597,25.394598,-41.80698,112.06882,-31.159084,-59.134346,-49.300152,25.363306,-13.21292,2.0780051,-34.154202,-65.809219,-33.819702,-41.78746,-41.820927,111.96613,-34.244095,-65.916962,-16.48498,138.14731
2526000000,-16.343395,15.208501,-36.218842,-17.123741,-31.20878,-60.760899,-33.862759,-43.127056,-36.267246,-17.353506,-11.846726,178.19058,-49.276218,27.85515,-41.855625,109.97721,-31.16494,-60.821362,-49.248512,27.773201,-13.174288,1.614382,-34.21014,-66.95208,-33.921932,-43.352528,-41.870701,109.8636,-34.303795,-67.062675,-16.505564,137.63075
2526500000,-16.229483,14.951059,-36.179306,-17.898483,-31.232485,-62.479908,-33.985508,-44.595337,-36.231899,-18.094542,-11.837507,177.95718,-49.226074,30.465683,-41.90942,107.92076,-31.189459,-62.564682,-49.184658,30.370832,-13.138578,1.1579385,-34.26342,-68.014282,-34.046528,-44.842419,-41.925037,107.84799,-34.355637,-68.130356,-16.527248,137.1207
2527000000,-16.118172,14.591483,-36.154743,-18.755289,-31.271097,-64.23983,-34.126698,-45.910038,-36.207478,-18.891026,-11.830284,177.72522,-49.140129,33.363125,-41.962738,105.94352,-31.230841,-64.342216,-49.109783,33.285835,-13.104656,0.70611262,-34.305626,-69.047379,-34.190086,-46.171951,-41.977139,105.90839,-34.399292,-69.160133,-16.548389,136.6474
