!CSV A.01.01
!Keysight Technologies,N5222B,MY58422327,A.13.60.06
!Date: Monday, March 28, 2022 16:30:20
!Source: Standard

BEGIN CH1_DATA
Freq(Hz),S11(DB),S11(DEG),S12(DB),S12(DEG),S13(DB),S13(DEG),S14(DB),S14(DEG),S21(DB),S21(DEG),S22(DB),S22(DEG),S23(DB),S23(DEG),S24(DB),S24(DEG),S31(DB),S31(DEG),S32(DB),S32(DEG),S33(DB),S33(DEG),S34(DB),S34(DEG),S41(DB),S41(DEG),S42(DB),S42(DEG),S43(DB),S43(DEG),S44(DB),S44(DEG)
2500000000,-17.314333,22.795424,-32.987354,26.322342,-32.863178,-7.0668354,-34.2015,6.5508604,-33.016926,26.259874,-13.411657,-173.83473,-40.293537,9.6003256,-41.109592,-121.85535,-32.845829,-7.0930262,-40.306408,9.6807547,-15.4729,24.946363,-34.083183,-13.473341,-34.251564,6.2384305,-41.080795,-122.03683,-34.15089,-13.477277,-16.606834,164.46294
2500500000,-17.302664,22.492739,-33.072102,25.041782,-32.844208,-7.7070823,-34.310398,5.4641328,-33.097061,24.939276,-13.369394,-173.97932,-40.41188,7.8537531,-40.952988,-123.57918,-32.823868,-7.7213478,-40.433216,8.0796337,-15.422963,24.408331,-34.097542,-14.302155,-34.365807,5.1965718,-40.926113,-123.73048,-34.166084,-14.308902,-16.600395,164.14577
2501000000,-17.288895,22.201778,-33.160797,23.789959,-32.820107,-8.3269835,-34.425552,4.5280514,-33.181,23.647938,-13.326323,-174.10445,-40.552299,6.0912409,-40.80397,-125.4267,-32.799522,-8.3212204,-40.576012,6.4575224,-15.371237,23.862387,-34.10854,-15.233068,-34.486885,4.2658153,-40.777229,-125.52245,-34.177799,-15.246767,-16.591669,163.82199
2501500000,-17.270578,21.924994,-33.241749,22.607145,-32.803318,-8.8642254,-34.545048,3.7575121,-33.258564,22.412996,-13.285458,-174.23911,-40.718067,4.3858075,-40.671284,-127.32014,-32.779572,-8.8592148,-40.739754,4.9118943,-15.322235,23.308167,-34.12693,-16.194426,-34.606766,3.5352654,-40.643715,-127.41901,-34.195705,-16.215673,-16.578669,163.50046
2502000000,-17.252428,21.609846,-33.318256,21.416647,-32.782097,-9.3618679,-34.650475,3.1124318,-33.333641,21.156092,-13.245701,-174.37158,-40.902256,2.7526553,-40.551304,-129.13666,-32.754921,-9.3376675,-40.908787,3.4191148,-15.274648,22.750443,-34.15229,-17.228012,-34.715321,2.8925943,-40.518913,-129.24812,-34.221325,-17.250479,-16.563721,163.16638
2502500000,-17.229965,21.289936,-33.39201,20.253023,-32.748154,-9.8414068,-34.747261,2.5675349,-33.414059,19.917187,-13.205829,-174.50186,-41.094383,1.2165112,-40.432041,-130.89507,-32.721287,-9.8215704,-41.079594,2.0438652,-15.230639,22.19483,-34.191742,-18.281839,-34.813576,2.3544612,-40.394951,-131.04381,-34.265385,-18.313555,-16.546717,162.80376
2503000000,-17.204956,20.949627,-33.45874,19.10948,-32.716293,-10.309501,-34.832794,2.0950623,-33.487137,18.711962,-13.169531,-174.6517,-41.298447,-0.26490664,-40.300518,-132.67368,-32.686081,-10.289551,-41.25333,0.63847595,-15.189411,21.647343,-34.251453,-19.260761,-34.899727,1.9118203,-40.265152,-132.8685,-34.322842,-19.305822,-16.528214,162.43613
2503500000,-17.185709,20.57959,-33.51968,17.906538,-32.684525,-10.72917,-34.904099,1.6896509,-33.559193,17.477711,-13.13408,-174.7957,-41.499657,-1.7056198,-40.157932,-134.38463,-32.649445,-10.703526,-41.419647,-0.77386874,-15.15158,21.116903,-34.311237,-20.105898,-34.974342,1.5091611,-40.130783,-134.61662,-34.385937,-20.136433,-16.508623,162.05348
2504000000,-17.163263,20.20941,-33.585426,16.6859,-32.637505,-11.079808,-34.96452,1.2938073,-33.635002,16.271202,-13.098674,-174.93279,-41.707542,-3.1583736,-40.000416,-136.10286,-32.600006,-11.051379,-41.592422,-2.2894707,-15.116159,20.614132,-34.36734,-20.870064,-35.031765,1.1046175,-39.976143,-136.34012,-34.440651,-20.898287,-16.487818,161.63475
2504500000,-17.140934,19.841185,-33.649361,15.473449,-32.572041,-11.393511,-35.014732,0.91092569,-33.70776,15.075797,-13.066261,-175.07881,-41.920891,-4.7124834,-39.813995,-137.91243,-32.531536,-11.396682,-41.778122,-3.9518344,-15.079556,20.139856,-34.414631,-21.545786,-35.081997,0.7265026,-39.791023,-138.1468,-34.488125,-21.575388,-16.463364,161.21054
2505000000,-17.115631,19.480928,-33.709965,14.199835,-32.490883,-11.769922,-35.053215,0.57048833,-33.774887,13.845945,-13.036407,-175.22925,-42.166168,-6.3048654,-39.594357,-139.86723,-32.446461,-11.787449,-42.007145,-5.7348137,-15.043622,19.676849,-34.451469,-22.187063,-35.118793,0.38302019,-39.572212,-140.1134,-34.528179,-22.212503,-16.43984,160.73941
2505500000,-17.087688,19.103685,-33.781372,12.938917,-32.388103,-12.219985,-35.081116,0.19037944,-33.84676,12.61543,-13.006446,-175.36124,-42.439262,-7.9076557,-39.365429,-142.17482,-32.340176,-12.270439,-42.25946,-7.509006,-15.004488,19.229279,-34.469219,-22.778778,-35.148952,0.014880169,-39.342773,-142.437,-34.546139,-22.791275,-16.413834,160.2439
2506000000,-17.060122,18.716955,-33.856842,11.660862,-32.27586,-12.817079,-35.106438,-0.16506475,-33.916065,11.335078,-12.978438,-175.49608,-42.736443,-9.5781183,-39.135059,-144.76483,-32.226028,-12.893319,-42.56036,-9.3480768,-14.965462,18.792522,-34.47562,-23.400785,-35.174667,-0.36157876,-39.118206,-145.04062,-34.551193,-23.40414,-16.387728,159.70157
2506500000,-17.03187,18.330961,-33.94228,10.338126,-32.161392,-13.530914,-35.125393,-0.47811565,-34.000301,10.024725,-12.951533,-175.63303,-43.081322,-11.295145,-38.920639,-147.61781,-32.110962,-13.641893,-42.900879,-11.279116,-14.924546,18.368483,-34.46648,-24.081076,-35.19104,-0.66965568,-38.909077,-147.9577,-34.543488,-24.074434,-16.363094,159.12181
2507000000,-17.007338,17.943283,-34.039989,9.0736446,-32.044022,-14.365891,-35.119865,-0.80260044,-34.097294,8.7411623,-12.923372,-175.74562,-43.495457,-12.951973,-38.731453,-150.74924,-31.993357,-14.505541,-43.323093,-13.074897,-14.881059,17.952192,-34.452198,-24.82925,-35.187897,-0.97867197,-38.726326,-151.1422,-34.529385,-24.81728,-16.342482,158.49896
2507500000,-16.977734,17.575844,-34.143204,7.8886724,-31.93108,-15.3467,-35.10281,-1.2174762,-34.20155,7.5288734,-12.896924,-175.86407,-43.981533,-14.371256,-38.579422,-154.05421,-31.884602,-15.499538,-43.818951,-14.670933,-14.835943,17.543793,-34.435593,-25.651789,-35.172001,-1.3797318,-38.583775,-154.50763,-34.509392,-25.640282,-16.325829,157.84738
2508000000,-16.952219,17.196032,-34.2467,6.7521172,-31.829494,-16.429407,-35.09201,-1.7073636,-34.310005,6.4077702,-12.868976,-175.96996,-44.531288,-15.348977,-38.460194,-157.48109,-31.783792,-16.610174,-44.381966,-15.827935,-14.790106,17.138933,-34.425678,-26.567659,-35.159008,-1.8567436,-38.482609,-157.97928,-34.497307,-26.543688,-16.314947,157.18126
2508500000,-16.926685,16.820276,-34.345348,5.6889892,-31.742008,-17.593227,-35.081688,-2.2249358,-34.414665,5.3554773,-12.839291,-176.06236,-45.125431,-15.841352,-38.383747,-160.97304,-31.700396,-17.775434,-45.016071,-16.436787,-14.739665,16.742098,-34.423958,-27.501608,-35.149334,-2.3681021,-38.422123,-161.48003,-34.493134,-27.510664,-16.308989,156.50163
2509000000,-16.90761,16.425047,-34.442883,4.6298442,-31.665373,-18.776169,-35.07951,-2.6873767,-34.514488,4.3300581,-12.811112,-176.17677,-45.78508,-15.614471,-38.340145,-164.47134,-31.629454,-18.9501,-45.69957,-16.239946,-14.688333,16.342936,-34.431377,-28.429262,-35.144028,-2.8344712,-38.397243,-164.91862,-34.503006,-28.456776,-16.306097,155.82513
2509500000,-16.889814,16.04072,-34.53677,3.5814929,-31.598408,-19.984692,-35.070908,-3.0934966,-34.613453,3.3169696,-12.780409,-176.28824,-46.438137,-14.536598,-38.327255,-167.91063,-31.565311,-20.139215,-46.406563,-15.103937,-14.633567,15.937655,-34.443737,-29.276316,-35.134377,-3.2208006,-38.396191,-168.26131,-34.518551,-29.334272,-16.307037,155.14949
2510000000,-16.879139,15.650802,-34.639069,2.5047538,-31.537331,-21.198828,-35.050972,-3.4279711,-34.714325,2.2871416,-12.748334,-176.39214,-47.079018,-12.618238,-38.333923,-171.24805,-31.50482,-21.347122,-47.082973,-12.96951,-14.577037,15.526652,-34.452156,-30.067671,-35.114697,-3.5433712,-38.414169,-171.51997,-34.52861,-30.134275,-16.312321,154.46284
2510500000,-16.878792,15.256496,-34.749962,1.4803269,-31.48295,-22.47892,-35.015953,-3.7282686,-34.822853,1.2932327,-12.717796,-176.51219,-47.67934,-9.7046671,-38.351227,-174.56592,-31.451015,-22.602013,-47.700233,-9.6247702,-14.520383,15.094746,-34.452579,-30.814466,-35.077538,-3.8487539,-38.435425,-174.73914,-34.530399,-30.893953,-16.31917,153.81046
2511000000,-16.880651,14.892778,-34.868439,0.55303293,-31.439594,-23.790213,-34.962322,-4.0520654,-34.940113,0.39634469,-12.687148,-176.62648,-48.157677,-5.5556827,-38.386127,-177.88675,-31.407934,-23.900644,-48.160542,-5.1456108,-14.462963,14.646837,-34.438675,-31.554607,-35.022594,-4.16043,-38.469452,-177.93301,-34.521564,-31.629055,-16.33062,153.15048
2511500000,-16.885471,14.558144,-34.983356,-0.21920931,-31.412012,-25.101038,-34.89465,-4.4062343,-35.051655,-0.38777122,-12.655655,-176.72955,-48.41497,-0.86022627,-38.44239,178.76961,-31.379778,-25.215784,-48.374737,-0.084756516,-14.406547,14.181574,-34.414711,-32.350704,-34.95327,-4.5129147,-38.521404,178.86131,-34.498608,-32.422661,-16.346601,152.50821
2512000000,-16.893118,14.246917,-35.086765,-0.93020058,-31.391268,-26.359402,-34.805923,-4.8185792,-35.153461,-1.0998828,-12.623763,-176.84534,-48.444843,3.7552743,-38.520844,175.52542,-31.359453,-26.467123,-48.34417,4.6705422,-14.355836,13.694893,-34.389778,-33.24509,-34.864155,-4.9236631,-38.594452,175.68901,-34.47694,-33.316307,-16.366543,151.89426
2512500000,-16.899748,13.950144,-35.176659,-1.638871,-31.38464,-27.631859,-34.70586,-5.2910037,-35.24194,-1.7876778,-12.591811,-176.96248,-48.296246,8.1540384,-38.620605,172.33502,-31.352753,-27.708614,-48.146111,8.9939766,-14.305478,13.218322,-34.367172,-34.098965,-34.763142,-5.4080195,-38.681629,172.54147,-34.456974,-34.18121,-16.386766,151.3186
2513000000,-16.904606,13.655431,-35.258793,-2.3150227,-31.380135,-28.780491,-34.584408,-5.8766446,-35.324139,-2.4539256,-12.55889,-177.07101,-47.932156,11.655684,-38.738907,169.23253,-31.348429,-28.862591,-47.742023,12.124427,-14.25776,12.73406,-34.338715,-34.989197,-34.643597,-5.9817314,-38.787094,169.43002,-34.434307,-35.061111,-16.408438,150.76645
2513500000,-16.910889,13.361506,-35.332375,-3.0045609,-31.370573,-29.891535,-34.451584,-6.6428342,-35.39856,-3.1224339,-12.526073,-177.185,-47.477268,13.643996,-38.872276,166.27197,-31.338696,-29.958664,-47.257862,13.824078,-14.213392,12.250053,-34.310612,-35.88649,-34.508327,-6.7422791,-38.909744,166.4682,-34.408379,-35.954109,-16.430082,150.24261
2514000000,-16.923294,13.057327,-35.397781,-3.6913545,-31.351603,-30.998985,-34.32296,-7.59128,-35.464512,-3.7691247,-12.49256,-177.30309,-47.01405,14.324392,-39.012562,163.51079,-31.319893,-31.06284,-46.813484,14.262195,-14.169072,11.774093,-34.276821,-36.822262,-34.376324,-7.6879826,-39.039249,163.67342,-34.376812,-36.866867,-16.452305,149.72868
2514500000,-16.935976,12.781137,-35.462219,-4.3911042,-31.330326,-32.167492,-34.197975,-8.6776991,-35.52483,-4.4458838,-12.458788,-177.43484,-46.625595,14.005698,-39.145348,160.85149,-31.2981,-32.224651,-46.442032,13.61278,-14.127796,11.302646,-34.238857,-37.7845,-34.250866,-8.7893534,-39.167999,160.92183,-34.339127,-37.791729,-16.472673,149.25481
2515000000,-16.952442,12.519496,-35.525608,-5.0914187,-31.315611,-33.39481,-34.085396,-9.9024887,-35.584255,-5.1539912,-12.426232,-177.56631,-46.346577,12.927202,-39.272137,158.3306,-31.280968,-33.431751,-46.180428,12.482688,-14.085993,10.83917,-34.200851,-38.796432,-34.135372,-10.024438,-39.291359,158.3149,-34.301918,-38.789616,-16.490673,148.80304
2515500000,-16.977304,12.289689,-35.579559,-5.8115129,-31.306261,-34.642605,-33.988327,-11.18307,-35.635372,-5.8636293,-12.394222,-177.70485,-46.151943,11.476624,-39.375153,155.82442,-31.271936,-34.671684,-46.002647,10.947993,-14.044454,10.383918,-34.162186,-39.834183,-34.036621,-11.327518,-39.406441,155.74022,-34.263863,-39.810944,-16.505373,148.37593
2516000000,-17.008718,12.096944,-35.638702,-6.5919671,-31.308012,-35.893158,-33.901974,-12.541674,-35.690376,-6.6688371,-12.360784,-177.8318,-46.058659,9.700984,-39.473415,153.20667,-31.27108,-35.912407,-45.907948,9.1407156,-14.002465,9.926075,-34.116795,-40.910103,-33.950562,-12.709091,-39.50605,153.10144,-34.219017,-40.867111,-16.518097,147.93361
2516500000,-17.045492,11.991804,-35.712509,-7.3621159,-31.317406,-37.105728,-33.82793,-13.916368,-35.761803,-7.4391551,-12.328022,-177.97234,-46.077511,7.8591352,-39.58427,150.53453,-31.278509,-37.115711,-45.933186,7.2678881,-13.961308,9.4624538,-34.075306,-42.070313,-33.879025,-14.102147,-39.625359,150.41103,-34.173088,-42.014862,-16.527166,147.53874
2517000000,-17.08267,11.962768,-35.78196,-7.9748573,-31.325577,-38.289959,-33.763237,-15.298024,-35.830139,-8.0779591,-12.297006,-178.12798,-46.162663,6.045711,-39.705566,147.90504,-31.284145,-38.294899,-46.028706,5.4074078,-13.922455,8.998271,-34.040142,-43.284012,-33.814697,-15.51165,-39.75222,147.83109,-34.135193,-43.221176,-16.533834,147.1368
2517500000,-17.124414,12.017582,-35.852608,-8.5799236,-31.343914,-39.417065,-33.696667,-16.74449,-35.897881,-8.6837845,-12.264606,-178.27116,-46.399673,4.5720615,-39.838787,145.30923,-31.301188,-39.412415,-46.281094,3.7542796,-13.884835,8.5477657,-34.010811,-44.530956,-33.753952,-16.955357,-39.889679,145.23584,-34.10453,-44.452919,-16.536934,146.73355
2518000000,-17.159239,12.170043,-35.900845,-9.114254,-31.351542,-40.503532,-33.646572,-18.23662,-35.949711,-9.2095308,-12.232775,-178.42542,-46.690197,3.6726158,-39.970074,142.7993,-31.305504,-40.48587,-46.580093,2.7335277,-13.849595,8.116415,-33.986507,-45.794708,-33.703934,-18.456612,-40.027092,142.74522,-34.077015,-45.719673,-16.536476,146.34264
2518500000,-17.18856,12.411102,-35.940834,-9.6846533,-31.350536,-41.581688,-33.607548,-19.75246,-35.990852,-9.773715,-12.201115,-178.58539,-46.987988,3.2574875,-40.094425,140.29581,-31.303686,-41.581692,-46.921997,2.3205814,-13.815181,7.7046552,-33.967873,-47.043728,-33.670551,-19.964523,-40.160866,140.27945,-34.056435,-46.968857,-16.53079,145.92888
2519000000,-17.206961,12.712298,-35.976845,-10.289663,-31.3461,-42.71735,-33.58046,-21.253002,-36.025871,-10.361145,-12.168244,-178.7422,-47.307087,3.1526179,-40.228443,137.73866,-31.297754,-42.7211,-47.28598,2.1868021,-13.780275,7.3147879,-33.950199,-48.283119,-33.647923,-21.457067,-40.296391,137.77509,-34.036037,-48.241692,-16.520155,145.49783
2519500000,-17.21027,13.058387,-36.002636,-10.97224,-31.341612,-43.878269,-33.561829,-22.723869,-36.050373,-10.996119,-12.135082,-178.90825,-47.660786,3.7239575,-40.38002,135.19156,-31.291027,-43.901829,-47.66087,2.7724919,-13.741982,6.9429259,-33.928848,-49.541603,-33.629795,-22.894442,-40.438263,135.22061,-34.015495,-49.511597,-16.506092,145.04756
2520000000,-17.201077,13.414795,-36.035805,-11.736053,-31.341852,-45.098835,-33.542114,-24.170082,-36.081135,-11.729447,-12.103656,-179.09378,-47.973316,4.8041558,-40.546303,132.64287,-31.290089,-45.134918,-48.017094,3.9985499,-13.70235,6.5839047,-33.909767,-50.867733,-33.611538,-24.315071,-40.607681,132.72174,-33.994354,-50.853134,-16.491098,144.56282
2520500000,-17.178839,13.7679,-36.084579,-12.479332,-31.348848,-46.306198,-33.52404,-25.65509,-36.124371,-12.456125,-12.071219,-179.27599,-48.227383,6.2254944,-40.734627,130.26881,-31.297003,-46.369728,-48.305511,5.7622957,-13.659756,6.2230439,-33.901073,-52.240898,-33.592766,-25.777945,-40.797829,130.37344,-33.984573,-52.220043,-16.474691,144.05249
2521000000,-17.147682,14.093548,-36.14085,-13.182663,-31.358507,-47.503548,-33.515221,-27.15099,-36.17437,-13.122899,-12.042977,-179.48929,-48.44725,7.7882686,-40.931641,128.09709,-31.306965,-47.581238,-48.535561,7.6856813,-13.613777,5.8551297,-33.899662,-53.584839,-33.580017,-27.269648,-40.990166,128.22061,-33.98267,-53.592941,-16.458473,143.51685
2521500000,-17.103531,14.397924,-36.202023,-13.802254,-31.364935,-48.658207,-33.510899,-28.636604,-36.231312,-13.752496,-12.014286,-179.70583,-48.641804,9.4550362,-41.131695,126.14349,-31.316231,-48.769001,-48.730564,9.6992626,-13.567287,5.4605799,-33.894985,-54.939091,-33.575954,-28.757927,-41.186062,126.27471,-33.98135,-54.946354,-16.444836,142.94667
2522000000,-17.051167,14.673553,-36.264591,-14.249626,-31.367586,-49.836449,-33.508232,-30.141312,-36.287384,-14.209381,-11.987264,-179.93057,-48.817574,11.466582,-41.308826,124.40826,-31.322306,-49.964447,-48.880032,12.140747,-13.520155,5.0583043,-33.898472,-56.324097,-33.572742,-30.255154,-41.363239,124.57809,-33.983501,-56.355206,-16.434776,142.3452
2522500000,-16.989359,14.923675,-36.298759,-14.638059,-31.366688,-51.029766,-33.506588,-31.678421,-36.3186,-14.631064,-11.963216,179.83569,-48.914989,13.575624,-41.457924,122.87653,-31.32398,-51.159748,-48.92992,14.489325,-13.474978,4.6388807,-33.907719,-57.721451,-33.572552,-31.792639,-41.506939,123.06375,-33.996391,-57.762775,-16.428913,141.72945
2523000000,-16.916504,15.136639,-36.323772,-15.079835,-31.363409,-52.254833,-33.511978,-33.285679,-36.339924,-15.089633,-11.941719,179.59451,-48.983555,15.422453,-41.560558,121.38727,-31.323763,-52.412014,-48.952347,16.609257,-13.430433,4.2165642,-33.921352,-59.127823,-33.579567,-33.389011,-41.605713,121.58897,-34.013691,-59.176945,-16.426071,141.10313
2523500000,-16.834803,15.31475,-36.347389,-15.500607,-31.3563,-53.534687,-33.531677,-34.946751,-36.359516,-15.532506,-11.92146,179.36687,-49.046162,17.433743,-41.630821,119.79608,-31.321972,-53.70013,-48.949291,18.696142,-13.386343,3.7903404,-33.947765,-60.544025,-33.600758,-35.030785,-41.668869,120.00454,-34.041965,-60.585732,-16.42885,140.48975
2524000000,-16.746895,15.455596,-36.358627,-15.867986,-31.350523,-54.855568,-33.569725,-36.623192,-36.369102,-15.942968,-11.904878,179.13098,-49.077953,19.483854,-41.685261,118.06171,-31.320473,-55.031235,-48.916595,20.696287,-13.34478,3.3547773,-33.982578,-61.927727,-33.636337,-36.698296,-41.712379,118.23929,-34.078514,-61.959148,-16.435757,139.86279
2524500000,-16.653872,15.53177,-36.351673,-16.192642,-31.344618,-56.230167,-33.623302,-38.26432,-36.361694,-16.312313,-11.887848,178.89943,-49.091564,21.570654,-41.735748,116.21774,-31.318529,-56.404648,-48.861961,22.654537,-13.302532,2.9225452,-34.024567,-63.265842,-33.68734,-38.325699,-41.757359,116.38961,-34.120739,-63.278767,-16.448112,139.27034
2525000000,-16.546967,15.561048,-36.320053,-16.592514,-31.339794,-57.686359,-33.687145,-39.910545,-36.331211,-16.804159,-11.872466,178.66621,-49.096268,23.503092,-41.772194,114.31114,-31.317497,-57.858082,-48.833458,24.313459,-13.259787,2.4876671,-34.071209,-64.566841,-33.752934,-39.965157,-41.781887,114.46947,-34.16629,-64.592827,-16.463936,138.68573
2525500000,-16.438187,15.493356,-36.282578,-17.107098,-31.335924,-59.196274,-33.77338,-41.540997,-36.301716,-17.391123,-11.859077,178.44055,-49.122776,26.029718,-41.814632,112.2726,-31.318678,-59.348122,-48.833107,26.433367,-13.214929,2.0370653,-34.123806,-65.820213,-33.838589,-41.583969,-41.812431,112.39551,-34.219807,-65.817863,-16.482843,138.13086
2526000000,-16.327326,15.321591,-36.236359,-17.687519,-31.340618,-60.820595,-33.882046,-43.09758,-36.260662,-18.033455,-11.848306,178.20514,-49.084923,28.594757,-41.869427,110.18962,-31.326015,-60.982964,-48.779072,28.669514,-13.175586,1.5716083,-34.176018,-66.959534,-33.944771,-43.145977,-41.859222,110.25925,-34.273106,-66.96936,-16.503206,137.61249
2526500000,-16.213179,15.061301,-36.187889,-18.432722,-31.359547,-62.526421,-34.011631,-44.55302,-36.222591,-18.826235,-11.838948,177.97569,-49.025436,31.282915,-41.929153,108.18614,-31.346539,-62.662552,-48.718761,31.094036,-13.139163,1.1078404,-34.223473,-68.044777,-34.071632,-44.601147,-41.914349,108.15536,-34.320404,-68.040962,-16.525053,137.10144
2527000000,-16.101427,14.698008,-36.150135,-19.279743,-31.391323,-64.263306,-34.156837,-45.843674,-36.198994,-19.699707,-11.831546,177.74553,-48.922733,34.262512,-41.982491,106.2576,-31.381403,-64.388184,-48.615604,33.718315,-13.104828,0.64824438,-34.261234,-69.120277,-34.216736,-45.90274,-41.969467,106.14367,-34.357571,-69.098701,-16.545717,136.62764
