!Keysight Technologies,N5222B,MY58422327,A.13.60.06
!Date: Monday, March 28, 2022 15:02:03
!Correction: S11(Full 4 Port(1,2,3,4)) 
!S12(Full 4 Port(1,2,3,4)) 
!S13(Full 4 Port(1,2,3,4)) 
!S14(Full 4 Port(1,2,3,4)) 
!S21(Full 4 Port(1,2,3,4)) 
!S22(Full 4 Port(1,2,3,4)) 
!S23(Full 4 Port(1,2,3,4)) 
!S24(Full 4 Port(1,2,3,4)) 
!S31(Full 4 Port(1,2,3,4)) 
!S32(Full 4 Port(1,2,3,4)) 
!S33(Full 4 Port(1,2,3,4)) 
!S34(Full 4 Port(1,2,3,4)) 
!S41(Full 4 Port(1,2,3,4)) 
!S42(Full 4 Port(1,2,3,4)) 
!S43(Full 4 Port(1,2,3,4)) 
!S44(Full 4 Port(1,2,3,4)) 
!S4P File: Measurements: <S11,S12,S13,S14>,
!<S21,S22,S23,S24>,
!<S31,S32,S33,S34>,
!<S41,S42,S43,S44>:
# Hz S  dB   R 50
2500000000 -17.735809 25.271566 -37.563717 25.951801 -34.918564 28.131655 -31.71261 5.1229696
-37.590504 26.040588 -13.155324 -174.42104 -39.352478 20.171309 -46.998028 -78.470322
-34.907192 27.740856 -39.325363 20.285044 -16.000664 27.346117 -34.518364 -19.370232
-31.731012 4.439394 -46.800198 -77.485497 -34.562027 -19.428127 -16.217081 166.44617
2500500000 -17.711647 24.956736 -37.737152 24.824167 -34.833595 27.454874 -31.764668 3.7111359
-37.762955 24.877031 -13.11311 -174.5947 -39.487041 19.112268 -46.90485 -80.53434
-34.827599 27.089525 -39.4571 19.347351 -15.941769 26.749256 -34.52676 -20.099802
-31.799538 3.0021126 -46.700005 -79.678085 -34.573605 -20.171032 -16.203348 166.02242
2501000000 -17.683376 24.650213 -37.919918 23.840282 -34.746727 26.761351 -31.82921 2.298919
-37.945557 23.829033 -13.069633 -174.7525 -39.644722 18.059214 -46.785461 -82.763489
-34.740425 26.437498 -39.602455 18.377178 -15.883377 26.149628 -34.527351 -20.958029
-31.879034 1.5917542 -46.596313 -82.10672 -34.578644 -21.065134 -16.189756 165.58502
2501500000 -17.649599 24.350172 -38.078239 23.017691 -34.655548 26.09366 -31.907221 0.99764639
-38.102116 22.961329 -13.028962 -174.92319 -39.805889 17.089094 -46.689747 -84.996353
-34.646881 25.798271 -39.756775 17.500605 -15.829274 25.53923 -34.532227 -21.888674
-31.970356 0.2827405 -46.513546 -84.426369 -34.582939 -22.041285 -16.174297 165.14597
2502000000 -17.615627 24.01457 -38.217777 22.231485 -34.558399 25.391409 -31.98774 -0.25809544
-38.24128 22.137344 -12.988897 -175.09071 -39.970455 16.244356 -46.563297 -87.213104
-34.549221 25.132454 -39.908459 16.705013 -15.777621 24.943743 -34.543995 -22.932896
-32.064167 -0.97250926 -46.400829 -86.729073 -34.595833 -23.119513 -16.158886 164.69759
2502500000 -17.578527 23.657917 -38.337898 21.456978 -34.470665 24.602926 -32.075405 -1.429575
-38.376507 21.31982 -12.948527 -175.25827 -40.130409 15.517927 -46.403931 -89.444954
-34.460079 24.365309 -40.049797 15.991179 -15.730027 24.36179 -34.576336 -23.995394
-32.166595 -2.1011398 -46.257069 -89.046951 -34.630341 -24.24358 -16.143524 164.2308
2503000000 -17.538937 23.282461 -38.437778 20.697424 -34.394108 23.882751 -32.166805 -2.5219698
-38.484795 20.503515 -12.910768 -175.45001 -40.281631 14.825774 -46.229908 -91.950401
-34.379353 23.639006 -40.182156 15.288282 -15.683932 23.809084 -34.620853 -25.032202
-32.266212 -3.1719549 -46.091473 -91.541176 -34.682991 -25.352333 -16.12672 163.76462
2503500000 -17.505772 22.87365 -38.513874 19.789497 -34.322914 23.261612 -32.260544 -3.5320008
-38.572124 19.619501 -12.87414 -175.64352 -40.42128 14.108712 -46.017204 -94.509789
-34.30434 23.017668 -40.304543 14.508809 -15.639259 23.282187 -34.676575 -25.970589
-32.371662 -4.1480527 -45.879387 -94.172722 -34.750351 -26.337559 -16.109777 163.28416
2504000000 -17.469402 22.463726 -38.59034 18.79138 -34.236271 22.752125 -32.352821 -4.4516397
-38.655323 18.673773 -12.837945 -175.83528 -40.559441 13.324135 -45.764938 -97.369911
-34.214214 22.494217 -40.427021 13.599259 -15.592646 22.779764 -34.732861 -26.829546
-32.476986 -5.0386419 -45.650501 -97.057022 -34.817753 -27.247726 -16.092447 162.77379
2504500000 -17.433548 22.057764 -38.65696 17.6441 -34.12981 22.270813 -32.442924 -5.2915993
-38.729042 17.586826 -12.804687 -176.04271 -40.698048 12.40275 -45.490799 -100.63641
-34.101719 21.999905 -40.565128 12.551918 -15.544707 22.300316 -34.787262 -27.581627
-32.576252 -5.8129625 -45.393715 -100.34415 -34.888199 -28.000742 -16.073431 162.25645
2505000000 -17.392418 21.659006 -38.730019 16.294756 -33.999664 21.811543 -32.523102 -6.0363441
-38.806057 16.286716 -12.774628 -176.26118 -40.872734 11.450171 -45.212345 -104.3544
-33.972847 21.47621 -40.733803 11.507809 -15.494745 21.824146 -34.838428 -28.245604
-32.666119 -6.5044875 -45.13459 -104.09594 -34.95396 -28.674204 -16.055645 161.69901
2505500000 -17.349512 21.237328 -38.824337 14.881833 -33.843102 21.221539 -32.594994 -6.758184
-38.904957 14.954432 -12.745907 -176.46806 -41.064854 10.48838 -44.952442 -108.61586
-33.819908 20.84547 -40.936661 10.486778 -15.441176 21.352074 -34.87122 -28.846304
-32.747421 -7.1538839 -44.890434 -108.27255 -35.002304 -29.238111 -16.03805 161.12253
2506000000 -17.306061 20.794619 -38.940224 13.333498 -33.675972 20.488207 -32.666164 -7.4422493
-39.019398 13.517402 -12.720253 -176.68178 -41.290569 9.5883341 -44.721241 -113.29097
-33.655888 20.074169 -41.169506 9.5431938 -15.385646 20.884424 -34.892765 -29.436947
-32.824429 -7.7613969 -44.666672 -112.88937 -35.034035 -29.765896 -16.021437 160.51265
2506500000 -17.261971 20.34511 -39.093079 11.697194 -33.499924 19.571394 -32.72995 -8.0305262
-39.159554 11.961928 -12.69739 -176.90036 -41.547508 8.8310785 -44.536617 -118.41491
-33.487164 19.169027 -41.431858 8.7519674 -15.327868 20.406956 -34.904301 -30.042366
-32.892288 -8.2621536 -44.488064 -117.93649 -35.054638 -30.272594 -16.007008 159.88173
2507000000 -17.221439 19.877234 -39.286755 10.143375 -33.323109 18.449129 -32.775246 -8.5590754
-39.334816 10.501936 -12.675981 -177.09225 -41.843979 8.3342781 -44.422913 -123.83268
-33.313446 18.057499 -41.726631 8.2108622 -15.268933 19.921494 -34.906071 -30.621071
-32.939743 -8.7321005 -44.365444 -123.30718 -35.063934 -30.770231 -15.996615 159.22205
2507500000 -17.176266 19.414106 -39.503582 8.6798906 -33.160789 17.108356 -32.802067 -9.1159582
-39.533089 9.0782242 -12.657367 -177.28471 -42.157768 8.1896925 -44.378578 -129.44504
-33.152733 16.751696 -42.038822 8.0773726 -15.209008 19.426291 -34.898094 -31.202805
-32.973373 -9.2145548 -44.309353 -128.88083 -35.054707 -31.267456 -15.989389 158.5511
2508000000 -17.138987 18.924461 -39.753525 7.3207812 -33.016415 15.638449 -32.823006 -9.7286739
-39.759354 7.7072349 -12.638657 -177.45288 -42.463333 8.5018597 -44.397316 -135.04094
-33.011169 15.298968 -42.344685 8.3596315 -15.151466 18.925438 -34.87944 -31.808144
-32.999821 -9.7333136 -44.320404 -134.52235 -35.032379 -31.805883 -15.985951 157.87415
2508500000 -17.103933 18.43252 -40.024799 6.1625142 -32.899834 14.060194 -32.843372 -10.351807
-40.008862 6.4972053 -12.618689 -177.59889 -42.745754 9.1936283 -44.469849 -140.59064
-32.892799 13.739412 -42.623032 9.0311985 -15.091615 18.431303 -34.853352 -32.448025
-33.020466 -10.246465 -44.384613 -140.12442 -35.004345 -32.416992 -15.986156 157.19043
2509000000 -17.07865 17.921185 -40.317726 5.1962705 -32.806931 12.461373 -32.859856 -10.970225
-40.289146 5.4247918 -12.600347 -177.75302 -42.980949 10.215778 -44.577095 -145.992
-32.802696 12.142252 -42.857944 10.029971 -15.032836 17.931986 -34.821991 -33.116734
-33.035702 -10.737573 -44.493145 -145.64317 -34.969955 -33.061394 -15.987415 156.50897
2509500000 -17.05809 17.427002 -40.63316 4.4645452 -32.740746 10.842366 -32.868969 -11.545422
-40.597 4.5970621 -12.578646 -177.89622 -43.151115 11.496794 -44.707447 -151.25882
-32.736919 10.565885 -43.025661 11.167459 -14.97354 17.433285 -34.784134 -33.776649
-33.039551 -11.20587 -44.62154 -151.07774 -34.931644 -33.70755 -15.991617 155.82397
2510000000 -17.048119 16.948582 -40.97271 4.0466347 -32.69025 9.2752495 -32.865753 -12.147465
-40.927265 3.998306 -12.555302 -178.02776 -43.266064 12.755223 -44.851593 -156.50992
-32.687313 9.0227213 -43.14838 12.316331 -14.91376 16.939001 -34.73307 -34.48241
-33.027565 -11.678841 -44.766083 -156.46214 -34.884338 -34.368229 -15.99968 155.12938
2510500000 -17.049097 16.484488 -41.324963 4.0942039 -32.662891 7.7525125 -32.852253 -12.788999
-41.28191 3.9383883 -12.533052 -178.17422 -43.343075 13.99826 -44.992321 -161.61954
-32.653759 7.5358777 -43.234818 13.453191 -14.855089 16.432137 -34.672935 -35.164436
-33.004105 -12.219446 -44.931221 -161.76299 -34.824894 -35.037415 -16.008772 154.46326
2511000000 -17.052692 16.069672 -41.646709 4.673224 -32.642536 6.3289285 -32.834526 -13.485476
-41.609592 4.4291358 -12.509745 -178.30943 -43.357334 15.282081 -45.137203 -166.80038
-32.62925 6.1186309 -43.271797 14.642007 -14.795866 15.918676 -34.593956 -35.917118
-32.973122 -12.809854 -45.097809 -167.10378 -34.749493 -35.745087 -16.022232 153.79205
2511500000 -17.057501 15.700758 -41.898968 5.7127752 -32.632828 4.9846601 -32.815742 -14.196073
-41.87532 5.3206091 -12.485277 -178.43561 -43.314842 16.33618 -45.283428 -172.11554
-32.614643 4.7825608 -43.257111 15.693393 -14.7376 15.391738 -34.502708 -36.793633
-32.938187 -13.457448 -45.276981 -172.54233 -34.657009 -36.579052 -16.039324 153.13786
2512000000 -17.063534 15.360131 -42.075996 6.8622532 -32.616814 3.7361515 -32.796543 -14.916373
-42.067532 6.4524341 -12.460299 -178.57753 -43.241138 17.167942 -45.446617 -177.48167
-32.592514 3.5364678 -43.210968 16.535803 -14.686435 14.843876 -34.409054 -37.870747
-32.901337 -14.117861 -45.475262 -178.02139 -34.565041 -37.589622 -16.059914 152.50801
2512500000 -17.067354 15.039737 -42.182983 7.9420834 -32.608467 2.5123003 -32.772018 -15.590872
-42.183334 7.4729056 -12.435755 -178.72185 -43.136742 17.855394 -45.637199 177.02605
-32.581482 2.2772055 -43.132694 17.34161 -14.636912 14.321287 -34.322018 -39.017315
-32.858849 -14.776385 -45.708199 176.45598 -34.473827 -38.678669 -16.080477 151.91364
2513000000 -17.069237 14.726625 -42.229065 8.8771696 -32.592506 1.3577697 -32.731609 -16.292492
-42.248981 8.4213467 -12.411281 -178.85767 -43.003944 18.173868 -45.847 171.59398
-32.563065 1.0961781 -42.995701 17.777016 -14.590276 13.79693 -34.241707 -40.298782
-32.801041 -15.478661 -45.959862 171.0014 -34.386066 -39.884369 -16.101885 151.33437
2513500000 -17.070728 14.414585 -42.240303 9.4939957 -32.570156 0.18700683 -32.678391 -17.030363
-42.275036 9.0762615 -12.387534 -178.99567 -42.843796 18.030434 -46.075108 166.18033
-32.540394 -0.11294245 -42.839588 17.757332 -14.546612 13.281931 -34.174328 -41.635052
-32.73304 -16.242252 -46.232689 165.59688 -34.312359 -41.194958 -16.124329 150.77907
2514000000 -17.075958 14.090873 -42.239735 9.8876076 -32.546566 -1.008883 -32.616367 -17.886089
-42.290897 9.5261345 -12.363007 -179.13438 -42.699802 17.459284 -46.307354 160.85544
-32.521626 -1.3348583 -42.702026 17.24909 -14.502702 12.779078 -34.118084 -43.020687
-32.658699 -17.091713 -46.502083 160.32419 -34.248684 -42.525284 -16.147581 150.23718
2514500000 -17.081005 13.786856 -42.254662 10.066835 -32.526649 -2.2419086 -32.54734 -18.840313
-42.310753 9.7270737 -12.338867 -179.27501 -42.605644 16.441023 -46.526283 155.47319
-32.503742 -2.5651481 -42.603817 16.303898 -14.462336 12.283902 -34.06929 -44.401539
-32.576485 -18.049448 -46.767921 155.05656 -34.192787 -43.892078 -16.168852 149.7309
2515000000 -17.08877 13.497515 -42.289356 10.260674 -32.510509 -3.480993 -32.476334 -19.919668
-42.348839 9.9760609 -12.315383 -179.41335 -42.574577 15.297578 -46.763798 150.18954
-32.490692 -3.8197203 -42.561863 15.269084 -14.42211 11.800138 -34.031147 -45.811035
-32.495914 -19.132774 -47.046215 149.85115 -34.148418 -45.27972 -16.187658 149.24968
2515500000 -17.103823 13.226713 -42.305126 10.423582 -32.504307 -4.7484975 -32.410091 -21.112633
-42.369003 10.242031 -12.292171 -179.55203 -42.575245 14.141266 -46.983322 144.98129
-32.487949 -5.0691938 -42.562283 14.152712 -14.382771 11.332416 -33.998138 -47.166203
-32.415501 -20.332678 -47.313919 144.82729 -34.105354 -46.620644 -16.202518 148.78836
2516000000 -17.125011 12.993688 -42.34045 10.459193 -32.507957 -5.9662442 -32.354103 -22.429434
-42.401871 10.335581 -12.267332 -179.67674 -42.624165 12.907147 -47.172497 139.52654
-32.491814 -6.2846651 -42.601475 12.961393 -14.343777 10.881937 -33.956409 -48.534046
-32.342411 -21.672049 -47.549278 139.58951 -34.055363 -47.950764 -16.215435 148.31049
2516500000 -17.149466 12.828735 -42.401287 10.624326 -32.517429 -7.1487908 -32.313915 -23.823839
-42.458454 10.557912 -12.242237 -179.80766 -42.720955 11.676778 -47.397018 133.91667
-32.502895 -7.4726377 -42.690723 11.711771 -14.304395 10.438345 -33.914989 -49.963276
-32.284733 -23.114012 -47.809269 134.26956 -34.003822 -49.362976 -16.22419 147.87361
2517000000 -17.174196 12.720895 -42.434017 11.145947 -32.527 -8.2987938 -32.292027 -25.253996
-42.498714 11.097482 -12.217962 -179.95235 -42.853336 10.498477 -47.644192 128.48297
-32.517879 -8.6047516 -42.822052 10.553156 -14.266178 10.003518 -33.880219 -51.487194
-32.247963 -24.600758 -48.095787 129.11903 -33.956818 -50.85981 -16.23052 147.42493
2517500000 -17.205036 12.674856 -42.449413 11.600196 -32.545437 -9.2958269 -32.284721 -26.693726
-42.508415 11.581762 -12.191688 179.91464 -43.068119 9.5177422 -47.894325 122.96431
-32.53801 -9.6214857 -43.036064 9.5687943 -14.227885 9.5987511 -33.859608 -53.020752
-32.227936 -26.128815 -48.378807 124.03636 -33.919117 -52.410629 -16.233433 146.96503
2518000000 -17.231285 12.707726 -42.42144 12.044028 -32.542141 -10.271284 -32.292603 -28.113836
-42.47979 12.085015 -12.16539 179.76906 -43.317726 8.9646835 -48.168018 117.57783
-32.539307 -10.551875 -43.284489 8.9829817 -14.188635 9.2171364 -33.846252 -54.526691
-32.226578 -27.644283 -48.661007 119.11311 -33.88887 -53.976547 -16.233786 146.50154
2518500000 -17.254215 12.816059 -42.385391 12.409456 -32.526096 -11.286167 -32.316013 -29.483643
-42.436298 12.474641 -12.139062 179.61583 -43.563473 8.8241806 -48.446514 112.30055
-32.528709 -11.521006 -43.538815 8.8085299 -14.14747 8.8565645 -33.837646 -56.039013
-32.245186 -29.111341 -48.927208 114.31002 -33.862167 -55.539085 -16.231546 146.00783
2519000000 -17.268854 12.974977 -42.334953 12.666326 -32.506275 -12.389269 -32.351357 -30.749832
-42.371319 12.824734 -12.112286 179.46523 -43.821365 8.9022303 -48.724842 107.21946
-32.509968 -12.558901 -43.809399 8.8591022 -14.103865 8.5093451 -33.83033 -57.550934
-32.275524 -30.473022 -49.199337 109.64735 -33.842827 -57.156437 -16.226974 145.49471
2519500000 -17.27125 13.172097 -42.272362 12.939356 -32.492134 -13.546539 -32.385918 -31.906334
-42.304852 13.092224 -12.086063 179.30589 -44.099449 9.4381571 -49.009182 102.32139
-32.489796 -13.657669 -44.100323 9.4979 -14.055091 8.1697645 -33.826878 -59.080959
-32.306461 -31.705599 -49.455616 105.20041 -33.831947 -58.802738 -16.221107 144.96759
2520000000 -17.265984 13.372993 -42.196785 13.091668 -32.487225 -14.707063 -32.409935 -32.963058
-42.220989 13.272379 -12.061265 179.1358 -44.345024 10.419997 -49.304089 97.6101
-32.477665 -14.81285 -44.355541 10.578541 -14.003857 7.831337 -33.82732 -60.590664
-32.33017 -32.861118 -49.703461 100.77497 -33.830746 -60.445461 -16.216354 144.41623
2520500000 -17.249929 13.572708 -42.111156 13.16093 -32.482792 -15.861315 -32.419548 -34.012714
-42.1339 13.406896 -12.034458 178.97656 -44.546082 11.775202 -49.610638 93.19635
-32.468403 -15.95775 -44.566544 12.094826 -13.949349 7.4795995 -33.834923 -62.12204
-32.340328 -33.976631 -49.962498 96.739395 -33.840988 -62.08672 -16.212353 143.84013
2521000000 -17.229551 13.759815 -42.013844 13.122862 -32.481167 -16.989656 -32.424744 -35.093266
-42.028538 13.42655 -12.010284 178.78841 -44.703133 13.410598 -49.906109 89.147232
-32.458557 -17.12204 -44.717987 13.895984 -13.891823 7.1115985 -33.844875 -63.620476
-32.342609 -35.121559 -50.216919 92.973114 -33.855904 -63.692333 -16.210621 143.25294
2521500000 -17.198032 13.937495 -41.912838 12.974754 -32.47369 -18.137037 -32.421082 -36.172844
-41.908035 13.2628 -11.984731 178.59935 -44.797779 15.180591 -50.203411 85.615921
-32.450367 -18.299112 -44.79081 15.835659 -13.833824 6.7111168 -33.849937 -65.135864
-32.334988 -36.271824 -50.444225 89.618698 -33.86755 -65.274086 -16.213526 142.64813
2522000000 -17.159449 14.10037 -41.81213 12.763053 -32.467865 -19.349127 -32.406803 -37.320732
-41.793594 13.053045 -11.959113 178.39708 -44.845825 17.165007 -50.432518 82.720009
-32.442459 -19.526922 -44.80822 17.918085 -13.774996 6.2911267 -33.857639 -66.703568
-32.320457 -37.503876 -50.627697 86.842476 -33.886162 -66.915428 -16.219938 142.03502
2522500000 -17.11381 14.241589 -41.702305 12.37964 -32.467373 -20.558619 -32.39082 -38.552219
-41.668186 12.596786 -11.935461 178.1768 -44.797291 19.135189 -50.61142 80.138969
-32.440147 -20.761 -44.724865 19.852831 -13.719563 5.844831 -33.870758 -68.286308
-32.304367 -38.824116 -50.737938 84.407318 -33.912159 -68.528847 -16.230833 141.42757
2523000000 -17.059961 14.356858 -41.608059 11.814171 -32.467236 -21.770105 -32.374222 -39.859955
-41.561142 11.925495 -11.914052 177.94147 -44.696877 20.848551 -50.687267 77.933067
-32.437428 -22.017412 -44.604462 21.383621 -13.664501 5.3907971 -33.888988 -69.908455
-32.288952 -40.239586 -50.739277 82.286346 -33.937244 -70.181305 -16.24464 140.83302
2523500000 -16.999681 14.451471 -41.54652 11.205407 -32.468803 -23.03742 -32.365494 -41.291634
-41.4884 11.236787 -11.893753 177.70883 -44.569332 22.374104 -50.687435 75.646729
-32.441067 -23.31295 -44.462944 22.770672 -13.611417 4.9196496 -33.916519 -71.594666
-32.282806 -41.767288 -50.644382 79.965759 -33.974598 -71.863274 -16.26174 140.27531
2524000000 -16.935169 14.520127 -41.490395 10.688941 -32.474503 -24.319237 -32.36916 -42.777245
-41.434578 10.591703 -11.877998 177.45961 -44.389347 23.677702 -50.613594 73.341476
-32.449009 -24.622356 -44.285404 23.957302 -13.56272 4.4369798 -33.956978 -73.286385
-32.292339 -43.388168 -50.493263 77.451279 -34.024029 -73.547409 -16.27973 139.72331
2524500000 -16.869808 14.552052 -41.431355 10.22552 -32.480614 -25.627897 -32.386143 -44.338547
-41.381016 10.029104 -11.863148 177.21301 -44.185307 24.697756 -50.513481 70.922081
-32.457874 -25.976547 -44.085007 24.840807 -13.513603 3.9557498 -34.014771 -74.983299
-32.31847 -45.03278 -50.332432 74.814674 -34.084122 -75.210411 -16.299646 139.20366
2525000000 -16.792622 14.572992 -41.376205 9.7092638 -32.49205 -26.999546 -32.415348 -45.928028
-41.327705 9.4252844 -11.850785 176.96416 -43.988873 25.235945 -50.364613 68.603264
-32.4753 -27.386112 -43.893833 25.311054 -13.466762 3.4702466 -34.081062 -76.617645
-32.361115 -46.736843 -50.110832 72.123566 -34.156452 -76.831764 -16.320786 138.70932
2525500000 -16.713091 14.542541 -41.331032 9.2554379 -32.509354 -28.409538 -32.464336 -47.571915
-41.29686 8.870923 -11.841152 176.7258 -43.818222 25.899845 -50.158768 66.101814
-32.498947 -28.831543 -43.740185 25.978256 -13.419504 2.9650929 -34.156464 -78.210564
-32.426723 -48.463299 -49.86013 69.181618 -34.235699 -78.406342 -16.340206 138.23843
2526000000 -16.627754 14.462041 -41.266991 8.9350319 -32.537121 -29.918238 -32.540882 -49.201744
-41.245419 8.4862671 -11.833738 176.47693 -43.614063 26.263767 -49.910263 63.293743
-32.537544 -30.37813 -43.542564 26.334988 -13.379636 2.4490788 -34.246311 -79.75705
-32.520878 -50.174736 -49.595867 65.86412 -34.327332 -79.95433 -16.358505 137.79787
2526500000 -16.533842 14.317004 -41.19207 8.4187355 -32.58625 -31.441868 -32.641228 -50.801334
-41.182571 7.9480906 -11.828131 176.23409 -43.436668 26.42878 -49.691463 60.188988
-32.595402 -31.88792 -43.362762 26.517752 -13.344508 1.9469754 -34.343487 -81.232475
-32.641617 -51.835083 -49.37421 62.42231 -34.426514 -81.406448 -16.375587 137.35129
2527000000 -16.435904 14.077063 -41.131512 7.8026056 -32.651093 -32.960732 -32.770454 -52.301567
-41.136227 7.3835182 -11.824788 175.98746 -43.275898 26.494295 -49.491821 56.968002
-32.669121 -33.395363 -43.20575 26.637215 -13.311922 1.4639726 -34.44342 -82.627159
-32.791733 -53.343628 -49.182117 59.142956 -34.534523 -82.788353 -16.389957 136.92752
