!CSV A.01.01
!Keysight Technologies,N5222B,MY58422327,A.13.60.06
!Date: Monday, March 28, 2022 15:04:55
!Source: Standard

BEGIN CH1_DATA
Freq(Hz),S11(DB),S11(DEG),S12(DB),S12(DEG),S13(DB),S13(DEG),S14(DB),S14(DEG),S21(DB),S21(DEG),S22(DB),S22(DEG),S23(DB),S23(DEG),S24(DB),S24(DEG),S31(DB),S31(DEG),S32(DB),S32(DEG),S33(DB),S33(DEG),S34(DB),S34(DEG),S41(DB),S41(DEG),S42(DB),S42(DEG),S43(DB),S43(DEG),S44(DB),S44(DEG)
2500000000,-17.682741,25.626217,-37.562565,29.81509,-34.472439,29.016167,-31.409567,2.5840044,-37.583668,29.615358,-13.126308,-174.37657,-38.761787,21.504519,-43.879768,-79.010773,-34.426117,29.003319,-38.691612,21.411562,-15.935638,26.981222,-34.669662,-17.994476,-31.461676,2.4501064,-43.811363,-79.120537,-34.740044,-18.11405,-16.28281,167.08754
2500500000,-17.660942,25.339493,-37.721783,28.961498,-34.387024,28.308849,-31.479469,1.101987,-37.7467,28.73699,-13.085759,-174.55577,-38.865734,20.360607,-43.851089,-81.134544,-34.343662,28.27371,-38.790176,20.308544,-15.882578,26.409466,-34.675201,-18.656851,-31.531584,0.97583407,-43.778034,-81.227982,-34.742878,-18.787279,-16.267174,166.64474
2501000000,-17.634367,25.067869,-37.879272,28.229649,-34.299145,27.591944,-31.558432,-0.35564438,-37.908382,27.955305,-13.044261,-174.71996,-38.983292,19.163946,-43.81636,-83.367584,-34.254719,27.548721,-38.904564,19.152767,-15.829523,25.83629,-34.67358,-19.426695,-31.610676,-0.47908521,-43.740543,-83.470078,-34.743877,-19.571432,-16.25169,166.1861
2501500000,-17.600702,24.805569,-38.012112,27.637312,-34.207287,26.880991,-31.647221,-1.7191774,-38.036797,27.361263,-13.005411,-174.89597,-39.118729,18.037214,-43.794922,-85.567917,-34.163021,26.844534,-39.031178,18.050638,-15.779318,25.263861,-34.673031,-20.234837,-31.70085,-1.8328358,-43.713455,-85.685524,-34.74408,-20.406431,-16.235556,165.72295
2502000000,-17.566174,24.507156,-38.121407,27.051184,-34.110291,26.147058,-31.739569,-3.0546691,-38.145508,26.772202,-12.967822,-175.06729,-39.257629,17.020506,-43.762669,-87.703003,-34.069359,26.109707,-39.174053,17.007622,-15.730645,24.707996,-34.675476,-21.149881,-31.792974,-3.1664097,-43.670456,-87.838943,-34.748119,-21.317976,-16.220259,165.24809
2502500000,-17.526428,24.194757,-38.215771,26.48839,-34.018757,25.390717,-31.839447,-4.3130794,-38.234543,26.178881,-12.930058,-175.23463,-39.396221,16.142025,-43.706661,-89.822853,-33.978813,25.348137,-39.309631,16.093515,-15.685113,24.16819,-34.689186,-22.080835,-31.896231,-4.4134178,-43.620213,-89.938354,-34.763245,-22.256933,-16.206997,164.75734
2503000000,-17.48317,23.851572,-38.277298,25.904446,-33.936661,24.658873,-31.944708,-5.4998965,-38.304581,25.566586,-12.894867,-175.4211,-39.525135,15.254375,-43.638077,-92.030472,-33.899994,24.586811,-39.436897,15.240142,-15.638993,23.651463,-34.711216,-22.992949,-32.000633,-5.5789952,-43.546928,-92.200104,-34.792858,-23.169294,-16.193178,164.26537
2503500000,-17.444944,23.470833,-38.316616,25.174097,-33.852566,24.008949,-32.052967,-6.5978775,-38.350079,24.832687,-12.860613,-175.60645,-39.641212,14.346847,-43.543201,-94.242287,-33.814224,23.929689,-39.545994,14.344031,-15.593287,23.158443,-34.738953,-23.799383,-32.109509,-6.6591201,-43.450619,-94.487656,-34.823616,-23.961922,-16.180616,163.76979
2504000000,-17.403086,23.083839,-38.347454,24.354067,-33.752281,23.424498,-32.164917,-7.6195083,-38.378716,23.978876,-12.82671,-175.78668,-39.756714,13.359213,-43.416912,-96.597618,-33.715046,23.344351,-39.660728,13.35007,-15.545511,22.682737,-34.763958,-24.556128,-32.220455,-7.6839457,-43.325798,-96.90123,-34.850395,-24.721937,-16.168257,163.24556
2504500000,-17.361145,22.687906,-38.361,23.353615,-33.635166,22.830578,-32.276283,-8.5303965,-38.40255,22.958254,-12.795829,-175.9794,-39.87978,12.222026,-43.258652,-99.238083,-33.597588,22.751297,-39.776745,12.190547,-15.494503,22.224508,-34.780602,-25.245884,-32.329285,-8.5863218,-43.16518,-99.566261,-34.870594,-25.369287,-16.154406,162.72984
2505000000,-17.31505,22.296822,-38.377392,22.054956,-33.504887,22.201872,-32.379623,-9.3502789,-38.424824,21.689703,-12.767334,-176.17961,-40.033104,11.02458,-43.084103,-102.22575,-33.466354,22.13339,-39.926105,11.019541,-15.442593,21.759003,-34.789024,-25.900154,-32.432434,-9.3958139,-42.989067,-102.61912,-34.881836,-26.010559,-16.141912,162.17612
2505500000,-17.267069,21.880167,-38.414497,20.661537,-33.352993,21.462984,-32.477924,-10.101759,-38.466999,20.298885,-12.739263,-176.36353,-40.21722,9.8602018,-42.922367,-105.63521,-33.314728,21.370562,-40.10918,9.7977343,-15.388038,21.294325,-34.782661,-26.555838,-32.528851,-10.149033,-42.830238,-106.0257,-34.872967,-26.639168,-16.128992,161.6149
2506000000,-17.217871,21.442488,-38.477982,19.080252,-33.197727,20.578241,-32.570068,-10.819121,-38.534451,18.707594,-12.71342,-176.55545,-40.425758,8.727129,-42.765099,-109.41329,-33.155903,20.4681,-40.317825,8.6460819,-15.331609,20.830597,-34.762959,-27.252085,-32.6208,-10.864163,-42.677689,-109.81818,-34.855042,-27.299459,-16.117002,161.02141
2506500000,-17.167582,20.991684,-38.573112,17.351753,-33.039673,19.563305,-32.659569,-11.42724,-38.637245,16.99732,-12.690191,-176.75304,-40.666092,7.7341428,-42.638,-113.58626,-32.999672,19.441719,-40.551495,7.6448193,-15.273329,20.358616,-34.740547,-28.010633,-32.708187,-11.481606,-42.551487,-113.99164,-34.830257,-28.047821,-16.107023,160.411
2507000000,-17.120466,20.521965,-38.72364,15.675781,-32.87944,18.375034,-32.731689,-11.951278,-38.791145,15.333063,-12.666801,-176.92284,-40.942085,6.9477205,-42.561111,-118.11153,-32.843231,18.235563,-40.824863,6.837038,-15.213891,19.873411,-34.717594,-28.786274,-32.777309,-12.022024,-42.482082,-118.5302,-34.805809,-28.829802,-16.100655,159.77835
2507500000,-17.069002,20.047972,-38.903267,14.051697,-32.73748,17.046438,-32.787117,-12.4768,-38.978951,13.7626,-12.645398,-177.09673,-41.230263,6.4761806,-42.545788,-122.84824,-32.700546,16.893425,-41.108067,6.3378453,-15.153493,19.38257,-34.692375,-29.583937,-32.832035,-12.563528,-42.464764,-123.29659,-34.777168,-29.616377,-16.097038,159.13638
2508000000,-17.024216,19.537701,-39.123829,12.583494,-32.61216,15.57486,-32.83255,-13.029368,-39.196552,12.336934,-12.623528,-177.25529,-41.516083,6.3296394,-42.589031,-127.69302,-32.57534,15.441678,-41.392746,6.1500602,-15.095952,18.883999,-34.664913,-30.408634,-32.879536,-13.137377,-42.514622,-128.12675,-34.750301,-30.439903,-16.097336,158.49126
2508500000,-16.982975,19.012394,-39.37289,11.333635,-32.509773,14.055965,-32.874115,-13.590786,-39.446205,11.126705,-12.600392,-177.39679,-41.799442,6.5272408,-42.686348,-132.58195,-32.475014,13.916208,-41.670067,6.3216729,-15.036264,18.388779,-34.641273,-31.244957,-32.918606,-13.690209,-42.608864,-132.93242,-34.724468,-31.287905,-16.101009,157.84271
2509000000,-16.951719,18.468685,-39.643147,10.342727,-32.428616,12.515726,-32.908989,-14.133561,-39.714832,10.18661,-12.579039,-177.55264,-42.051311,7.0303669,-42.832912,-137.38484,-32.393883,12.361575,-41.920654,6.7963557,-14.978463,17.891232,-34.614784,-32.075054,-32.953175,-14.245855,-42.751949,-137.74074,-34.699455,-32.123417,-16.10573,157.20584
2509500000,-16.926497,17.931273,-39.925583,9.6337442,-32.365513,10.981489,-32.936821,-14.66819,-39.996502,9.5062876,-12.555094,-177.70074,-42.263023,7.7392712,-43.008598,-142.13133,-32.330948,10.852585,-42.129673,7.5002813,-14.920244,17.395248,-34.586468,-32.858608,-32.98209,-14.785666,-42.926712,-142.47234,-34.668552,-32.93885,-16.112331,156.57416
2510000000,-16.912025,17.409338,-40.215485,9.2507048,-32.318363,9.4912329,-32.956242,-15.204901,-40.280972,9.1833715,-12.529572,-177.83821,-42.423992,8.5667477,-43.213402,-146.81879,-32.281342,9.3481207,-42.289417,8.2889652,-14.861962,16.90383,-34.550156,-33.648602,-33.000347,-15.317033,-43.127956,-147.11681,-34.634609,-33.726479,-16.122087,155.93573
2510500000,-16.910398,16.894302,-40.507065,9.2898445,-32.280727,8.0380659,-32.966763,-15.756053,-40.558754,9.2683878,-12.505934,-177.99239,-42.554771,9.4662342,-43.437332,-151.45966,-32.245369,7.9067259,-42.425613,9.1578293,-14.804832,16.409882,-34.502857,-34.424736,-33.010628,-15.882318,-43.349922,-151.73462,-34.589703,-34.517216,-16.131088,155.33487
2511000000,-16.912184,16.426291,-40.757404,9.7726116,-32.255867,6.6192918,-32.975098,-16.311609,-40.805767,9.7613363,-12.482014,-178.13403,-42.642284,10.455495,-43.678062,-156.12105,-32.217819,6.5161252,-42.506916,10.103466,-14.746851,15.910031,-34.442005,-35.236671,-33.018356,-16.444136,-43.581974,-156.33696,-34.530586,-35.3279,-16.142538,154.73036
2511500000,-16.917265,16.00452,-40.941071,10.569759,-32.238029,5.2765374,-32.978596,-16.857113,-40.978584,10.530409,-12.457128,-178.26003,-42.669769,11.338273,-43.938744,-160.79814,-32.201561,5.1715689,-42.550072,10.963077,-14.689846,15.402243,-34.368744,-36.131973,-33.023945,-16.996801,-43.835911,-161.0174,-34.46096,-36.225468,-16.156013,154.13878
2512000000,-16.9252,15.617004,-41.058708,11.365525,-32.215668,3.9919848,-32.974915,-17.345554,-41.081367,11.328008,-12.431437,-178.39932,-42.665409,12.123514,-44.229317,-165.46385,-32.178417,3.9030328,-42.540092,11.701344,-14.639176,14.874292,-34.293575,-37.152321,-33.019753,-17.504513,-44.110577,-165.6722,-34.390285,-37.251503,-16.17136,153.56673
2512500000,-16.931107,15.256701,-41.108952,12.028888,-32.207928,2.7103822,-32.956161,-17.804577,-41.126629,11.946599,-12.405479,-178.53964,-42.617897,12.758743,-44.54282,-170.16743,-32.168381,2.6363246,-42.497883,12.318718,-14.589417,14.370059,-34.219177,-38.210819,-33.003696,-17.958376,-44.416817,-170.37428,-34.317211,-38.308296,-16.185423,153.0195
2513000000,-16.935165,14.902719,-41.127506,12.506234,-32.190983,1.5076301,-32.914223,-18.26372,-41.138706,12.365337,-12.378476,-178.67334,-42.532654,13.083571,-44.883648,-174.80942,-32.154541,1.4444238,-42.413219,12.6296,-14.541582,13.870824,-34.145527,-39.362019,-32.962135,-18.426598,-44.750042,-175.03955,-34.24437,-39.456123,-16.199942,152.48013
2513500000,-16.939989,14.557014,-41.114662,12.702046,-32.175606,0.29440916,-32.850586,-18.810831,-41.124458,12.545651,-12.352135,-178.81371,-42.41967,12.995065,-45.245342,-179.36269,-32.1381,0.26293221,-42.307213,12.519225,-14.495554,13.378364,-34.080696,-40.583813,-32.901142,-18.971153,-45.104832,-179.57712,-34.182625,-40.674797,-16.215277,151.95721
2514000000,-16.948492,14.2029,-41.100594,12.640214,-32.157852,-0.89471787,-32.770802,-19.490692,-41.115227,12.483179,-12.32504,-178.95616,-42.324883,12.427131,-45.604202,176.11363,-32.120796,-0.91786069,-42.211357,11.965605,-14.448789,12.899635,-34.021057,-41.841949,-32.821148,-19.64916,-45.463005,175.99123,-34.122269,-41.906288,-16.231186,151.43608
2514500000,-16.957853,13.875957,-41.10347,12.400503,-32.141445,-2.0953183,-32.68399,-20.324741,-41.119904,12.204041,-12.298374,-179.10626,-42.270283,11.544896,-45.972359,171.5611,-32.103394,-2.1143682,-42.164074,11.047853,-14.404243,12.416906,-33.967365,-43.109028,-32.731213,-20.473099,-45.823853,171.39645,-34.067051,-43.172348,-16.245625,150.94846
2515000000,-16.969847,13.570883,-41.127533,12.152313,-32.12833,-3.3227434,-32.591305,-21.322378,-41.142895,11.955453,-12.272619,-179.25403,-42.272667,10.502479,-46.362671,167.00937,-32.087364,-3.3220575,-42.170013,10.029703,-14.359575,11.940722,-33.918938,-44.411621,-32.640644,-21.483366,-46.210381,166.84389,-34.016598,-44.456497,-16.258701,150.47812
2515500000,-16.987919,13.28668,-41.144314,11.883608,-32.119694,-4.5436873,-32.506783,-22.483723,-41.161671,11.661818,-12.247219,-179.40402,-42.31488,9.4902563,-46.739841,162.48334,-32.079212,-4.5396824,-42.206997,9.0074253,-14.316158,11.47559,-33.875809,-45.678738,-32.555202,-22.642687,-46.589973,162.35269,-33.972237,-45.713223,-16.268642,150.0309
2516000000,-17.012047,13.045129,-41.175407,11.454076,-32.116741,-5.7354355,-32.434345,-23.773079,-41.200405,11.257962,-12.220249,-179.54312,-42.380798,8.3707294,-47.114864,157.64507,-32.075054,-5.7426567,-42.273067,7.8986869,-14.272802,11.017942,-33.824238,-46.942421,-32.482235,-23.949251,-46.95919,157.61629,-33.919586,-46.981472,-16.276527,149.56577
2516500000,-17.037664,12.875728,-41.238674,11.124851,-32.116631,-6.907227,-32.377377,-25.175354,-41.270123,10.913502,-12.1935,-179.68921,-42.492771,7.2650571,-47.534641,152.64653,-32.074425,-6.9015894,-42.391613,6.7803354,-14.22954,10.564051,-33.768417,-48.269794,-32.426758,-25.355856,-47.383465,152.64307,-33.864872,-48.297535,-16.281097,149.14279
2517000000,-17.064522,12.757825,-41.299713,11.075184,-32.118904,-8.094697,-32.343613,-26.617556,-41.32851,10.875319,-12.167426,-179.85216,-42.634697,6.1728525,-47.99469,147.78493,-32.073963,-8.0808811,-42.52734,5.6649723,-14.18731,10.117787,-33.71756,-49.658012,-32.393467,-26.803465,-47.826813,147.84109,-33.812298,-49.701004,-16.283531,148.71635
2517500000,-17.095587,12.701708,-41.355919,11.073914,-32.12862,-9.1636295,-32.320648,-28.08942,-41.388988,10.84077,-12.139687,179.99649,-42.862862,5.2039266,-48.467751,142.95811,-32.081234,-9.1515236,-42.763554,4.6190801,-14.145025,9.6951008,-33.668003,-51.108547,-32.372143,-28.286366,-48.30497,142.85919,-33.761814,-51.144783,-16.281788,148.27806
2518000000,-17.122633,12.721132,-41.388725,11.220016,-32.124035,-10.195146,-32.317047,-29.577042,-41.418026,10.909965,-12.112613,179.82944,-43.124611,4.617425,-48.953407,138.16792,-32.076111,-10.180608,-43.030533,4.0034781,-14.102142,9.2842064,-33.626106,-52.577633,-32.372925,-29.782269,-48.78801,138.15164,-33.71851,-52.618366,-16.277088,147.84164
2518500000,-17.145657,12.810731,-41.412598,11.315454,-32.108612,-11.260742,-32.334858,-31.05171,-41.439938,11.01142,-12.085644,179.65569,-43.405579,4.4296503,-49.443554,133.57314,-32.060051,-11.249634,-43.3125,3.8230836,-14.058637,8.888526,-33.588573,-54.069397,-32.392334,-31.241631,-49.274738,133.46591,-33.679077,-54.111259,-16.26862,147.37483
2519000000,-17.16157,12.945004,-41.413437,11.48578,-32.091461,-12.39311,-32.368103,-32.412285,-41.439415,11.145342,-12.058242,179.48462,-43.707283,4.5787535,-49.915287,128.87918,-32.041264,-12.382563,-43.620556,3.8335052,-14.014257,8.5069427,-33.551346,-55.609699,-32.428173,-32.615952,-49.744179,128.90051,-33.642384,-55.659798,-16.257114,146.88843
2519500000,-17.167324,13.119378,-41.39362,11.601852,-32.078697,-13.569323,-32.408905,-33.663971,-41.420406,11.2397,-12.032077,179.30273,-44.019684,5.2141881,-50.399715,124.22301,-32.02726,-13.560615,-43.953609,4.4649587,-13.96556,8.1343279,-33.524078,-57.196743,-32.469566,-33.863068,-50.21891,124.28121,-33.613487,-57.244598,-16.243149,146.38213
2520000000,-17.164797,13.302667,-41.357681,11.608736,-32.074574,-14.790346,-32.447353,-34.803982,-41.391739,11.235965,-12.007648,179.11111,-44.302032,6.4339948,-50.888397,119.55356,-32.022781,-14.764156,-44.243439,5.6760535,-13.915379,7.7628207,-33.505108,-58.79464,-32.508526,-35.000935,-50.705593,119.67432,-33.595909,-58.860878,-16.229555,145.84554
2520500000,-17.154156,13.49159,-41.321476,11.516612,-32.073784,-15.97998,-32.472721,-35.886448,-41.353664,11.194961,-11.981828,178.93077,-44.532135,8.0858212,-51.387184,115.11076,-32.019539,-15.968822,-44.479172,7.2566857,-13.862721,7.3842449,-33.499622,-60.40892,-32.537224,-36.071201,-51.2155,115.55587,-33.588696,-60.469982,-16.216589,145.28415
2521000000,-17.138157,13.676945,-41.268307,11.467496,-32.075302,-17.172117,-32.493023,-36.957111,-41.310265,11.048838,-11.958293,178.72185,-44.691032,10.020655,-51.871189,110.969,-32.020733,-17.165216,-44.662167,9.3163404,-13.807687,6.9931297,-33.497459,-61.975613,-32.559662,-37.134426,-51.703167,111.35199,-33.589066,-62.045952,-16.20512,144.70282
2521500000,-17.110895,13.861277,-41.216213,11.248068,-32.076942,-18.333632,-32.503605,-37.998184,-41.266632,10.847172,-11.934273,178.51242,-44.767643,12.073873,-52.345284,107.32303,-32.019619,-18.344255,-44.750473,11.500042,-13.751924,6.5745654,-33.495087,-63.516785,-32.569832,-38.162193,-52.159401,107.65936,-33.586308,-63.598698,-16.197346,144.0966
2522000000,-17.076063,14.036757,-41.16637,11.058931,-32.076542,-19.55212,-32.498959,-39.07579,-41.22797,10.667176,-11.910862,178.29121,-44.782513,14.234502,-52.710857,104.1105,-32.020943,-19.563946,-44.754738,13.732318,-13.695678,6.1379371,-33.493034,-65.112709,-32.566216,-39.237656,-52.539337,104.71365,-33.585102,-65.198257,-16.193474,143.47462
2522500000,-17.03289,14.189725,-41.103054,10.784859,-32.079922,-20.773216,-32.491322,-40.235085,-41.171822,10.420218,-11.889262,178.05363,-44.70134,16.172503,-52.973438,101.01329,-32.02504,-20.779102,-44.67165,15.739597,-13.642882,5.679738,-33.499859,-66.709831,-32.558632,-40.376545,-52.795605,101.58175,-33.594463,-66.788933,-16.193884,142.84917
2523000000,-16.980238,14.318667,-41.051563,10.327966,-32.080925,-21.982521,-32.48201,-41.48304,-41.122116,10.025025,-11.870232,177.80098,-44.578354,17.702944,-53.098476,97.978302,-32.025211,-21.992775,-44.54245,17.323652,-13.590433,5.2127657,-33.509033,-68.308228,-32.548225,-41.623554,-52.905998,98.581123,-33.605835,-68.404503,-16.19787,142.23038
2523500000,-16.920332,14.420391,-41.020309,9.8402872,-32.083759,-23.240377,-32.478127,-42.843227,-41.090939,9.6352701,-11.853073,177.55437,-44.448208,18.984394,-53.105907,94.484398,-32.026043,-23.255863,-44.405586,18.656221,-13.540211,4.7315168,-33.525925,-69.957664,-32.544075,-42.984512,-52.910324,95.209732,-33.626595,-70.059212,-16.204983,141.63626
2524000000,-16.857306,14.496983,-40.998245,9.459712,-32.087032,-24.537447,-32.489983,-44.279716,-41.072849,9.2966709,-11.840849,177.29578,-44.290836,20.059141,-53.021824,90.506149,-32.030483,-24.568035,-44.236584,19.738708,-13.494445,4.2447958,-33.556599,-71.603584,-32.554516,-44.424374,-52.859528,91.213478,-33.657017,-71.696251,-16.214647,141.04089
2524500000,-16.792315,14.540435,-40.968246,9.1304483,-32.093399,-25.896521,-32.516682,-45.738686,-41.041142,9.0474672,-11.829605,177.04535,-44.112305,20.864271,-52.940533,86.003365,-32.037098,-25.935322,-44.060528,20.545044,-13.448443,3.7591004,-33.598537,-73.221054,-32.58115,-45.87508,-52.808506,86.737579,-33.699257,-73.316544,-16.226969,140.47395
2525000000,-16.714716,14.574357,-40.937687,8.8153486,-32.106747,-27.304401,-32.555271,-47.192516,-41.002605,8.7714777,-11.820114,176.79779,-43.955311,21.306353,-52.822742,81.378357,-32.05257,-27.343159,-43.904255,20.915144,-13.404457,3.2750154,-33.64806,-74.782089,-32.621712,-47.342033,-52.722507,82.094177,-33.747353,-74.864769,-16.241497,139.92554
2525500000,-16.634682,14.553113,-40.914658,8.5442066,-32.125244,-28.747532,-32.609943,-48.673794,-40.975647,8.5319138,-11.812908,176.56456,-43.835011,21.974966,-52.698238,76.367378,-32.073261,-28.797361,-43.791664,21.523176,-13.36001,2.7776113,-33.700176,-76.298988,-32.675056,-48.812222,-52.609016,77.194519,-33.801319,-76.380608,-16.256165,139.39735
2526000000,-16.547449,14.473383,-40.868244,8.3991432,-32.161789,-30.288027,-32.68301,-50.119492,-40.928696,8.3998585,-11.807431,176.3223,-43.680908,22.368513,-52.581112,70.952866,-32.106152,-30.340769,-43.643448,21.962795,-13.322027,2.272063,-33.762348,-77.775238,-32.749416,-50.250648,-52.500916,71.914291,-33.860786,-77.855904,-16.27033,138.8922
2526500000,-16.451481,14.324321,-40.807533,8.1353292,-32.212887,-31.837231,-32.773521,-51.537964,-40.863308,8.1278419,-11.803439,176.0831,-43.543835,22.700867,-52.521194,65.726013,-32.157509,-31.905029,-43.505302,22.276241,-13.287087,1.781598,-33.823746,-79.190063,-32.840584,-51.648567,-52.459316,66.761253,-33.92363,-79.266098,-16.285053,138.38368
2527000000,-16.352068,14.075804,-40.750595,7.8152313,-32.281769,-33.377815,-32.885124,-52.841976,-40.794785,7.7775741,-11.801439,175.8446,-43.421822,22.964285,-52.495129,60.788479,-32.228863,-33.471687,-43.393974,22.544014,-13.253658,1.3057129,-33.884747,-80.576218,-32.9547,-52.957249,-52.444809,61.943012,-33.986244,-80.645676,-16.299149,137.89769
