!CSV A.01.01
!Keysight Technologies,N5222B,MY58422327,A.13.60.06
!Date: Monday, March 28, 2022 15:06:21
!Source: Standard

BEGIN CH1_DATA
Freq(Hz),S11(DB),S11(DEG),S12(DB),S12(DEG),S13(DB),S13(DEG),S14(DB),S14(DEG),S21(DB),S21(DEG),S22(DB),S22(DEG),S23(DB),S23(DEG),S24(DB),S24(DEG),S31(DB),S31(DEG),S32(DB),S32(DEG),S33(DB),S33(DEG),S34(DB),S34(DEG),S41(DB),S41(DEG),S42(DB),S42(DEG),S43(DB),S43(DEG),S44(DB),S44(DEG)
2500000000,-17.603662,26.43573,-37.293545,29.37369,-33.604359,28.78989,-31.533945,2.4730799,-37.410431,29.490688,-13.131227,-174.45949,-38.471016,23.394606,-44.832821,-73.941307,-33.548752,28.287268,-38.393719,23.402859,-15.89328,26.601517,-34.61932,-19.357302,-31.573055,2.3688598,-44.733391,-75.275635,-34.697529,-19.268013,-16.316338,166.85019
2500500000,-17.573357,26.123783,-37.459614,28.634626,-33.517773,28.011574,-31.599541,0.98740482,-37.569283,28.738138,-13.091449,-174.62755,-38.565414,22.226688,-44.786831,-76.028221,-33.463097,27.534031,-38.488831,22.260019,-15.840743,26.024408,-34.618088,-20.100204,-31.637682,0.89406502,-44.692707,-77.408203,-34.69627,-19.997343,-16.301178,166.44218
2501000000,-17.538206,25.816603,-37.623615,27.974421,-33.430908,27.181465,-31.677986,-0.45197898,-37.7248,28.078011,-13.050016,-174.77742,-38.669796,21.029385,-44.738392,-78.266769,-33.378353,26.71381,-38.597775,21.091343,-15.787746,25.44627,-34.614887,-20.949688,-31.716116,-0.57580584,-44.649197,-79.649338,-34.691353,-20.871611,-16.285374,166.01476
2501500000,-17.496994,25.502415,-37.751549,27.483311,-33.346416,26.348486,-31.766481,-1.8308601,-37.848534,27.558718,-13.009964,-174.93958,-38.793884,19.899084,-44.698368,-80.49324,-33.294407,25.908514,-38.717308,20.00872,-15.738374,24.865704,-34.615391,-21.902945,-31.80382,-1.9394377,-44.622597,-81.858482,-34.691124,-21.816662,-16.26833,165.57837
2502000000,-17.4566,25.14563,-37.859787,26.965801,-33.264275,25.483128,-31.861425,-3.1625834,-37.950523,27.026609,-12.971019,-175.09984,-38.926853,18.863157,-44.639332,-82.739128,-33.212997,25.090364,-38.842209,18.996098,-15.691346,24.302891,-34.623123,-22.909555,-31.897335,-3.2822292,-44.578335,-84.001236,-34.702702,-22.824919,-16.251663,165.1279
2502500000,-17.412712,24.763792,-37.942085,26.450548,-33.191311,24.608946,-31.967024,-4.4335761,-38.033913,26.507084,-12.931914,-175.26074,-39.054111,17.916348,-44.572384,-84.992958,-33.139366,24.255674,-38.963383,18.083464,-15.647651,23.752546,-34.648159,-23.954477,-32.000542,-4.5494041,-44.507519,-86.178543,-34.726509,-23.860142,-16.235636,164.65141
2503000000,-17.368105,24.354128,-38.001041,25.905634,-33.129082,23.783504,-32.072971,-5.6107283,-38.094398,25.95927,-12.89592,-175.44362,-39.176876,16.968597,-44.483852,-87.30732,-33.074062,23.458809,-39.08416,17.165018,-15.603685,23.230614,-34.690105,-24.926407,-32.109776,-5.7440467,-44.411774,-88.447227,-34.76334,-24.841486,-16.219538,164.1743
2503500000,-17.329918,23.912804,-38.038071,25.214432,-33.065159,23.074814,-32.192265,-6.7037334,-38.126129,25.292673,-12.860468,-175.62564,-39.287285,16.001448,-44.374908,-89.727409,-33.008137,22.779833,-39.191738,16.190704,-15.560431,22.732485,-34.73711,-25.804415,-32.226131,-6.855597,-44.28973,-90.763924,-34.808044,-25.708563,-16.204863,163.69049
2504000000,-17.2906,23.464968,-38.067142,24.42284,-32.987175,22.479784,-32.31303,-7.6896124,-38.152473,24.480806,-12.824769,-175.80701,-39.401001,14.954979,-44.232079,-92.295052,-32.923756,22.194641,-39.305286,15.143602,-15.515038,22.257673,-34.778996,-26.60058,-32.348724,-7.8672647,-44.144165,-93.274124,-34.852375,-26.521742,-16.189791,163.17488
2504500000,-17.252897,23.022217,-38.087666,23.486351,-32.887691,21.880003,-32.434784,-8.5545301,-38.168583,23.55409,-12.791839,-176.00104,-39.531578,13.816161,-44.067688,-95.242851,-32.819767,21.586866,-39.428318,13.972653,-15.467991,21.798014,-34.817654,-27.338705,-32.470615,-8.7317591,-43.97879,-96.150154,-34.88871,-27.261047,-16.173027,162.66373
2505000000,-17.210949,22.588509,-38.10463,22.299658,-32.773453,21.257114,-32.5476,-9.2830544,-38.180317,22.396938,-12.761553,-176.20673,-39.681236,12.659767,-43.89156,-98.554878,-32.699932,20.959867,-39.571827,12.785775,-15.418661,21.33795,-34.852776,-27.996248,-32.585266,-9.4824553,-43.796455,-99.437889,-34.923801,-27.94385,-16.158127,162.11269
2505500000,-17.167295,22.138288,-38.136635,21.019337,-32.635159,20.50391,-32.65181,-9.9442377,-38.203629,21.084438,-12.732155,-176.40199,-39.858521,11.459373,-43.735912,-102.25132,-32.559547,20.199284,-39.751915,11.576059,-15.366614,20.879822,-34.869709,-28.626921,-32.689392,-10.136683,-43.62711,-103.14271,-34.940765,-28.581215,-16.143074,161.54536
2506000000,-17.122997,21.677422,-38.187012,19.541109,-32.491867,19.622511,-32.748508,-10.529708,-38.249237,19.589275,-12.705388,-176.60512,-40.059288,10.31286,-43.594093,-106.38596,-32.415421,19.283611,-39.957386,10.411927,-15.313035,20.42564,-34.878162,-29.239382,-32.787422,-10.747632,-43.478695,-107.24735,-34.952023,-29.218323,-16.129559,160.94156
2506500000,-17.076555,21.207455,-38.269009,17.922539,-32.347954,18.614056,-32.8372,-10.990209,-38.323074,17.937862,-12.681836,-176.81577,-40.296532,9.2388201,-43.489704,-110.96631,-32.27037,18.250784,-40.19215,9.3467264,-15.257836,19.962038,-34.882504,-29.9074,-32.87616,-11.233743,-43.368565,-111.77777,-34.956455,-29.88468,-16.11911,160.32323
2507000000,-17.033339,20.717026,-38.388126,16.331697,-32.208267,17.472258,-32.900604,-11.397882,-38.436077,16.307327,-12.65902,-177.00327,-40.572083,8.3972015,-43.449413,-115.83889,-32.127739,17.08136,-40.460278,8.4387732,-15.200614,19.49136,-34.880074,-30.509766,-32.944,-11.654738,-43.32457,-116.63696,-34.960148,-30.517076,-16.112572,159.68379
2507500000,-16.98562,20.225183,-38.542435,14.782119,-32.076042,16.179266,-32.946651,-11.802803,-38.581421,14.688057,-12.638514,-177.19041,-40.872295,7.8944402,-43.470135,-120.96162,-31.996012,15.76734,-40.757179,7.8278503,-15.143127,19.019335,-34.868778,-31.125706,-32.990223,-12.067551,-43.344643,-121.70604,-34.951134,-31.111031,-16.109846,159.04054
2508000000,-16.945168,19.699444,-38.718925,13.321084,-31.962742,14.807266,-32.980141,-12.245806,-38.760151,13.14017,-12.618519,-177.35454,-41.184547,7.7111812,-43.562119,-126.17043,-31.881571,14.366697,-41.062443,7.6446552,-15.086967,18.537477,-34.847733,-31.756586,-33.025776,-12.527779,-43.43539,-126.881,-34.92979,-31.736511,-16.110947,158.39748
2508500000,-16.909351,19.166416,-38.923965,12.000432,-31.86438,13.368557,-33.005638,-12.704806,-38.96809,11.729459,-12.597557,-177.49536,-41.491531,7.9309134,-43.708134,-131.34341,-31.78426,12.918727,-41.374496,7.86762,-15.02897,18.064615,-34.821934,-32.382652,-33.054108,-12.997656,-43.567085,-131.9814,-34.90509,-32.380795,-16.114393,157.75531
2509000000,-16.882921,18.617683,-39.154415,10.856201,-31.780695,11.905262,-33.023304,-13.176955,-39.204216,10.473487,-12.577859,-177.65219,-41.772205,8.5786419,-43.90514,-136.47594,-31.703197,11.440776,-41.664215,8.4582109,-14.971447,17.585863,-34.787853,-33.02951,-33.072559,-13.469848,-43.761215,-137.02628,-34.872761,-33.008957,-16.118454,157.12816
2509500000,-16.861917,18.085882,-39.40284,9.8659725,-31.712526,10.427623,-33.03109,-13.656761,-39.465473,9.458456,-12.555507,-177.79427,-42,9.5576363,-44.128803,-141.44113,-31.635544,9.9703121,-41.894329,9.4301338,-14.913391,17.108507,-34.741314,-33.651634,-33.081684,-13.941494,-43.995548,-141.99031,-34.82914,-33.650482,-16.123867,156.50285
2510000000,-16.851639,17.565269,-39.673958,9.1563263,-31.657967,8.9735203,-33.02668,-14.155009,-39.743713,8.6990337,-12.530989,-177.92734,-42.169186,10.704206,-44.383675,-146.32703,-31.579981,8.492238,-42.071854,10.551424,-14.854893,16.63809,-34.682499,-34.303474,-33.078415,-14.424141,-44.24305,-146.85251,-34.774624,-34.311058,-16.131531,155.87012
2510500000,-16.854061,17.056828,-39.951385,8.8118162,-31.613878,7.5118446,-33.011765,-14.684691,-40.036423,8.3433638,-12.508027,-178.07507,-42.295441,11.964561,-44.65976,-151.22993,-31.536701,7.0216827,-42.208549,11.793033,-14.796877,16.156651,-34.609657,-34.992718,-33.069275,-14.964839,-44.50769,-151.65285,-34.707161,-35.001492,-16.138123,155.26688
2511000000,-16.859531,16.607412,-40.212788,8.9226179,-31.58186,6.0987196,-32.992031,-15.268997,-40.311848,8.4422398,-12.484235,-178.21278,-42.35009,13.327536,-44.956196,-156.11787,-31.505466,5.6013446,-42.260494,13.135442,-14.737567,15.66934,-34.521763,-35.752388,-33.055473,-15.543648,-44.794807,-156.4689,-34.622639,-35.765854,-16.147848,154.65335
2511500000,-16.868002,16.208618,-40.420414,9.3622818,-31.55826,4.7123971,-32.972027,-15.869448,-40.530666,8.8986759,-12.459226,-178.34232,-42.330612,14.523787,-45.27396,-161.16608,-31.481312,4.2133198,-42.257145,14.322567,-14.679792,15.166954,-34.427345,-36.675007,-33.036568,-16.126905,-45.080177,-161.44487,-34.525192,-36.664322,-16.15999,154.05244
2512000000,-16.878176,15.858364,-40.574501,9.9110661,-31.532543,3.3778448,-32.947456,-16.46254,-40.691811,9.4795065,-12.433972,-178.48033,-42.258461,15.428921,-45.615723,-166.28638,-31.457645,2.862766,-42.195583,15.278312,-14.627831,14.645835,-34.333061,-37.752991,-33.013622,-16.728258,-45.410557,-166.45097,-34.43195,-37.72477,-16.175009,153.46582
2512500000,-16.884533,15.530754,-40.67411,10.377818,-31.521778,2.0661063,-32.916046,-17.036802,-40.80135,9.9879122,-12.408647,-178.62207,-42.153984,16.093004,-45.983932,-171.44394,-31.448406,1.530859,-42.093807,15.981967,-14.577317,14.143336,-34.242786,-38.897499,-32.984016,-17.28767,-45.765324,-171.55409,-34.342163,-38.858974,-16.188974,152.90909
2513000000,-16.887383,15.217344,-40.732468,10.773355,-31.510719,0.81169093,-32.864052,-17.633764,-40.86948,10.417481,-12.382751,-178.75496,-42.018372,16.39122,-46.392071,-176.55589,-31.43928,0.26542222,-41.957581,16.274761,-14.529105,13.643748,-34.156178,-40.148621,-32.934521,-17.85524,-46.156635,-176.57367,-34.253632,-40.126259,-16.203873,152.35799
2513500000,-16.888145,14.905609,-40.768101,10.87552,-31.496449,-0.4150278,-32.794224,-18.295216,-40.914646,10.615134,-12.357325,-178.89108,-41.870159,16.193359,-46.834648,178.20654,-31.430418,-0.96591181,-41.814671,16.085604,-14.4834,13.153675,-34.086033,-41.472061,-32.867348,-18.492931,-46.56786,178.36743,-34.183376,-41.451466,-16.219143,151.82494
2514000000,-16.891794,14.578559,-40.79237,10.824937,-31.481279,-1.6160889,-32.714256,-19.102175,-40.950127,10.634756,-12.331641,-179.02904,-41.743584,15.602925,-47.283077,173.16856,-31.418314,-2.1739693,-41.693993,15.534915,-14.436902,12.676412,-34.021282,-42.839272,-32.785252,-19.265501,-47.006035,173.37151,-34.119755,-42.816448,-16.236475,151.29645
2514500000,-16.893721,14.263547,-40.848732,10.609169,-31.464771,-2.8405092,-32.623966,-20.031656,-40.999218,10.528612,-12.306038,-179.16942,-41.668209,14.652761,-47.757858,167.91258,-31.407158,-3.3936768,-41.61689,14.592537,-14.391998,12.199566,-33.968094,-44.241245,-32.69508,-20.18063,-47.451668,168.20872,-34.067039,-44.209084,-16.252331,150.79987
2515000000,-16.898268,13.948284,-40.912743,10.489903,-31.450714,-4.0664258,-32.536694,-21.130659,-41.066528,10.505725,-12.280807,-179.30739,-41.641376,13.622843,-48.265297,162.72504,-31.399277,-4.611064,-41.600868,13.582476,-14.347932,11.728151,-33.925591,-45.641262,-32.607841,-21.262819,-47.928642,163.24643,-34.024971,-45.61784,-16.267199,150.32626
2515500000,-16.911118,13.63846,-40.972984,10.399084,-31.442221,-5.3063812,-32.4575,-22.382614,-41.120438,10.473896,-12.25538,-179.44659,-41.644211,12.627157,-48.761597,157.77516,-31.393837,-5.8302078,-41.613781,12.548834,-14.304179,11.268114,-33.888,-46.991364,-32.527298,-22.479088,-48.387062,158.21823,-33.99276,-46.990944,-16.279299,149.87976
2516000000,-16.931858,13.357663,-41.038734,10.226471,-31.439898,-6.5334387,-32.393822,-23.746622,-41.183525,10.373593,-12.228013,-179.57552,-41.682377,11.52883,-49.253246,152.48361,-31.395954,-7.0376463,-41.654018,11.491698,-14.260116,10.814879,-33.848225,-48.327755,-32.460697,-23.823862,-48.853733,152.98727,-33.954453,-48.336483,-16.289572,149.41797
2516500000,-16.957529,13.147789,-41.121067,10.224596,-31.44331,-7.7363839,-32.346195,-25.191725,-41.263294,10.418707,-12.200515,-179.71182,-41.758999,10.456425,-49.814186,146.95032,-31.403114,-8.2064524,-41.730225,10.4206,-14.216501,10.362247,-33.809307,-49.695488,-32.411888,-25.259575,-49.402565,147.59529,-33.91563,-49.698917,-16.296103,149.01077
2517000000,-16.984688,13.000086,-41.180134,10.508035,-31.447451,-8.9336872,-32.319756,-26.647058,-41.324776,10.761337,-12.173303,-179.86725,-41.856491,9.33426,-50.403378,141.79803,-31.404764,-9.3802919,-41.840389,9.3649416,-14.173965,9.9162092,-33.776615,-51.102432,-32.383389,-26.720177,-49.99324,142.44797,-33.882153,-51.094906,-16.299612,148.59445
2517500000,-17.01833,12.924605,-41.226746,10.76479,-31.460573,-9.996789,-32.30621,-28.133427,-41.37048,11.066919,-12.144007,179.98866,-42.033386,8.3704948,-50.993217,136.47226,-31.417435,-10.415122,-42.031258,8.4250126,-14.131236,9.4949102,-33.746193,-52.521255,-32.366982,-28.19412,-50.588177,137.33578,-33.853477,-52.4995,-16.297745,148.17093
2518000000,-17.04817,12.933002,-41.236553,11.122269,-31.456974,-11.014632,-32.311211,-29.607378,-41.371597,11.463306,-12.115043,179.82672,-42.235779,7.775991,-51.617638,131.46149,-31.41346,-11.42856,-42.239937,7.8865213,-14.088516,9.0856962,-33.713829,-53.901894,-32.369381,-29.676561,-51.181339,132.51895,-33.82489,-53.881973,-16.293215,147.75345
2518500000,-17.073893,13.025226,-41.224064,11.361384,-31.440874,-12.05441,-32.333344,-31.054098,-41.350071,11.750242,-12.086104,179.65598,-42.446632,7.5197773,-52.162571,126.50371,-31.397354,-12.471691,-42.45158,7.771976,-14.045519,8.6899309,-33.686783,-55.299603,-32.38995,-31.111238,-51.70187,127.727,-33.792175,-55.26828,-16.283083,147.29886
2519000000,-17.091995,13.169525,-41.186459,11.521676,-31.420427,-13.18336,-32.370159,-32.408962,-41.310154,11.970521,-12.056366,179.48196,-42.661968,7.5024114,-52.662498,121.75507,-31.377905,-13.589356,-42.659935,7.8024755,-14.001122,8.3104038,-33.648846,-56.746033,-32.421986,-32.45586,-52.200737,122.92702,-33.757774,-56.714069,-16.270496,146.82417
2519500000,-17.096395,13.356254,-41.138119,11.589107,-31.403364,-14.348836,-32.411381,-33.647747,-41.255276,12.032617,-12.027871,179.29466,-42.880611,7.8712845,-53.147472,116.66894,-31.357264,-14.763478,-42.867596,8.2358704,-13.952678,7.9402061,-33.614784,-58.251213,-32.460064,-33.693871,-52.689968,118.0197,-33.724209,-58.221516,-16.254337,146.32355
2520000000,-17.092793,13.547872,-41.084049,11.466211,-31.390825,-15.539351,-32.448429,-34.788189,-41.196114,11.93858,-12.001439,179.08995,-43.063011,8.6078959,-53.621651,111.5585,-31.346851,-15.972415,-43.055305,9.0173588,-13.902416,7.5760517,-33.586941,-59.812664,-32.494335,-34.845455,-53.164375,113.04399,-33.69735,-59.786278,-16.239,145.78851
2520500000,-17.079573,13.741176,-41.041092,11.243559,-31.379354,-16.753614,-32.476982,-35.882683,-41.140759,11.764668,-11.9738,178.89436,-43.207081,9.5139742,-54.083069,106.60065,-31.339928,-17.184641,-43.184071,10.002824,-13.849103,7.2028818,-33.569889,-61.414268,-32.520592,-35.94767,-53.641876,108.19398,-33.680866,-61.384155,-16.224874,145.22571
2521000000,-17.060492,13.923717,-40.994831,11.014977,-31.371174,-17.973499,-32.501404,-36.938911,-41.090305,11.513711,-11.950307,178.66875,-43.30962,10.628855,-54.518749,101.40421,-31.335556,-18.390017,-43.275265,11.125584,-13.792642,6.811892,-33.564831,-63.011372,-32.54089,-37.042389,-54.088531,103.60642,-33.672329,-62.983307,-16.210918,144.6433
2521500000,-17.030592,14.09687,-40.964851,10.691565,-31.363995,-19.190287,-32.516735,-37.957016,-41.049778,11.202473,-11.926937,178.44351,-43.370014,11.691916,-54.963158,97.272202,-31.33066,-19.606953,-43.3255,12.166733,-13.735594,6.3908949,-33.558712,-64.618904,-32.554985,-38.094116,-54.480183,99.458878,-33.666706,-64.576492,-16.202061,144.03957
2522000000,-16.994295,14.254153,-40.939594,10.420681,-31.356413,-20.449783,-32.521469,-38.992119,-41.018208,10.985965,-11.904311,178.20593,-43.403679,12.799712,-55.244606,93.712029,-31.323534,-20.851681,-43.34708,13.233906,-13.677991,5.9443884,-33.560257,-66.245255,-32.555805,-39.173183,-54.791412,96.15181,-33.668152,-66.216309,-16.196577,143.4128
2522500000,-16.95043,14.394896,-40.903687,10.152595,-31.352497,-21.732237,-32.514717,-40.094601,-40.97641,10.713926,-11.884116,177.95508,-43.383114,13.856786,-55.439747,90.581154,-31.321571,-22.125399,-43.331501,14.285887,-13.623825,5.4723077,-33.574883,-67.861244,-32.550293,-40.308918,-54.964741,93.196991,-33.681232,-67.8395,-16.194967,142.77861
2523000000,-16.898409,14.510114,-40.879353,9.8087091,-31.350153,-23.022623,-32.502316,-41.286266,-40.944077,10.370863,-11.867186,177.69397,-43.354877,14.728874,-55.421913,87.68026,-31.320105,-23.406759,-43.2971,15.138045,-13.57149,4.9859915,-33.59185,-69.470665,-32.53968,-41.535572,-54.929466,90.178139,-33.697563,-69.444664,-16.197384,142.15257
2523500000,-16.839045,14.606822,-40.870487,9.536665,-31.347586,-24.36664,-32.494312,-42.604031,-40.922428,10.092667,-11.852228,177.44263,-43.318382,15.575381,-55.197479,84.52037,-31.318588,-24.746674,-43.262299,15.955298,-13.522702,4.4857063,-33.615704,-71.083755,-32.533043,-42.869305,-54.744259,86.305573,-33.721195,-71.061859,-16.203152,141.54886
2524000000,-16.775972,14.680124,-40.862099,9.3717833,-31.352917,-25.714567,-32.496376,-43.97805,-40.902618,9.8925982,-11.841755,177.18613,-43.257835,16.378679,-54.877701,80.517097,-31.323252,-26.117855,-43.185722,16.796827,-13.478949,3.9783092,-33.648323,-72.664612,-32.539783,-44.256863,-54.462841,82.307709,-33.755554,-72.642296,-16.211775,140.93983
2524500000,-16.710703,14.724599,-40.830452,9.3047838,-31.35673,-27.150913,-32.51421,-45.404675,-40.862064,9.8036575,-11.831873,176.94044,-43.178951,17.095722,-54.561798,75.785423,-31.331656,-27.531712,-43.098846,17.440825,-13.436348,3.4767754,-33.68845,-74.23156,-32.557785,-45.688229,-54.212608,77.484665,-33.795361,-74.192123,-16.223751,140.35767
2525000000,-16.632856,14.759011,-40.780979,9.1709681,-31.372801,-28.604362,-32.540997,-46.863693,-40.811386,9.6454563,-11.824093,176.6971,-43.101414,17.561493,-54.211494,70.984711,-31.349554,-29.005224,-43.016491,17.878508,-13.396813,2.9845166,-33.730907,-75.739586,-32.589531,-47.147499,-53.940334,72.802444,-33.835102,-75.699417,-16.237898,139.79066
2525500000,-16.551556,14.737039,-40.737476,9.0854454,-31.394165,-30.118109,-32.584637,-48.343922,-40.7696,9.5358124,-11.817722,176.46834,-43.047081,18.342228,-53.877052,65.782646,-31.372284,-30.509916,-42.96228,18.581573,-13.356552,2.4836574,-33.775776,-77.245888,-32.635281,-48.630398,-53.651577,67.62751,-33.880451,-77.189407,-16.252548,139.24489
2526000000,-16.46372,14.656425,-40.662029,9.0826807,-31.431093,-31.704174,-32.648952,-49.814915,-40.694855,9.5021868,-11.813114,176.22745,-42.93718,18.964762,-53.554611,60.499069,-31.41021,-32.089115,-42.845604,19.125977,-13.322916,1.9830856,-33.824406,-78.714714,-32.699814,-50.101437,-53.380978,62.235767,-33.930634,-78.66214,-16.26832,138.72699
2526500000,-16.366795,14.508461,-40.571812,8.8386211,-31.486351,-33.280842,-32.730762,-51.255989,-40.600029,9.2916441,-11.809803,175.99266,-42.814331,19.388725,-53.339378,55.155304,-31.464218,-33.675663,-42.738995,19.515127,-13.292569,1.5034963,-33.876812,-80.165634,-32.783905,-51.530254,-53.167938,56.901833,-33.983158,-80.119499,-16.285059,138.20734
2527000000,-16.266567,14.258661,-40.492992,8.5235243,-31.56048,-34.853424,-32.835854,-52.592728,-40.520729,8.9557934,-11.808808,175.75833,-42.701973,19.711248,-53.151299,50.515156,-31.538805,-35.276707,-42.638237,19.785574,-13.264212,1.0413812,-33.935928,-81.590401,-32.889996,-52.854427,-53.006432,51.994343,-34.040398,-81.544464,-16.301327,137.71788
