!CSV A.01.01
!Keysight Technologies,N5222B,MY58422327,A.13.60.06
!Date: Monday, March 28, 2022 16:50:44
!Source: Standard

BEGIN CH1_DATA
Freq(Hz),S11(DB),S11(DEG),S12(DB),S12(DEG),S13(DB),S13(DEG),S14(DB),S14(DEG),S21(DB),S21(DEG),S22(DB),S22(DEG),S23(DB),S23(DEG),S24(DB),S24(DEG),S31(DB),S31(DEG),S32(DB),S32(DEG),S33(DB),S33(DEG),S34(DB),S34(DEG),S41(DB),S41(DEG),S42(DB),S42(DEG),S43(DB),S43(DEG),S44(DB),S44(DEG)
2500000000,-17.138468,25.526556,-35.830841,-5.508615,-30.665499,6.0152946,-32.119911,23.097818,-35.929905,-5.1822639,-13.359725,-175.42105,-39.033764,20.121861,-40.748459,-91.54451,-30.612387,5.770112,-38.940777,20.69322,-16.495071,24.722202,-33.15099,-6.269649,-32.152115,22.818661,-40.730873,-91.497231,-33.241787,-6.4589324,-16.167824,166.08604
2500500000,-17.116919,25.226805,-35.947227,-7.2114434,-30.685625,4.9947019,-32.186546,21.921106,-36.03344,-6.8311782,-13.318876,-175.55414,-39.163387,18.53166,-40.644691,-93.197029,-30.634012,4.7519107,-39.050751,19.058517,-16.428955,24.374393,-33.157154,-7.1368804,-32.223858,21.588942,-40.635765,-93.123886,-33.250732,-7.3059897,-16.157825,165.71355
2501000000,-17.090403,24.929171,-36.07233,-8.9217176,-30.709824,4.0475287,-32.266022,20.813244,-36.150372,-8.5143881,-13.276573,-175.67587,-39.31826,16.92259,-40.541252,-95.029716,-30.660538,3.7951934,-39.193203,17.349091,-16.360098,24.008434,-33.164803,-8.0541019,-32.307575,20.461643,-40.543888,-94.925682,-33.25906,-8.1816578,-16.145708,165.33295
2501500000,-17.057587,24.636147,-36.203075,-10.496739,-30.735865,3.2211838,-32.348892,19.865568,-36.271191,-10.095335,-13.237428,-175.81525,-39.495705,15.467592,-40.459805,-96.945038,-30.687908,2.9816628,-39.362152,15.727993,-16.290962,23.623075,-33.171436,-8.9493551,-32.397484,19.500725,-40.464142,-96.807404,-33.267319,-9.0358095,-16.130907,164.95399
2502000000,-17.023909,24.309679,-36.325722,-12.042312,-30.755692,2.514138,-32.428436,18.969351,-36.385719,-11.681321,-13.199872,-175.95097,-39.695942,14.108789,-40.381302,-98.895683,-30.707779,2.2515423,-39.561062,14.264757,-16.222309,23.220299,-33.178497,-9.8823633,-32.48642,18.610121,-40.390366,-98.707832,-33.271183,-9.9387283,-16.113371,164.56328
2502500000,-16.98473,23.972319,-36.458878,-13.565553,-30.765266,1.8416657,-32.508904,18.16103,-36.508919,-13.262733,-13.162275,-176.08501,-39.899364,12.865798,-40.3078,-100.85038,-30.71826,1.5662079,-39.766876,12.920005,-16.155764,22.80368,-33.193722,-10.803223,-32.576675,17.832861,-40.3106,-100.6298,-33.279984,-10.840024,-16.094254,164.14307
2503000000,-16.941675,23.608639,-36.588947,-14.998375,-30.764627,1.2001663,-32.584751,17.453657,-36.633541,-14.735883,-13.128603,-176.24173,-40.110596,11.730734,-40.238846,-102.84564,-30.722685,0.91791391,-39.983837,11.708816,-16.09083,22.375813,-33.214481,-11.648828,-32.657879,17.151722,-40.237457,-102.62729,-33.295376,-11.684542,-16.073618,163.72104
2503500000,-16.901794,23.201002,-36.710213,-16.432835,-30.756693,0.60618305,-32.656349,16.827108,-36.755398,-16.221819,-13.096433,-176.39543,-40.319321,10.699564,-40.161709,-104.84406,-30.717855,0.32442382,-40.19561,10.58253,-16.029274,21.949377,-33.223412,-12.379734,-32.732483,16.564117,-40.155441,-104.6207,-33.299786,-12.429032,-16.051611,163.28485
2504000000,-16.859045,22.772936,-36.837147,-17.808386,-30.733982,0.04507982,-32.719299,16.25259,-36.88839,-17.646585,-13.06439,-176.53889,-40.533581,9.733984,-40.067829,-106.85448,-30.699165,-0.23742907,-40.417095,9.5653372,-15.968877,21.534519,-33.217533,-13.123157,-32.798904,16.036934,-40.060581,-106.68224,-33.294601,-13.2011,-16.028584,162.81065
2504500000,-16.815981,22.329163,-36.955158,-19.095661,-30.694311,-0.54974127,-32.773777,15.767093,-37.015179,-18.968554,-13.035558,-176.69138,-40.751652,8.7510233,-39.957966,-109.03148,-30.664619,-0.80285287,-40.643696,8.5192766,-15.908192,21.131784,-33.201054,-13.871504,-32.853031,15.591326,-39.947834,-108.87731,-33.276054,-13.966245,-16.001953,162.32826
2505000000,-16.770126,21.864927,-37.057125,-20.356123,-30.647728,-1.1955112,-32.81374,15.332141,-37.126019,-20.266863,-13.009996,-176.84709,-40.980476,7.8563447,-39.827976,-111.39425,-30.618507,-1.4065288,-40.876652,7.6215138,-15.848244,20.719269,-33.171696,-14.626357,-32.888912,15.210763,-39.822853,-111.33593,-33.249832,-14.758861,-15.97679,161.79759
2505500000,-16.724192,21.371161,-37.151772,-21.641262,-30.586847,-1.9226874,-32.844604,14.918144,-37.231491,-21.535645,-12.984257,-176.97878,-41.221321,6.9597001,-39.707481,-114.0687,-30.556713,-2.0906277,-41.122051,6.7066226,-15.786674,20.30666,-33.130718,-15.48192,-32.913197,14.838233,-39.708805,-114.06168,-33.212276,-15.628261,-15.950035,161.24139
2506000000,-16.679291,20.849627,-37.219845,-23.001383,-30.524046,-2.7292702,-32.862778,14.532966,-37.314644,-22.853479,-12.959431,-177.10986,-41.476379,6.08077,-39.601742,-117.04726,-30.488621,-2.8720355,-41.381718,5.7522993,-15.726501,19.898703,-33.083401,-16.410772,-32.922527,14.471197,-39.613365,-117.02931,-33.170189,-16.541189,-15.923709,160.63969
2506500000,-16.63656,20.309536,-37.294907,-24.563543,-30.464468,-3.611279,-32.866104,14.20568,-37.395756,-24.345335,-12.935722,-177.24664,-41.765491,5.3083553,-39.526974,-120.25497,-30.424397,-3.7452886,-41.679966,4.8977356,-15.665757,19.488997,-33.038612,-17.43124,-32.918514,14.128267,-39.5494,-120.22081,-33.127422,-17.560171,-15.898973,160.00327
2507000000,-16.600494,19.755035,-37.382416,-26.213905,-30.406944,-4.5463085,-32.84877,13.845754,-37.489456,-25.895132,-12.910164,-177.3593,-42.087978,4.7769728,-39.486824,-123.6163,-30.360447,-4.6939435,-42.015171,4.3312035,-15.603475,19.083183,-32.995865,-18.52055,-32.892117,13.739749,-39.514572,-123.57232,-33.083797,-18.622015,-15.879174,159.32533
2507500000,-16.564186,19.213202,-37.488434,-27.939106,-30.351692,-5.5812197,-32.816227,13.399838,-37.595997,-27.48774,-12.885221,-177.48657,-42.426987,4.5988283,-39.487946,-127.06536,-30.2987,-5.7237034,-42.372955,4.1059198,-15.540176,18.672647,-32.956367,-19.676014,-32.853893,13.237535,-39.521828,-127.00894,-33.04636,-19.769718,-15.863787,158.62306
2508000000,-16.535627,18.660902,-37.611454,-29.659826,-30.305052,-6.6603384,-32.779758,12.876287,-37.710426,-29.09654,-12.859204,-177.60936,-42.765404,4.7896943,-39.523884,-130.53595,-30.245867,-6.8040495,-42.728798,4.2876167,-15.477792,18.257139,-32.926384,-20.89452,-32.815289,12.649572,-39.562553,-130.45047,-33.017185,-20.976843,-15.854025,157.9075
2508500000,-16.511267,18.117338,-37.753353,-31.326677,-30.266174,-7.7440557,-32.742569,12.322575,-37.833794,-30.698589,-12.83218,-177.72453,-43.087509,5.3986349,-39.588512,-133.99696,-30.202219,-7.928586,-43.071518,4.8886852,-15.412924,17.848085,-32.911327,-22.122763,-32.780712,12.014337,-39.633961,-133.85896,-33.000523,-22.215649,-15.848968,157.18073
2509000000,-16.495918,17.577505,-37.89959,-32.972485,-30.229485,-8.8506279,-32.702499,11.746585,-37.964836,-32.295288,-12.80785,-177.86852,-43.37426,6.2586069,-39.675747,-137.40994,-30.162733,-9.065712,-43.389061,5.8723979,-15.348405,17.427069,-32.906559,-23.340775,-32.745502,11.417717,-39.731258,-137.2171,-32.993652,-23.42309,-15.846994,156.46234
2509500000,-16.48427,17.066891,-38.053371,-34.637543,-30.198872,-9.9880714,-32.651897,11.169731,-38.103878,-33.886673,-12.782194,-178.00909,-43.627193,7.3911066,-39.788647,-140.79709,-30.130068,-10.218276,-43.655983,7.1157475,-15.282794,17.00079,-32.907104,-24.48041,-32.70155,10.807217,-39.843189,-140.54808,-32.993759,-24.583237,-15.84891,155.74464
2510000000,-16.481108,16.57242,-38.220726,-36.311844,-30.171606,-11.140141,-32.592903,10.560189,-38.25251,-35.56237,-12.756705,-178.1411,-43.83942,8.6853724,-39.916138,-144.17003,-30.102388,-11.399689,-43.886494,8.5969563,-15.217176,16.573711,-32.907024,-25.56637,-32.648174,10.194215,-39.967045,-143.80081,-32.994545,-25.687365,-15.854847,155.0186
2510500000,-16.486736,16.097441,-38.407513,-37.985565,-30.148279,-12.343787,-32.523911,9.8761244,-38.421993,-37.249931,-12.734545,-178.28949,-44.021172,10.265018,-40.058136,-147.52995,-30.079849,-12.629107,-44.067303,10.368681,-15.152876,16.12838,-32.900139,-26.588039,-32.585125,9.4970217,-40.10236,-147.12796,-32.991405,-26.741669,-15.862232,154.32794
2511000000,-16.492979,15.671524,-38.618546,-39.531437,-30.136164,-13.582274,-32.451996,9.0924511,-38.615311,-38.846069,-12.712928,-178.42503,-44.132774,12.131198,-40.216015,-150.8764,-30.068457,-13.869699,-44.172245,12.460159,-15.088718,15.668737,-32.881847,-27.629284,-32.518803,8.7248392,-40.250683,-150.41484,-32.975494,-27.787453,-15.873413,153.62958
2511500000,-16.500542,15.281401,-38.841877,-40.917049,-30.138195,-14.820106,-32.381428,8.2579279,-38.822563,-40.308598,-12.691803,-178.54146,-44.151794,13.99823,-40.391483,-154.24561,-30.068886,-15.126543,-44.175518,14.434596,-15.026757,15.196027,-32.853661,-28.720289,-32.452839,7.8961821,-40.415581,-153.78012,-32.9547,-28.886724,-15.888302,152.94551
2512000000,-16.509703,14.917436,-39.064842,-42.188831,-30.145054,-16.002035,-32.315365,7.3605237,-39.03418,-41.646107,-12.670937,-178.66469,-44.095188,15.706746,-40.589329,-157.60786,-30.075756,-16.315695,-44.102345,16.300362,-14.970912,14.707322,-32.829128,-29.896217,-32.390362,7.0056977,-40.606426,-157.14983,-32.93544,-30.044292,-15.906859,152.28024
2512500000,-16.514416,14.567849,-39.272964,-43.366421,-30.163858,-17.19088,-32.248325,6.4661636,-39.233067,-42.923504,-12.650921,-178.77628,-43.969563,17.333832,-40.806786,-160.94095,-30.092648,-17.521818,-43.953102,17.956135,-14.917531,14.2321,-32.808182,-31.079775,-32.331726,6.120306,-40.823109,-160.53085,-32.916985,-31.206373,-15.926365,151.64703
2513000000,-16.516493,14.214007,-39.482971,-44.515694,-30.186945,-18.30477,-32.176636,5.5489159,-39.438965,-44.19495,-12.630032,-178.86848,-43.750359,18.502935,-41.048111,-164.2002,-30.116127,-18.663481,-43.711624,19.11677,-14.867178,13.7642,-32.787659,-32.281174,-32.263786,5.2458944,-41.065063,-163.78499,-32.899654,-32.38834,-15.94782,151.03365
2513500000,-16.518366,13.850043,-39.690121,-45.628017,-30.20944,-19.372562,-32.097935,4.565228,-39.652885,-45.410362,-12.608825,-178.95482,-43.483906,18.978977,-41.304123,-167.3257,-30.139299,-19.756353,-43.430748,19.531757,-14.819148,13.304006,-32.772137,-33.530891,-32.190628,4.2936149,-41.322464,-166.91049,-32.885818,-33.590614,-15.969816,150.44455
2514000000,-16.524836,13.464596,-39.899685,-46.685371,-30.228563,-20.405188,-32.020061,3.4869854,-39.877674,-46.559029,-12.585572,-179.03622,-43.218945,18.726665,-41.5592,-170.35356,-30.158285,-20.81287,-43.151974,19.243387,-14.770856,12.853009,-32.760822,-34.766338,-32.115463,3.2628939,-41.576942,-169.884,-32.87413,-34.793171,-15.993226,149.8597
2514500000,-16.532598,13.090104,-40.102974,-47.720226,-30.246399,-21.457169,-31.946173,2.3249962,-40.097931,-47.653847,-12.561565,-179.12141,-42.997013,17.900114,-41.807045,-173.38901,-30.177382,-21.889246,-42.91671,18.393625,-14.725094,12.406241,-32.749023,-36.010258,-32.043995,2.1495521,-41.829002,-172.9209,-32.861492,-35.994377,-16.016422,149.31096
2515000000,-16.544588,12.717991,-40.310253,-48.770824,-30.26729,-22.505409,-31.878096,1.0793358,-40.325836,-48.697903,-12.537179,-179.20288,-42.82436,16.739525,-42.051247,-176.3734,-30.198952,-22.965364,-42.734695,17.181074,-14.67906,11.971804,-32.740269,-37.239079,-31.975786,0.97173542,-42.080418,-175.88936,-32.85181,-37.18763,-16.039076,148.78537
2515500000,-16.564152,12.358994,-40.518074,-49.770641,-30.289011,-23.545164,-31.820379,-0.20183314,-40.542366,-49.654503,-12.511881,-179.28716,-42.687382,15.35815,-42.289856,-179.4487,-30.224503,-24.038073,-42.594746,15.737295,-14.632874,11.548835,-32.731293,-38.435215,-31.913488,-0.25844964,-42.318996,-178.9539,-32.837814,-38.369411,-16.059898,148.28696
2516000000,-16.593122,12.033685,-40.71122,-50.852509,-30.314342,-24.556931,-31.771952,-1.5397651,-40.754501,-50.668488,-12.484012,-179.36067,-42.599098,13.650472,-42.546047,177.24237,-30.254776,-25.095692,-42.511425,13.99586,-14.585039,11.127841,-32.712975,-39.658951,-31.861031,-1.5378876,-42.574055,177.75575,-32.813393,-39.580547,-16.080256,147.78754
2516500000,-16.62849,11.781783,-40.941998,-52.071331,-30.340324,-25.577127,-31.73695,-2.8744001,-40.987694,-51.775436,-12.455637,-179.44734,-42.581112,11.809239,-42.842392,173.84355,-30.286331,-26.124695,-42.495174,12.101659,-14.537391,10.694749,-32.698296,-40.943329,-31.817497,-2.8514628,-42.874126,174.39676,-32.792683,-40.884796,-16.0968,147.34239
2517000000,-16.666388,11.599381,-41.213287,-53.094063,-30.363861,-26.589584,-31.712294,-4.1888947,-41.248093,-52.69054,-12.427991,-179.55305,-42.608086,9.8740797,-43.165291,170.59793,-30.314938,-27.154108,-42.526665,10.168357,-14.49108,10.255318,-32.688072,-42.262371,-31.785421,-4.1512485,-43.200142,171.1582,-32.77634,-42.217773,-16.111118,146.89655
2517500000,-16.710526,11.487092,-41.488449,-54.07412,-30.398932,-27.592106,-31.691271,-5.4831314,-41.506634,-53.610638,-12.398199,-179.64902,-42.72599,7.9437408,-43.512291,167.39531,-30.354589,-28.179924,-42.654842,8.2615051,-14.446594,9.8299761,-32.681263,-43.594952,-31.757719,-5.4591694,-43.547127,168.07602,-32.763374,-43.564724,-16.122177,146.45753
2518000000,-16.750381,11.465125,-41.779125,-54.868122,-30.427593,-28.547169,-31.678381,-6.7669053,-41.785957,-54.383133,-12.36884,-179.7616,-42.894341,6.2690024,-43.867855,164.27133,-30.392279,-29.149414,-42.830612,6.605288,-14.403786,9.4143991,-32.67585,-44.913605,-31.737097,-6.7641158,-43.896694,165.03746,-32.75864,-44.933121,-16.12994,146.03314
2518500000,-16.785866,11.520881,-42.073975,-55.558689,-30.456379,-29.514931,-31.668896,-8.000412,-42.071735,-55.090557,-12.338922,-179.87956,-43.096333,4.7603612,-44.219093,161.18799,-30.428011,-30.125193,-43.029129,5.2088594,-14.362324,9.0093155,-32.672874,-46.225544,-31.725542,-8.0232086,-44.235859,162.0191,-32.755333,-46.289688,-16.132418,145.59113
2519000000,-16.813841,11.625979,-42.38184,-56.12328,-30.487455,-30.508095,-31.656528,-9.2052479,-42.376915,-55.646206,-12.307545,-179.99692,-43.349491,3.4130661,-44.577713,157.99179,-30.46891,-31.103346,-43.278118,3.9725029,-14.321572,8.6258812,-32.667171,-47.563602,-31.712959,-9.244647,-44.579277,158.82475,-32.752583,-47.663231,-16.130573,145.13701
2519500000,-16.830704,11.766967,-42.713596,-56.494781,-30.524914,-31.492571,-31.640617,-10.378304,-42.692413,-56.069103,-12.277036,179.86963,-43.645401,2.4392056,-44.967522,154.65898,-30.516483,-32.063507,-43.565056,3.0745108,-14.278722,8.2624578,-32.661201,-48.950817,-31.69614,-10.433756,-44.954685,155.54164,-32.750763,-49.063995,-16.12462,144.67131
2520000000,-16.842352,11.912628,-43.047173,-56.673306,-30.572863,-32.449425,-31.616724,-11.567398,-43.012787,-56.291447,-12.248229,179.72124,-43.964577,1.8180141,-45.428036,151.343,-30.572212,-32.957287,-43.859753,2.5044479,-14.235334,7.9122157,-32.659161,-50.382477,-31.675076,-11.623743,-45.390087,152.24797,-32.754097,-50.499462,-16.11694,144.17534
2520500000,-16.84481,12.07315,-43.403931,-56.598942,-30.622593,-33.321232,-31.592348,-12.822531,-43.361477,-56.219326,-12.217968,179.58009,-44.300991,1.4760872,-45.925182,148.38864,-30.626034,-33.773968,-44.170422,2.1562569,-14.189268,7.5676022,-32.66658,-51.83202,-31.65122,-12.872096,-45.873993,149.27844,-32.765862,-51.94426,-16.107864,143.65034
2521000000,-16.843912,12.227077,-43.760639,-56.155991,-30.670471,-34.131138,-31.572979,-14.091544,-43.71257,-55.808292,-12.191037,179.4079,-44.656105,1.4979048,-46.43401,145.80196,-30.678143,-34.513004,-44.506241,2.1479046,-14.139601,7.218092,-32.682533,-53.25544,-31.631498,-14.135107,-46.369118,146.65833,-32.784206,-53.353561,-16.099333,143.10345
2521500000,-16.834089,12.380835,-44.100739,-55.427189,-30.712206,-34.865211,-31.554232,-15.364631,-44.044273,-55.116501,-12.163412,179.23398,-45.021664,1.9934824,-46.938541,143.6571,-30.718861,-35.184219,-44.855774,2.588105,-14.089087,6.8405824,-32.698376,-54.666183,-31.60957,-15.402987,-46.854755,144.53192,-32.798283,-54.745903,-16.094439,142.52524
2522000000,-16.819462,12.533917,-44.443947,-54.156132,-30.743534,-35.566536,-31.535604,-16.680796,-44.377949,-53.988106,-12.136212,179.04868,-45.383072,3.1362383,-47.397663,141.81197,-30.749094,-35.817955,-45.192307,3.6046443,-14.037445,6.4533844,-32.715549,-56.113167,-31.590099,-16.728371,-47.274147,142.56773,-32.815243,-56.175621,-16.093351,141.92236
2522500000,-16.797928,12.697813,-44.695427,-52.319111,-30.765471,-36.246616,-31.51745,-18.035416,-44.635258,-52.265606,-12.111473,178.84921,-45.676208,4.886672,-47.801392,140.17192,-30.765373,-36.447582,-45.468548,5.0987453,-13.988792,6.0413713,-32.73682,-57.563755,-31.569834,-18.092745,-47.660248,140.70087,-32.834442,-57.620911,-16.096634,141.31584
2523000000,-16.76626,12.858671,-44.844116,-50.51458,-30.774605,-36.931622,-31.506981,-19.465542,-44.798447,-50.503128,-12.089317,178.63988,-45.88414,6.8115187,-48.115837,138.44223,-30.768684,-37.083305,-45.68005,6.8330932,-13.941686,5.6248479,-32.763283,-59.057137,-31.556398,-19.53401,-47.966351,138.74529,-32.856533,-59.109047,-16.102983,140.71541
2523500000,-16.728598,13.016913,-44.935978,-48.813629,-30.773821,-37.66716,-31.507973,-20.911381,-44.90675,-48.876808,-12.067801,178.44168,-46.020508,8.9039478,-48.371815,136.40668,-30.760452,-37.807854,-45.822083,8.7108088,-13.89642,5.2029586,-32.802486,-60.576763,-31.557024,-21.023024,-48.233215,136.47429,-32.892757,-60.662319,-16.113428,140.13527
2524000000,-16.683992,13.1736,-44.988338,-47.240612,-30.769154,-38.454239,-31.522263,-22.369335,-44.967075,-47.297909,-12.04974,178.22841,-46.079548,10.916855,-48.625828,134.04878,-30.745613,-38.57692,-45.905334,10.552578,-13.855478,4.7781014,-32.855206,-62.048752,-31.572691,-22.502117,-48.496426,133.82249,-32.943344,-62.171818,-16.126421,139.55763
2524500000,-16.63389,13.307853,-44.975246,-45.598,-30.75935,-39.273403,-31.543953,-23.794975,-44.965942,-45.719112,-12.031676,178.01648,-46.068897,12.714456,-48.871769,131.48109,-30.729607,-39.419788,-45.938602,12.266447,-13.814437,4.3683848,-32.915161,-63.472382,-31.596853,-23.939362,-48.762512,131.09758,-33.004818,-63.609825,-16.14209,139.01247
2525000000,-16.568106,13.429712,-44.896271,-44.344486,-30.747009,-40.166115,-31.569159,-25.238899,-44.911945,-44.521595,-12.015641,177.7989,-46.039307,14.006845,-49.06736,128.5968,-30.71003,-40.349464,-45.93354,13.503108,-13.773482,3.9661527,-32.980461,-64.811829,-31.62697,-25.387089,-48.994267,128.07376,-33.073666,-64.981659,-16.159237,138.4799
2525500000,-16.499083,13.479684,-44.835125,-43.60046,-30.73172,-41.10358,-31.610233,-26.715979,-44.86517,-43.734112,-12.001819,177.58864,-46.055298,15.394567,-49.282726,125.21906,-30.68956,-41.334236,-45.986919,14.999519,-13.730634,3.5585485,-33.044949,-66.087959,-31.671053,-26.834118,-49.250816,124.60022,-33.143978,-66.269165,-16.176718,137.96611
2526000000,-16.424648,13.468649,-44.747871,-42.832054,-30.719978,-42.162598,-31.670727,-28.119427,-44.803211,-42.902374,-11.990103,177.36449,-46.03968,16.585482,-49.537067,121.62525,-30.678709,-42.450211,-45.996376,16.31259,-13.693179,3.1470585,-33.104733,-67.304871,-31.731155,-28.236568,-49.537334,121.03807,-33.210003,-67.490097,-16.19573,137.47951
2526500000,-16.343643,13.400698,-44.670723,-42.383587,-30.718161,-43.25021,-31.742878,-29.464949,-44.734428,-42.274158,-11.980343,177.14343,-46.06937,17.740271,-49.827709,118.02858,-30.676704,-43.594784,-46.035824,17.711235,-13.656551,2.7539706,-33.15604,-68.511528,-31.803211,-29.574709,-49.854027,117.41473,-33.266422,-68.677856,-16.215004,136.99289
2527000000,-16.259315,13.252647,-44.598888,-42.095554,-30.725225,-44.374878,-31.830349,-30.705004,-44.678612,-41.828827,-11.973228,176.91814,-46.113094,19.247723,-50.111507,114.52341,-30.687637,-44.762085,-46.080093,19.449722,-13.62014,2.3720081,-33.207413,-69.734268,-31.88868,-30.810959,-50.170929,113.96315,-33.319485,-69.865288,-16.233883,136.53261
