!CSV A.01.01
!Keysight Technologies,N5222B,MY58422327,A.13.60.06
!Date: Monday, March 28, 2022 16:52:09
!Source: Standard

BEGIN CH1_DATA
Freq(Hz),S11(DB),S11(DEG),S12(DB),S12(DEG),S13(DB),S13(DEG),S14(DB),S14(DEG),S21(DB),S21(DEG),S22(DB),S22(DEG),S23(DB),S23(DEG),S24(DB),S24(DEG),S31(DB),S31(DEG),S32(DB),S32(DEG),S33(DB),S33(DEG),S34(DB),S34(DEG),S41(DB),S41(DEG),S42(DB),S42(DEG),S43(DB),S43(DEG),S44(DB),S44(DEG)
2500000000,-17.031008,24.997103,-36.076607,-6.8833237,-30.591787,5.9614787,-32.312767,23.203814,-36.090061,-5.5969081,-13.375729,-175.27229,-38.826683,19.035746,-39.712341,-91.62249,-30.512192,5.6592331,-38.708889,18.310755,-16.489759,24.685116,-33.4412,-7.3727093,-32.299644,23.706474,-39.72303,-91.311539,-33.426792,-6.5295854,-16.234972,166.411
2500500000,-17.016817,24.600595,-36.209526,-8.5703897,-30.613379,4.9124451,-32.396961,22.170069,-36.205341,-7.2842388,-13.33491,-175.39346,-38.929962,17.495634,-39.646553,-93.28038,-30.539255,4.5111709,-38.834984,16.748127,-16.422558,24.345959,-33.461094,-8.1243181,-32.370888,22.657116,-39.648643,-92.938362,-33.43293,-7.4013314,-16.226507,166.03427
2501000000,-17.001064,24.224934,-36.35471,-10.259332,-30.639133,3.9307551,-32.486786,21.279341,-36.337048,-8.9742336,-13.292521,-175.50177,-39.053528,15.93872,-39.579441,-95.01075,-30.576168,3.4239516,-38.978832,15.198902,-16.352709,23.984673,-33.47665,-8.8944082,-32.450592,21.729239,-39.573322,-94.655998,-33.44228,-8.3240938,-16.215981,165.65616
2501500000,-16.980217,23.872862,-36.504364,-11.812875,-30.663979,3.0821068,-32.576439,20.551859,-36.46703,-10.512537,-13.252941,-175.6293,-39.185581,14.48106,-39.528976,-96.785461,-30.617075,2.4857597,-39.131077,13.745713,-16.282427,23.600679,-33.492889,-9.6103802,-32.527321,20.967527,-39.514183,-96.456268,-33.457317,-9.148592,-16.201696,165.28377
2502000000,-16.958767,23.498472,-36.648613,-13.302215,-30.680912,2.3011887,-32.656158,19.91695,-36.592529,-12.017905,-13.214622,-175.75108,-39.333908,13.057103,-39.474186,-98.506569,-30.654844,1.6698929,-39.302738,12.343325,-16.212812,23.198109,-33.502934,-10.348749,-32.593319,20.290285,-39.443623,-98.255684,-33.470104,-9.9653187,-16.184385,164.90115
2502500000,-16.932871,23.125097,-36.799686,-14.747702,-30.688419,1.5220119,-32.728981,19.395578,-36.723389,-13.487077,-13.17581,-175.87419,-39.481091,11.72627,-39.40987,-100.21883,-30.681255,0.90573156,-39.473114,11.056744,-16.145922,22.776018,-33.517349,-11.040912,-32.65099,19.692884,-39.380386,-100.02959,-33.484798,-10.737525,-16.165489,164.48869
2503000000,-16.903515,22.733244,-36.9515,-16.089323,-30.693083,0.76307356,-32.784706,18.965332,-36.848198,-14.865948,-13.14043,-176.01918,-39.637779,10.386714,-39.340961,-101.96097,-30.7054,0.18229969,-39.655258,9.8434305,-16.08161,22.344557,-33.526634,-11.671572,-32.693275,19.153765,-39.306152,-101.8764,-33.493759,-11.420876,-16.145077,164.06752
2503500000,-16.877579,22.313341,-37.095455,-17.407114,-30.698875,0.032401975,-32.826645,18.543478,-36.966209,-16.241499,-13.106371,-176.16586,-39.790585,9.0606785,-39.247501,-103.75039,-30.723356,-0.44395128,-39.827591,8.6235847,-16.020897,21.917736,-33.517044,-12.233706,-32.724503,18.640903,-39.224236,-103.73425,-33.483978,-12.01285,-16.123753,163.63045
2504000000,-16.847561,21.885118,-37.247231,-18.627945,-30.696314,-0.65356076,-32.858875,18.177303,-37.089539,-17.60734,-13.072595,-176.30345,-39.953854,7.7050128,-39.14257,-105.57734,-30.727484,-1.0196568,-40.007523,7.4358497,-15.961637,21.508459,-33.488876,-12.827897,-32.7481,18.117632,-39.128025,-105.63937,-33.45475,-12.653617,-16.1021,163.15858
2504500000,-16.816235,21.453657,-37.383533,-19.694595,-30.683584,-1.324609,-32.875481,17.83638,-37.200508,-18.901859,-13.041686,-176.45351,-40.127213,6.2712183,-39.014111,-107.58423,-30.714605,-1.5685383,-40.189922,6.1507659,-15.901808,21.114479,-33.45052,-13.472219,-32.761707,17.612972,-39.009415,-107.70535,-33.412628,-13.346011,-16.077694,162.68555
2505000000,-16.780794,21.012878,-37.494949,-20.752588,-30.665466,-2.0080793,-32.874996,17.496588,-37.293106,-20.218613,-13.014071,-176.60979,-40.321243,4.8866186,-38.871605,-109.86241,-30.690559,-2.1437733,-40.398708,4.9121165,-15.841537,20.717329,-33.400562,-14.162224,-32.765678,17.112234,-38.877544,-110.03547,-33.359863,-14.077699,-16.054266,162.17169
2505500000,-16.744345,20.536922,-37.597118,-21.794916,-30.637217,-2.7168119,-32.859573,17.154629,-37.387157,-21.550032,-12.987153,-176.74442,-40.539959,3.4449234,-38.736492,-112.41982,-30.649429,-2.7683029,-40.624191,3.6387889,-15.778604,20.315075,-33.340561,-14.961787,-32.7616,16.618795,-38.750729,-112.61218,-33.292496,-14.929865,-16.028786,161.63921
2506000000,-16.709414,20.035557,-37.672718,-22.922842,-30.60421,-3.4719584,-32.834698,16.760178,-37.470078,-23.000488,-12.961452,-176.87852,-40.78112,2.0022783,-38.611973,-115.30119,-30.603493,-3.4699543,-40.87146,2.3947794,-15.716202,19.913485,-33.27729,-15.838532,-32.751049,16.109922,-38.637196,-115.48138,-33.224018,-15.882789,-16.002451,161.06079
2506500000,-16.676151,19.517614,-37.742771,-24.233786,-30.570213,-4.2645497,-32.797153,16.347118,-37.560028,-24.600069,-12.937403,-177.01532,-41.061699,0.61705005,-38.516197,-118.41883,-30.554377,-4.2501574,-41.157284,1.2147033,-15.65263,19.502691,-33.215343,-16.817186,-32.728199,15.618131,-38.553768,-118.59064,-33.15612,-16.951611,-15.976828,160.44489
2507000000,-16.650614,18.988224,-37.825787,-25.651598,-30.53364,-5.0959206,-32.744068,15.860992,-37.671776,-26.230543,-12.911325,-177.12646,-41.389923,-0.59112912,-38.459164,-121.74358,-30.505283,-5.0942097,-41.484623,0.28852707,-15.588825,19.088346,-33.157494,-17.854717,-32.688862,15.062654,-38.501507,-121.8558,-33.093227,-18.093969,-15.955523,159.77939
2507500000,-16.62455,18.48287,-37.919743,-27.128283,-30.498425,-5.9689474,-32.686783,15.26,-37.80286,-27.889563,-12.885731,-177.2496,-41.74435,-1.5170901,-38.442596,-125.16029,-30.454861,-6.012898,-41.829498,-0.34379375,-15.524813,18.669603,-33.10437,-18.978107,-32.642502,14.431574,-38.489941,-125.25812,-33.039833,-19.322676,-15.939295,159.08858
2508000000,-16.606998,17.977877,-38.02293,-28.622002,-30.46405,-6.8945765,-32.630524,14.572844,-37.94725,-29.46154,-12.858796,-177.3694,-42.123516,-2.1334147,-38.46413,-128.61885,-30.411482,-6.9873657,-42.180172,-0.6582092,-15.462275,18.243845,-33.058735,-20.137508,-32.596798,13.714653,-38.513885,-128.6824,-32.99577,-20.602003,-15.928592,158.38329
2508500000,-16.592161,17.497032,-38.139072,-30.148743,-30.432928,-7.8222437,-32.580624,13.858091,-38.09882,-30.965864,-12.831088,-177.48091,-42.522331,-2.4316056,-38.52039,-132.07491,-30.373451,-7.9944649,-42.53936,-0.67646217,-15.39714,17.825954,-33.019646,-21.311974,-32.556229,12.953363,-38.567554,-132.10358,-32.964733,-21.92519,-15.923123,157.66527
2509000000,-16.585011,17.029894,-38.259113,-31.67083,-30.401419,-8.7816601,-32.532753,13.136333,-38.255241,-32.410023,-12.806085,-177.61865,-42.922009,-2.3291695,-38.603172,-135.48091,-30.338402,-9.028348,-42.889305,-0.32116854,-15.33334,17.399076,-32.992664,-22.483002,-32.518394,12.204402,-38.650177,-135.48819,-32.948647,-23.218319,-15.921004,156.95683
2509500000,-16.579243,16.598089,-38.391972,-33.223862,-30.372389,-9.7477589,-32.479267,12.447783,-38.411396,-33.852909,-12.779545,-177.75615,-43.319134,-1.7791116,-38.711868,-138.84975,-30.309673,-10.095917,-43.221264,0.36977896,-15.26796,16.96936,-32.966442,-23.61545,-32.476089,11.46462,-38.751602,-138.8596,-32.936985,-24.45933,-15.922812,156.24809
2510000000,-16.580687,16.195482,-38.538059,-34.810764,-30.344086,-10.731668,-32.419704,11.763828,-38.570847,-35.340073,-12.752892,-177.88403,-43.697533,-0.76440835,-38.832691,-142.15405,-30.284664,-11.15363,-43.526878,1.3615161,-15.20219,16.532288,-32.941124,-24.721125,-32.425369,10.73218,-38.872444,-142.21561,-32.92622,-25.668669,-15.92855,155.53252
2510500000,-16.588217,15.818465,-38.706844,-36.36451,-30.315245,-11.76726,-32.346783,11.036325,-38.752644,-36.810658,-12.729326,-178.02672,-44.040234,0.73099321,-38.972244,-145.48592,-30.265179,-12.249168,-43.799759,2.783874,-15.13815,16.074196,-32.907806,-25.822292,-32.365192,9.9565601,-39.01445,-145.55272,-32.911129,-26.840111,-15.936505,154.85104
2511000000,-16.593134,15.485207,-38.900749,-37.802849,-30.295633,-12.84082,-32.267612,10.230142,-38.953362,-38.18264,-12.706497,-178.15491,-44.310478,2.7532792,-39.126804,-148.80559,-30.253572,-13.363169,-44.007824,4.5545173,-15.075257,15.606291,-32.869476,-26.963945,-32.300621,9.1036205,-39.17297,-148.85849,-32.888493,-28.018709,-15.948662,154.16957
2511500000,-16.59651,15.181395,-39.103657,-39.032322,-30.279875,-13.922606,-32.185055,9.3564615,-39.162918,-39.334877,-12.68358,-178.26497,-44.468063,5.0606728,-39.305725,-152.14131,-30.250044,-14.471889,-44.118519,6.4880509,-15.014102,15.128342,-32.826557,-28.17157,-32.235695,8.2017593,-39.349056,-152.19562,-32.864487,-29.258741,-15.964799,153.50752
2512000000,-16.598137,14.889896,-39.301601,-40.113838,-30.264063,-14.980837,-32.099907,8.4024019,-39.35844,-40.329708,-12.660687,-178.38037,-44.517807,7.3508759,-39.514999,-155.42673,-30.245073,-15.537999,-44.132149,8.3811321,-14.960558,14.642114,-32.793655,-29.44138,-32.169651,7.2558279,-39.552475,-155.48515,-32.851284,-30.572866,-15.984153,152.87029
2512500000,-16.594557,14.601598,-39.463341,-41.13327,-30.260265,-16.0714,-32.018097,7.4166856,-39.527214,-41.300701,-12.638074,-178.48482,-44.47961,9.5864697,-39.74884,-158.63551,-30.251104,-16.625496,-44.081642,10.108165,-14.908222,14.168094,-32.768063,-30.686995,-32.104588,6.2977891,-39.780479,-158.79933,-32.843456,-31.848524,-16.004276,152.2711
2513000000,-16.588129,14.291205,-39.624153,-42.15353,-30.255285,-17.128693,-31.927845,6.3690791,-39.68959,-42.276001,-12.614343,-178.57202,-44.312824,11.377712,-40.003796,-161.76703,-30.258482,-17.653551,-43.935337,11.480268,-14.858338,13.702765,-32.742794,-31.955078,-32.033073,5.2887793,-40.030441,-161.97241,-32.838146,-33.112453,-16.025415,151.69659
2513500000,-16.581066,13.959804,-39.781136,-43.195381,-30.24947,-18.173355,-31.838686,5.2273355,-39.847656,-43.281391,-12.590209,-178.655,-44.077579,12.43542,-40.271809,-164.67519,-30.260914,-18.651924,-43.725201,12.310672,-14.810682,13.245021,-32.723034,-33.224888,-31.954313,4.1721859,-40.291576,-164.98093,-32.835918,-34.394569,-16.045618,151.14633
2514000000,-16.579165,13.586479,-39.929939,-44.242775,-30.242279,-19.262011,-31.753181,3.9619076,-40.005322,-44.280357,-12.563282,-178.73569,-43.817791,12.712007,-40.539143,-167.46445,-30.259838,-19.654886,-43.501465,12.435472,-14.762506,12.796523,-32.705235,-34.485096,-31.88323,2.9640865,-40.559414,-167.88919,-32.839836,-35.629414,-16.066317,150.6033
2514500000,-16.579992,13.216935,-40.078793,-45.367283,-30.238018,-20.39987,-31.676266,2.6178377,-40.159092,-45.361969,-12.535357,-178.82362,-43.590023,12.41343,-40.80312,-170.20467,-30.260286,-20.699203,-43.296822,12.028388,-14.716399,12.352863,-32.688957,-35.730549,-31.819218,1.6726093,-40.827637,-170.77556,-32.843079,-36.84996,-16.085594,150.09851
2515000000,-16.586296,12.848552,-40.239376,-46.551258,-30.245592,-21.5439,-31.612278,1.198086,-40.325703,-46.522144,-12.507649,-178.91203,-43.401096,11.662644,-41.064869,-172.90688,-30.260962,-21.768412,-43.126419,11.283814,-14.669889,11.914192,-32.67347,-36.971577,-31.770605,0.32165414,-41.089493,-173.60757,-32.846359,-38.005104,-16.102463,149.61263
2515500000,-16.601694,12.492971,-40.40707,-47.739227,-30.258953,-22.698975,-31.560999,-0.2434537,-40.503494,-47.652763,-12.47872,-179.00507,-43.239262,10.561084,-41.316921,-175.61249,-30.27,-22.864197,-42.977879,10.151536,-14.623295,11.482016,-32.650795,-38.176151,-31.733177,-1.0635726,-41.355984,-176.4812,-32.84269,-39.124451,-16.116913,149.14874
2516000000,-16.627249,12.168588,-40.584087,-49.02832,-30.283047,-23.831898,-31.523211,-1.7164534,-40.688232,-48.882481,-12.447135,-179.09605,-43.133774,9.0520706,-41.582035,-178.46964,-30.284384,-23.961515,-42.864933,8.6023407,-14.576047,11.047832,-32.618542,-39.421753,-31.707432,-2.4267797,-41.643093,-179.44478,-32.82349,-40.253193,-16.129427,148.67613
2516500000,-16.65844,11.919752,-40.789059,-50.403725,-30.312717,-24.911554,-31.493956,-3.1786673,-40.910126,-50.095905,-12.415345,-179.20386,-43.088524,7.3262157,-41.880844,178.68967,-30.30718,-25.034668,-42.819775,6.7824359,-14.529765,10.605976,-32.586658,-40.749153,-31.690031,-3.777667,-41.96706,177.6136,-32.799652,-41.455166,-16.137968,148.24706
2517000000,-16.692072,11.747423,-41.030182,-51.524033,-30.339317,-25.960773,-31.477612,-4.6302214,-41.173717,-51.070683,-12.385312,-179.33217,-43.100327,5.4889326,-42.185738,176.01714,-30.324911,-26.086147,-42.825752,4.8014483,-14.4855,10.160851,-32.559559,-42.122231,-31.681133,-5.1089234,-42.299938,174.86401,-32.774334,-42.705616,-16.143938,147.80701
2517500000,-16.731451,11.646548,-41.278633,-52.614532,-30.375587,-26.986324,-31.469795,-6.0975614,-41.435905,-51.989292,-12.353389,-179.45222,-43.205143,3.5278094,-42.501324,173.44402,-30.356596,-27.132275,-42.935505,2.6636109,-14.443128,9.7347107,-32.535175,-43.530052,-31.673855,-6.4396052,-42.642578,172.24559,-32.749001,-44.015846,-16.146812,147.36406
2518000000,-16.764654,11.625515,-41.538544,-53.506138,-30.405327,-27.977131,-31.473089,-7.5325155,-41.701504,-52.596798,-12.322542,-179.59097,-43.383408,1.8318853,-42.799862,170.92821,-30.383106,-28.128105,-43.119297,0.6878553,-14.403144,9.3212681,-32.516644,-44.963409,-31.679188,-7.747335,-42.972824,169.72769,-32.724499,-45.388634,-16.14645,146.9247
2518500000,-16.794437,11.66953,-41.807343,-54.34948,-30.431498,-28.953356,-31.485699,-8.8964739,-41.953049,-53.069439,-12.29182,-179.73785,-43.607018,0.36023918,-43.085655,168.34148,-30.409807,-29.160927,-43.366634,-1.0727836,-14.363677,8.9246759,-32.501972,-46.410233,-31.68857,-8.9929771,-43.29351,167.20035,-32.706436,-46.781139,-16.142038,146.46071
2519000000,-16.817385,11.756116,-42.087677,-55.047455,-30.461117,-29.976807,-31.499481,-10.19411,-42.19648,-53.504589,-12.260758,-179.88644,-43.874638,-0.87329549,-43.376328,165.59308,-30.441355,-30.196404,-43.67181,-2.5574975,-14.324636,8.5488062,-32.484779,-47.877716,-31.697969,-10.184736,-43.606522,164.53215,-32.689388,-48.223289,-16.134325,145.97868
2519500000,-16.829653,11.877111,-42.373486,-55.628029,-30.498465,-30.999245,-31.511721,-11.435916,-42.428829,-53.824577,-12.230859,179.9525,-44.194206,-1.7513294,-43.693268,162.67184,-30.481255,-31.243614,-44.046234,-3.6012881,-14.283156,8.197382,-32.476078,-49.409008,-31.704988,-11.324317,-43.941776,161.66077,-32.678852,-49.715191,-16.124224,145.48152
2520000000,-16.837515,12.003098,-42.651264,-56.068161,-30.546537,-31.982542,-31.518253,-12.662951,-42.665245,-54.195194,-12.203241,179.77792,-44.530777,-2.1850784,-44.063202,159.73869,-30.533783,-32.220501,-44.44418,-4.0685487,-14.240622,7.8589334,-32.473118,-50.975151,-31.703865,-12.443141,-44.330456,158.70642,-32.673801,-51.256989,-16.113777,144.9579
2520500000,-16.836485,12.140817,-42.949123,-56.350597,-30.598736,-32.868839,-31.520838,-13.921879,-42.910366,-54.516647,-12.174539,179.61481,-44.854286,-2.2330146,-44.46278,157.02916,-30.588913,-33.109882,-44.852005,-4.0973129,-14.194638,7.52595,-32.481613,-52.565971,-31.700956,-13.613003,-44.764248,156.04419,-32.685253,-52.818687,-16.102684,144.41214
2521000000,-16.831352,12.2711,-43.25618,-56.452885,-30.649485,-33.693897,-31.531284,-15.179532,-43.173416,-54.614864,-12.149395,179.42314,-45.186256,-1.9566586,-44.871475,154.51082,-30.64229,-33.920025,-45.258129,-3.5815027,-14.145722,7.1851463,-32.499275,-54.1278,-31.701538,-14.769916,-45.213799,153.58298,-32.707291,-54.334846,-16.092155,143.84444
2521500000,-16.817635,12.395452,-43.558247,-56.374966,-30.696215,-34.432812,-31.540138,-16.424543,-43.433788,-54.642345,-12.123301,179.23201,-45.520348,-1.2781734,-45.275715,152.26669,-30.689951,-34.641369,-45.638191,-2.5898039,-14.095568,6.8192182,-32.519379,-55.680321,-31.698597,-15.92008,-45.663284,151.49487,-32.728561,-55.836174,-16.085449,143.25136
2522000000,-16.800079,12.512427,-43.880291,-55.89777,-30.734085,-35.128231,-31.550364,-17.664986,-43.720993,-54.248955,-12.098268,179.03227,-45.823997,-0.14537223,-45.660091,150.15221,-30.724968,-35.302834,-45.979916,-0.91137928,-14.044497,6.4445806,-32.546009,-57.239582,-31.697367,-17.078796,-46.083855,149.54651,-32.758579,-57.358639,-16.082487,142.63524
2522500000,-16.777184,12.636559,-44.141994,-54.907722,-30.762079,-35.767155,-31.559904,-18.905273,-43.954189,-53.338852,-12.075968,178.82138,-46.059662,1.3171296,-46.0145,148.11079,-30.751076,-35.938873,-46.226475,1.1326632,-13.995995,6.046278,-32.57811,-58.800507,-31.68976,-18.263073,-46.46764,147.70979,-32.790161,-58.874454,-16.083727,142.01602
2523000000,-16.745754,12.754243,-44.347599,-53.875515,-30.776369,-36.359428,-31.570686,-20.185062,-44.120754,-52.458668,-12.055791,178.60205,-46.236149,2.8068357,-46.32584,145.98058,-30.758673,-36.541931,-46.378139,3.1484046,-13.948035,5.6462154,-32.616837,-60.382473,-31.682566,-19.499378,-46.813984,145.7605,-32.829906,-60.399651,-16.087851,141.39778
2523500000,-16.708206,12.876798,-44.521072,-52.804886,-30.773291,-36.963619,-31.588552,-21.474016,-44.252213,-51.566254,-12.036301,178.39362,-46.367668,4.3504868,-46.62561,143.42607,-30.75004,-37.187424,-46.480118,4.9876466,-13.901639,5.243155,-32.669678,-61.975342,-31.681778,-20.7654,-47.139069,143.65356,-32.883091,-61.936157,-16.095682,140.80257
2524000000,-16.665495,12.999083,-44.665028,-51.655811,-30.755323,-37.609833,-31.614643,-22.739157,-44.348347,-50.730568,-12.02068,178.16978,-46.472023,5.7351742,-46.956936,140.66789,-30.727278,-37.883141,-46.539734,6.6532602,-13.858722,4.8343353,-32.737232,-63.491112,-31.687204,-22.055302,-47.475895,141.31183,-32.948395,-63.404278,-16.106958,140.20544
2524500000,-16.617655,13.10362,-44.740623,-50.371387,-30.722347,-38.325565,-31.644266,-23.978926,-44.404812,-49.84507,-12.005603,177.95456,-46.552704,7.0155988,-47.324886,137.94907,-30.693779,-38.679127,-46.581295,8.2176828,-13.814647,4.4355388,-32.812843,-64.934036,-31.697937,-23.315956,-47.828045,139.03639,-33.021351,-64.794212,-16.120493,139.63609
2525000000,-16.554661,13.196581,-44.745617,-49.373241,-30.678312,-39.148315,-31.671871,-25.207047,-44.403072,-49.245174,-11.99202,177.73643,-46.626434,8.0188723,-47.67355,135.20938,-30.653185,-39.621189,-46.613575,9.3115416,-13.770033,4.0415354,-32.890652,-66.276863,-31.709972,-24.62418,-48.158878,136.52397,-33.095043,-66.10347,-16.136953,139.08099
2525500000,-16.487267,13.222004,-44.75489,-48.801811,-30.626177,-40.110298,-31.707949,-26.470819,-44.421059,-49.119503,-11.980324,177.52979,-46.775517,9.3370361,-48.058571,132.20055,-30.614298,-40.665535,-46.697048,10.714818,-13.723946,3.6312437,-32.965717,-67.535385,-31.734697,-25.972385,-48.513195,133.77779,-33.163574,-67.338577,-16.15439,138.54379
2526000000,-16.415672,13.181766,-44.773323,-48.316612,-30.578815,-41.263496,-31.754911,-27.676367,-44.462631,-49.013817,-11.970881,177.31041,-46.890232,10.790196,-48.476845,129.38086,-30.58095,-41.898247,-46.743942,12.039477,-13.681755,3.2108164,-33.032536,-68.729523,-31.77622,-27.279232,-48.906307,131.1449,-33.229015,-68.510246,-16.173244,138.03677
2526500000,-16.33791,13.085005,-44.788372,-48.034344,-30.54497,-42.538296,-31.809231,-28.847155,-44.514484,-48.991833,-11.962796,177.09679,-47.019794,12.354114,-48.90044,126.71294,-30.565437,-43.203556,-46.854847,13.374072,-13.642632,2.7990723,-33.089535,-69.903145,-31.828821,-28.526455,-49.314995,128.717,-33.284409,-69.691368,-16.193676,137.53052
2527000000,-16.256931,12.906073,-44.840191,-47.786049,-30.5296,-43.888683,-31.87093,-29.934439,-44.602757,-48.906071,-11.957007,176.88222,-47.198524,14.335938,-49.303703,124.13418,-30.572653,-44.575546,-46.995136,15.203522,-13.603519,2.3947718,-33.143772,-71.121254,-31.892244,-29.670902,-49.692154,126.46883,-33.337036,-70.890831,-16.21398,137.05757
