!CSV A.01.01
!Keysight Technologies,N5222B,MY58422327,A.13.60.06
!Date: Monday, March 28, 2022 16:52:44
!Source: Standard

BEGIN CH1_DATA
Freq(Hz),S11(DB),S11(DEG),S12(DB),S12(DEG),S13(DB),S13(DEG),S14(DB),S14(DEG),S21(DB),S21(DEG),S22(DB),S22(DEG),S23(DB),S23(DEG),S24(DB),S24(DEG),S31(DB),S31(DEG),S32(DB),S32(DEG),S33(DB),S33(DEG),S34(DB),S34(DEG),S41(DB),S41(DEG),S42(DB),S42(DEG),S43(DB),S43(DEG),S44(DB),S44(DEG)
2500000000,-17.172314,25.060484,-35.866554,-4.9565845,-30.795248,5.8297591,-32.144405,23.456364,-35.910614,-5.5032406,-13.359234,-175.26538,-38.948448,18.922882,-39.641907,-92.694412,-30.782434,5.9867969,-38.874104,18.960663,-16.447609,24.793875,-33.287453,-6.8237796,-32.204445,23.365547,-39.618389,-92.654045,-33.381042,-6.776607,-16.225437,166.32509
2500500000,-17.152905,24.76939,-35.98275,-6.6167703,-30.820755,4.8182116,-32.208221,22.280048,-36.040821,-7.1967587,-13.318015,-175.3959,-39.037495,17.058247,-39.574627,-94.478607,-30.807314,4.9618707,-38.957081,17.116079,-16.380196,24.447241,-33.293285,-7.6311707,-32.265392,22.18924,-39.550831,-94.427582,-33.38472,-7.5926905,-16.214941,165.93132
2501000000,-17.129601,24.486115,-36.115276,-8.2735128,-30.850153,3.8648174,-32.285934,21.209709,-36.182362,-8.8544168,-13.275981,-175.51442,-39.155613,15.157084,-39.516068,-96.389191,-30.83835,4.0044646,-39.07151,15.232031,-16.310099,24.076538,-33.297821,-8.4740429,-32.340553,21.101419,-39.494339,-96.352821,-33.390156,-8.4461803,-16.203899,165.53075
2501500000,-17.098749,24.22127,-36.24453,-9.7837553,-30.879662,3.052736,-32.362289,20.286386,-36.321671,-10.33272,-13.236954,-175.65047,-39.302647,13.340569,-39.478458,-98.32608,-30.870832,3.1984625,-39.208969,13.411098,-16.239498,23.681118,-33.30349,-9.2832718,-32.415672,20.147833,-39.45422,-98.30896,-33.395893,-9.2532539,-16.190033,165.1347
2502000000,-17.065588,23.916878,-36.361736,-11.254615,-30.904415,2.3372691,-32.434265,19.409483,-36.453041,-11.744347,-13.199937,-175.78056,-39.472965,11.606485,-39.449219,-100.23811,-30.896441,2.4985077,-39.37529,11.653481,-16.169621,23.264511,-33.302395,-10.120097,-32.488979,19.253435,-39.424122,-100.22498,-33.397381,-10.077082,-16.174719,164.73126
2502500000,-17.02659,23.591667,-36.486233,-12.687087,-30.91638,1.6510228,-32.505016,18.60371,-36.583847,-13.078088,-13.162657,-175.90825,-39.652809,9.9539328,-39.423294,-102.08199,-30.908516,1.8355078,-39.549339,10.004899,-16.103041,22.835342,-33.306526,-10.940744,-32.560665,18.431276,-39.392342,-102.08027,-33.400246,-10.888694,-16.158451,164.30283
2503000000,-16.985357,23.240999,-36.602493,-14.050109,-30.928944,1.0026432,-32.570072,17.859167,-36.703678,-14.364465,-13.129219,-176.0567,-39.850613,8.3966675,-39.391487,-103.91078,-30.916437,1.2066029,-39.745731,8.4111395,-16.038229,22.399944,-33.309963,-11.713925,-32.629528,17.671053,-39.360184,-103.93391,-33.403221,-11.649385,-16.141401,163.87315
2503500000,-16.947262,22.845825,-36.705677,-15.45242,-30.93149,0.42036921,-32.631424,17.177345,-36.804554,-15.647308,-13.09668,-176.19897,-40.049171,6.8327794,-39.346176,-105.68522,-30.91555,0.61634326,-39.941429,6.8753338,-15.976518,21.96796,-33.29847,-12.402835,-32.693047,16.979492,-39.312973,-105.69851,-33.391006,-12.338911,-16.12306,163.4346
2504000000,-16.906031,22.435736,-36.814434,-16.811609,-30.921356,-0.10303985,-32.691334,16.538557,-36.909157,-16.944288,-13.06461,-176.33247,-40.263714,5.3493972,-39.277187,-107.43261,-30.900673,0.09358,-40.152191,5.3658557,-15.915977,21.545601,-33.27396,-13.134826,-32.75386,16.34127,-39.244297,-107.47302,-33.365265,-13.0844,-16.104195,162.96155
2504500000,-16.864079,22.012789,-36.912754,-18.171396,-30.893333,-0.63570863,-32.745117,15.982767,-37.007881,-18.225914,-13.035091,-176.47424,-40.489094,3.8312342,-39.180084,-109.31166,-30.869534,-0.44603741,-40.379128,3.830797,-15.854412,21.133692,-33.240986,-13.905673,-32.810825,15.786597,-39.143726,-109.36163,-33.329418,-13.844739,-16.082548,162.48985
2505000000,-16.818745,21.575603,-37.001331,-19.565981,-30.856907,-1.1931324,-32.786484,15.496168,-37.087227,-19.549637,-13.008456,-176.619,-40.740719,2.4233809,-39.055698,-111.41179,-30.828798,-1.0233001,-40.626854,2.3662319,-15.793618,20.712097,-33.196579,-14.681481,-32.852646,15.288325,-39.019848,-111.49686,-33.286728,-14.637046,-16.061333,161.98105
2505500000,-16.77409,21.099949,-37.091118,-20.9844,-30.79974,-1.8234212,-32.820229,15.03214,-37.167213,-20.900517,-12.981863,-176.74025,-41.008595,1.0210431,-38.933159,-113.83886,-30.768885,-1.6858228,-40.89629,0.9826982,-15.730993,20.28525,-33.143665,-15.560621,-32.885967,14.814353,-38.894398,-113.93198,-33.230064,-15.511749,-16.038113,161.45474
2506000000,-16.730482,20.609013,-37.172253,-22.490555,-30.7358,-2.5373759,-32.841961,14.592426,-37.241581,-22.379229,-12.955542,-176.8591,-41.29385,-0.34311399,-38.815601,-116.58183,-30.708878,-2.4144139,-41.182983,-0.37955326,-15.670247,19.858946,-33.084942,-16.513483,-32.912163,14.378312,-38.78083,-116.67786,-33.171326,-16.480452,-16.013752,160.88266
2506500000,-16.68796,20.103455,-37.269547,-24.109264,-30.672049,-3.3454208,-32.850651,14.198434,-37.321835,-23.940823,-12.929785,-176.98602,-41.619858,-1.6595029,-38.726543,-119.58007,-30.646751,-3.2294016,-41.502506,-1.7105734,-15.609098,19.427145,-33.023689,-17.578022,-32.923538,13.995893,-38.694809,-119.66179,-33.112194,-17.551096,-15.990151,160.27907
2507000000,-16.649899,19.581764,-37.381195,-25.755806,-30.605103,-4.2324586,-32.840008,13.794008,-37.419174,-25.54635,-12.902053,-177.09052,-41.985161,-2.7598445,-38.669582,-122.80127,-30.57922,-4.1305823,-41.867001,-2.8563926,-15.547947,18.995392,-32.968525,-18.720903,-32.914272,13.590233,-38.639168,-122.86205,-33.057461,-18.705866,-15.969913,159.62668
2507500000,-16.610073,19.068579,-37.503227,-27.387257,-30.544624,-5.2192068,-32.819118,13.321868,-37.534012,-27.185356,-12.874728,-177.21179,-42.376221,-3.5824497,-38.651623,-126.1404,-30.518078,-5.1314778,-42.257851,-3.6924021,-15.486786,18.562744,-32.921703,-19.949324,-32.895397,13.121819,-38.620975,-126.18746,-33.012806,-19.930159,-15.95434,158.94945
2508000000,-16.577551,18.533154,-37.637199,-28.994431,-30.489704,-6.2628918,-32.795551,12.779505,-37.651539,-28.801201,-12.846014,-177.33136,-42.787628,-4.0816193,-38.672226,-129.55061,-30.4632,-6.2116303,-42.677258,-4.2169557,-15.427121,18.12855,-32.889431,-21.217699,-32.874805,12.594371,-38.640984,-129.59966,-32.97694,-21.201151,-15.944039,158.25642
2508500000,-16.548414,17.997498,-37.777737,-30.532724,-30.443377,-7.37708,-32.772179,12.239444,-37.781124,-30.3745,-12.816612,-177.44878,-43.2155,-4.2809401,-38.725903,-132.94595,-30.420332,-7.3130083,-43.105835,-4.3911805,-15.365011,17.704496,-32.868896,-22.501858,-32.850563,12.069601,-38.694714,-133.01346,-32.954967,-22.482983,-15.938534,157.55229
2509000000,-16.529072,17.457611,-37.92112,-32.052383,-30.406311,-8.5100574,-32.747288,11.716978,-37.919376,-31.944473,-12.790376,-177.59383,-43.656548,-4.0441585,-38.807747,-136.33566,-30.384169,-8.440731,-43.544895,-4.1738334,-15.304246,17.276375,-32.860649,-23.752729,-32.824306,11.570631,-38.777252,-136.39786,-32.945007,-23.731106,-15.935583,156.85181
2509500000,-16.513084,16.936718,-38.071384,-33.572018,-30.376183,-9.676199,-32.710838,11.235645,-38.059311,-33.54417,-12.763227,-177.73669,-44.080738,-3.4024105,-38.911167,-139.6851,-30.355957,-9.5887156,-43.969418,-3.5204134,-15.242206,16.849157,-32.858135,-24.918463,-32.785801,11.079812,-38.880096,-139.72992,-32.941368,-24.911448,-15.935847,156.14935
2510000000,-16.506384,16.424496,-38.230141,-35.134243,-30.352949,-10.854904,-32.65485,10.744799,-38.214523,-35.179775,-12.736329,-177.87164,-44.500137,-2.2977264,-39.02985,-142.9924,-30.329798,-10.755878,-44.388443,-2.4362185,-15.179821,16.418865,-32.853027,-26.021694,-32.729725,10.584264,-38.999893,-143.03525,-32.936066,-26.027939,-15.940608,155.43623
2510500000,-16.510849,15.926615,-38.409317,-36.678493,-30.337038,-12.07855,-32.583088,10.173136,-38.389893,-36.800636,-12.712723,-178.02068,-44.899059,-0.75138694,-39.170166,-146.3093,-30.313313,-11.959862,-44.782085,-0.79505199,-15.118623,15.976818,-32.836349,-27.071575,-32.657581,10.020591,-39.140915,-146.36201,-32.921341,-27.106131,-15.947871,154.75192
2511000000,-16.517515,15.475026,-38.61021,-38.114132,-30.33189,-13.313972,-32.504665,9.5010347,-38.585087,-38.30098,-12.689726,-178.15324,-45.234421,1.5305014,-39.330013,-149.64232,-30.307793,-13.187615,-45.113506,1.4494946,-15.057362,15.529257,-32.808056,-28.142567,-32.577969,9.3575382,-39.299671,-149.67494,-32.895611,-28.191849,-15.959929,154.0625
2511500000,-16.526567,15.063975,-38.814072,-39.342777,-30.344223,-14.552382,-32.423496,8.7401257,-38.793762,-39.595982,-12.666903,-178.26804,-45.463268,4.1764054,-39.518452,-152.98999,-30.315935,-14.409096,-45.341583,4.0558791,-14.998146,15.072587,-32.7691,-29.29285,-32.495178,8.5832376,-39.481129,-153.05067,-32.861076,-29.354231,-15.976496,153.39638
2512000000,-16.537552,14.686685,-39.01086,-40.436646,-30.364288,-15.709878,-32.340031,7.9015422,-38.998531,-40.733082,-12.643703,-178.38712,-45.581394,6.9963789,-39.735256,-156.26054,-30.332266,-15.557643,-45.452229,6.8007431,-14.94453,14.604115,-32.738697,-30.553785,-32.411499,7.7366109,-39.696205,-156.32372,-32.831219,-30.616005,-15.996555,152.75551
2512500000,-16.545647,14.332108,-39.190319,-41.46661,-30.397333,-16.846853,-32.257607,7.0170326,-39.173607,-41.826912,-12.621315,-178.49759,-45.58028,9.8809147,-39.971523,-159.43877,-30.362371,-16.678951,-45.451298,9.6939259,-14.891675,14.149331,-32.712364,-31.797018,-32.333611,6.8546877,-39.932392,-159.55516,-32.807323,-31.876852,-16.016962,152.15343
2513000000,-16.550249,13.980147,-39.355797,-42.475422,-30.430794,-17.869608,-32.171772,6.0665274,-39.346283,-42.895226,-12.597127,-178.59111,-45.425369,12.436852,-40.233063,-162.5112,-30.393414,-17.691948,-45.29034,12.222386,-14.840904,13.701798,-32.689472,-33.082561,-32.250767,5.9138417,-40.194118,-162.66953,-32.7864,-33.161129,-16.038565,151.57849
2513500000,-16.554316,13.630111,-39.513107,-43.563576,-30.461834,-18.788054,-32.082893,5.0266118,-39.506664,-43.996014,-12.573198,-178.68138,-45.163445,14.237616,-40.505421,-165.43965,-30.422297,-18.634695,-45.034092,13.975413,-14.792223,13.261643,-32.671268,-34.392677,-32.164143,4.9088244,-40.469791,-165.61816,-32.770344,-34.456654,-16.059906,151.02814
2514000000,-16.563263,13.256812,-39.66399,-44.685829,-30.480778,-19.690819,-31.998501,3.8853254,-39.668636,-45.116444,-12.547029,-178.76755,-44.868763,15.109484,-40.777878,-168.24445,-30.439983,-19.535395,-44.734406,14.806976,-14.741913,12.828521,-32.658478,-35.696495,-32.079151,3.7920728,-40.745209,-168.40608,-32.758224,-35.753803,-16.081585,150.48561
2514500000,-16.572121,12.894553,-39.814987,-45.909966,-30.495129,-20.605701,-31.922338,2.6840544,-39.828228,-46.316891,-12.519604,-178.85915,-44.586803,15.231549,-41.047352,-170.99687,-30.452827,-20.455727,-44.456291,14.812917,-14.693025,12.397552,-32.649078,-37.011467,-32.000618,2.6222506,-41.017727,-171.14211,-32.749184,-37.044952,-16.102024,149.98051
2515000000,-16.58427,12.536092,-39.986607,-47.194134,-30.507668,-21.53513,-31.851788,1.4098272,-40.003323,-47.575752,-12.491985,-178.94954,-44.343578,14.7993,-41.309143,-173.71243,-30.464031,-21.37571,-44.220818,14.335854,-14.643827,11.970155,-32.641308,-38.307205,-31.929634,1.3747,-41.288567,-173.7995,-32.744061,-38.310116,-16.11994,149.49249
2515500000,-16.603876,12.187466,-40.16555,-48.477654,-30.51594,-22.481825,-31.793421,0.10580172,-40.187683,-48.801476,-12.463571,-179.04645,-44.129776,13.907368,-41.566956,-176.44994,-30.470972,-22.309048,-44.020302,13.439471,-14.593942,11.544735,-32.633831,-39.567444,-31.864107,0.063217856,-41.541904,-176.49661,-32.735031,-39.56065,-16.135105,149.02574
2516000000,-16.632566,11.862651,-40.354004,-49.812798,-30.527191,-23.423475,-31.742796,-1.2538183,-40.377544,-50.104218,-12.432305,-179.1375,-43.982059,12.523386,-41.824692,-179.40718,-30.482435,-23.268017,-43.878475,12.092181,-14.543114,11.112706,-32.616161,-40.848629,-31.810595,-1.2859948,-41.802364,-179.39296,-32.716736,-40.836327,-16.149183,148.54869
2516500000,-16.668427,11.609734,-40.572468,-51.245213,-30.542189,-24.393995,-31.7012,-2.6284597,-40.600452,-51.506386,-12.400831,-179.24561,-43.906696,10.863326,-42.127857,177.62943,-30.494478,-24.232445,-43.810608,10.431941,-14.492798,10.66955,-32.600262,-42.18206,-31.764641,-2.6662118,-42.105907,177.67867,-32.697845,-42.151573,-16.159645,148.12004
2517000000,-16.70742,11.426776,-40.836586,-52.455135,-30.551683,-25.357023,-31.669483,-4.0116649,-40.865543,-52.719387,-12.370834,-179.37671,-43.896854,9.0835972,-42.453514,174.82455,-30.504236,-25.208622,-43.802181,8.6727638,-14.444319,10.218382,-32.589363,-43.556854,-31.729643,-4.0600858,-42.43121,174.92458,-32.684113,-43.523834,-16.167711,147.67917
2517500000,-16.752371,11.314384,-41.109905,-53.623703,-30.572569,-26.325495,-31.646843,-5.4313664,-41.139793,-53.831406,-12.339294,-179.49835,-43.994713,7.3292618,-42.795536,172.11014,-30.526615,-26.16651,-43.905338,6.8625488,-14.397805,9.776083,-32.581463,-44.94141,-31.704281,-5.4855361,-42.765068,172.19206,-32.672474,-44.918587,-16.173264,147.23854
2518000000,-16.794432,11.296202,-41.41058,-54.524773,-30.588829,-27.249239,-31.638851,-6.8184633,-41.433334,-54.709328,-12.308118,-179.6382,-44.15295,5.8006706,-43.12952,169.52377,-30.543657,-27.092228,-44.067982,5.4067311,-14.353902,9.3428097,-32.577888,-46.352066,-31.694662,-6.8943453,-43.098454,169.58043,-32.665493,-46.350536,-16.175972,146.81017
2518500000,-16.831694,11.355423,-41.708202,-55.289486,-30.598316,-28.214378,-31.639917,-8.1590958,-41.724823,-55.482906,-12.277744,-179.78477,-44.35685,4.5789967,-43.454311,166.86626,-30.55405,-28.038078,-44.269032,4.1475148,-14.311316,8.9207792,-32.574753,-47.766602,-31.695984,-8.2545395,-43.418217,166.95813,-32.663219,-47.795025,-16.174917,146.36366
2519000000,-16.862177,11.467895,-42.011295,-55.889389,-30.61285,-29.222719,-31.646019,-9.4274426,-42.029003,-56.092587,-12.246332,-179.93033,-44.600025,3.5044467,-43.7869,164.13478,-30.568686,-29.048939,-44.517704,3.07548,-14.270022,8.5183372,-32.576008,-49.21254,-31.701202,-9.559062,-43.745594,164.22212,-32.666607,-49.25964,-16.169657,145.90488
2519500000,-16.882217,11.62174,-42.32196,-56.275093,-30.635616,-30.24206,-31.651768,-10.627047,-42.334938,-56.510479,-12.216065,179.91055,-44.888699,2.8666816,-44.152802,161.26213,-30.589937,-30.066629,-44.810146,2.409497,-14.226666,8.1329117,-32.583908,-50.690014,-31.710827,-10.779497,-44.102028,161.32573,-32.675495,-50.734074,-16.161072,145.43796
2520000000,-16.895302,11.786283,-42.621029,-56.472492,-30.668222,-31.264723,-31.650013,-11.808196,-42.641163,-56.787998,-12.187639,179.73419,-45.191536,2.5930157,-44.570198,158.39754,-30.620771,-31.084242,-45.11628,2.1705997,-14.182608,7.7586432,-32.599312,-52.189415,-31.712187,-11.965944,-44.520981,158.45575,-32.693569,-52.237019,-16.151262,144.94614
2520500000,-16.89974,11.969531,-42.927254,-56.551277,-30.706985,-32.220661,-31.644884,-12.981103,-42.95369,-56.935684,-12.158339,179.565,-45.489674,2.6836922,-45.024696,155.78532,-30.656139,-32.043346,-45.419262,2.2103875,-14.136972,7.3880067,-32.62772,-53.67284,-31.711187,-13.147202,-44.981228,155.85556,-32.722984,-53.729511,-16.139572,144.43184
2521000000,-16.898363,12.14979,-43.236069,-56.392082,-30.746508,-33.128036,-31.639639,-14.158748,-43.273071,-56.806404,-12.132915,179.36624,-45.798103,3.1555684,-45.499043,153.50938,-30.695396,-32.954254,-45.733719,2.7015297,-14.0892,7.0117097,-32.661835,-55.075989,-31.71109,-14.315668,-45.455528,153.61018,-32.758221,-55.136971,-16.127293,143.8936
2521500000,-16.887501,12.326781,-43.537258,-56.05061,-30.783703,-33.965679,-31.632107,-15.335958,-43.588665,-56.51318,-12.107062,179.16644,-46.098328,3.9798517,-45.963791,151.65489,-30.732634,-33.814632,-46.03064,3.5356731,-14.041149,6.6126447,-32.690731,-56.46019,-31.704021,-15.467484,-45.923977,151.73988,-32.789837,-56.515339,-16.11813,143.32809
2522000000,-16.871059,12.497865,-43.854332,-55.404789,-30.81912,-34.777256,-31.619455,-16.539156,-43.91497,-55.787247,-12.081864,178.95807,-46.369083,5.3834615,-46.387897,149.97679,-30.768536,-34.646328,-46.297665,4.8501372,-13.992618,6.2048612,-32.720646,-57.823769,-31.695383,-16.6471,-46.35339,150.10925,-32.820721,-57.892288,-16.111925,142.73149
2522500000,-16.847473,12.676939,-44.101746,-54.200237,-30.847509,-35.532276,-31.603836,-17.77755,-44.173454,-54.476151,-12.060058,178.74075,-46.56266,7.0236149,-46.771751,148.44034,-30.799202,-35.402615,-46.496323,6.4320121,-13.947123,5.780468,-32.750469,-59.194614,-31.678669,-17.862837,-46.723118,148.6828,-32.850876,-59.24918,-16.109652,142.12367
2523000000,-16.815531,12.842149,-44.277275,-52.99966,-30.864773,-36.268372,-31.593246,-19.091707,-44.353699,-53.13913,-12.040748,178.51855,-46.705509,8.6554174,-47.092842,146.86484,-30.818262,-36.137646,-46.642796,8.0977116,-13.903025,5.3556476,-32.779438,-60.625259,-31.666735,-19.162502,-47.037437,147.06914,-32.883511,-60.651276,-16.110437,141.51552
2523500000,-16.775881,13.010322,-44.412201,-51.805286,-30.870832,-37.019878,-31.590948,-20.441017,-44.491367,-51.865662,-12.022541,178.30902,-46.790573,10.323136,-47.386108,144.90349,-30.826872,-36.892567,-46.749767,9.8195181,-13.861745,4.9286819,-32.821629,-62.045124,-31.661989,-20.495953,-47.329391,145.16124,-32.926037,-62.069317,-16.115549,140.92343
2524000000,-16.731617,13.17645,-44.519363,-50.691776,-30.869961,-37.798138,-31.599533,-21.799376,-44.5858,-50.612564,-12.007732,178.08803,-46.836128,11.852266,-47.683357,142.64404,-30.827162,-37.666752,-46.813663,11.364019,-13.823636,4.5036783,-32.869713,-63.465393,-31.666573,-21.865625,-47.612457,142.9758,-32.976677,-63.456329,-16.123476,140.32697
2524500000,-16.681011,13.324639,-44.57703,-49.524921,-30.860762,-38.638508,-31.613583,-23.144508,-44.625847,-49.307693,-11.992896,177.87393,-46.855759,13.232113,-47.998661,140.27574,-30.817659,-38.496353,-46.847137,12.923244,-13.785015,4.0937977,-32.927479,-64.830383,-31.680298,-23.20347,-47.924236,140.73463,-33.032356,-64.796074,-16.134796,139.75908
2525000000,-16.614475,13.458341,-44.573658,-48.602486,-30.844357,-39.543015,-31.631741,-24.502598,-44.594048,-48.349197,-11.979252,177.65614,-46.878807,14.209528,-48.294342,137.78017,-30.803291,-39.404953,-46.86919,13.976975,-13.747239,3.6966872,-32.987053,-66.106689,-31.695314,-24.576439,-48.199352,138.31857,-33.089001,-66.061577,-16.148857,139.20259
2525500000,-16.543848,13.523108,-44.566483,-48.035614,-30.826899,-40.548199,-31.662943,-25.886457,-44.569904,-47.848145,-11.967634,177.44696,-46.973099,15.468883,-48.628502,134.985,-30.786217,-40.40807,-46.942059,15.331676,-13.70745,3.2977498,-33.047081,-67.335503,-31.726103,-25.9855,-48.514816,135.59901,-33.145542,-67.282257,-16.164217,138.66418
2526000000,-16.468002,13.523049,-44.570362,-47.513535,-30.817684,-41.669552,-31.707706,-27.229038,-44.555489,-47.420273,-11.958148,177.22675,-47.026951,16.757778,-48.998062,132.17049,-30.777861,-41.532429,-46.991764,16.662779,-13.670586,2.8980627,-33.100967,-68.516014,-31.772774,-27.337101,-48.869781,132.79066,-33.194069,-68.434212,-16.180555,138.15236
2526500000,-16.384766,13.460247,-44.560234,-47.210964,-30.821138,-42.852947,-31.766768,-28.525633,-44.539375,-47.218178,-11.950038,177.01079,-47.121239,18.270784,-49.378136,129.54198,-30.781715,-42.712051,-47.071571,18.178675,-13.635031,2.5124004,-33.142937,-69.671097,-31.832142,-28.643543,-49.225189,130.0544,-33.23328,-69.584961,-16.198645,137.64369
2527000000,-16.298107,13.310956,-44.58432,-47.022289,-30.839943,-44.050743,-31.836451,-29.711153,-44.559044,-47.156254,-11.944088,176.79184,-47.229088,20.151964,-49.752544,127.10781,-30.798693,-43.90905,-47.178101,20.056465,-13.599112,2.1355321,-33.18277,-70.837036,-31.903906,-29.83622,-49.58036,127.48438,-33.270096,-70.785263,-16.21641,137.16277
