!CSV A.01.01
!Keysight Technologies,N5222B,MY58422327,A.13.60.06
!Date: Monday, March 28, 2022 16:53:26
!Source: Standard

BEGIN CH1_DATA
Freq(Hz),S11(DB),S11(DEG),S12(DB),S12(DEG),S13(DB),S13(DEG),S14(DB),S14(DEG),S21(DB),S21(DEG),S22(DB),S22(DEG),S23(DB),S23(DEG),S24(DB),S24(DEG),S31(DB),S31(DEG),S32(DB),S32(DEG),S33(DB),S33(DEG),S34(DB),S34(DEG),S41(DB),S41(DEG),S42(DB),S42(DEG),S43(DB),S43(DEG),S44(DB),S44(DEG)
2500000000,-17.092764,25.455067,-36.032391,-5.7642765,-30.688736,6.0046263,-32.095531,22.735958,-36.124699,-5.5149555,-13.33325,-175.39552,-38.91571,18.722055,-40.202324,-89.104256,-30.636234,5.6949797,-38.86602,19.095861,-16.451929,24.739342,-33.392635,-7.956368,-32.151447,22.63307,-40.206161,-89.957153,-33.451969,-7.8614225,-16.242147,166.02838
2500500000,-17.07056,25.127207,-36.154327,-7.2647014,-30.712486,5.0599041,-32.160339,21.56078,-36.239861,-7.0554247,-13.293218,-175.53159,-39.015957,16.884329,-40.141075,-90.867058,-30.660183,4.6996369,-38.956238,17.273552,-16.38508,24.390568,-33.409115,-8.7031527,-32.206947,21.448494,-40.151718,-91.6763,-33.463062,-8.6233892,-16.233644,165.65048
2501000000,-17.043957,24.808971,-36.279217,-8.773901,-30.739649,4.1669159,-32.23682,20.471823,-36.361626,-8.6035652,-13.25204,-175.65152,-39.147633,15.025737,-40.088257,-92.732964,-30.687159,3.7560346,-39.07814,15.383407,-16.315367,24.017859,-33.421928,-9.4677181,-32.27961,20.328222,-40.104427,-93.503174,-33.47192,-9.4285831,-16.224726,165.26953
2501500000,-17.011299,24.499344,-36.402264,-10.146401,-30.767664,3.4121549,-32.314888,19.523712,-36.478931,-10.012871,-13.213686,-175.78592,-39.302971,13.254293,-40.051834,-94.645645,-30.717455,2.9479463,-39.225487,13.578919,-16.244713,23.621052,-33.433048,-10.191567,-32.353748,19.350714,-40.076698,-95.35463,-33.479927,-10.153804,-16.212748,164.89772
2502000000,-16.977451,24.157688,-36.516731,-11.526808,-30.784678,2.7623072,-32.387146,18.629139,-36.589737,-11.36279,-13.176585,-175.91844,-39.483494,11.556681,-40.026814,-96.52758,-30.741287,2.231595,-39.403706,11.844716,-16.174856,23.206644,-33.436508,-10.92686,-32.42424,18.399633,-40.05191,-97.158585,-33.480087,-10.939642,-16.198483,164.51776
2502500000,-16.938921,23.789961,-36.634598,-12.853494,-30.787271,2.1197596,-32.459114,17.807133,-36.701729,-12.717693,-13.139928,-176.0481,-39.672321,9.9286327,-40.001934,-98.330788,-30.755106,1.5643259,-39.589291,10.206743,-16.107334,22.770388,-33.438862,-11.673299,-32.497475,17.547525,-40.024059,-98.888214,-33.477818,-11.714666,-16.182369,164.1183
2503000000,-16.898512,23.394617,-36.741825,-14.111772,-30.78426,1.5183339,-32.52375,17.041834,-36.806953,-14.001418,-13.1064,-176.198,-39.885921,8.3801432,-39.967556,-100.13241,-30.763979,0.94711286,-39.792427,8.664896,-16.042591,22.326794,-33.43652,-12.374793,-32.565933,16.759222,-39.988297,-100.64917,-33.477528,-12.453427,-16.164433,163.71573
2503500000,-16.861832,22.962868,-36.834789,-15.390721,-30.771048,0.94713169,-32.589581,16.303423,-36.895641,-15.317806,-13.074306,-176.34178,-40.103825,6.8949599,-39.920887,-101.85179,-30.762321,0.38515607,-40.00214,7.1368003,-15.981526,21.884275,-33.419476,-13.023183,-32.631264,16.027927,-39.930889,-102.32746,-33.462112,-13.156705,-16.144623,163.30424
2504000000,-16.822777,22.513926,-36.932476,-16.653292,-30.744787,0.39258429,-32.652145,15.625436,-36.99308,-16.634329,-13.04178,-176.47621,-40.337479,5.5237284,-39.852013,-103.57073,-30.745094,-0.11887904,-40.226078,5.6518159,-15.922136,21.456324,-33.388115,-13.752889,-32.692924,15.352331,-39.848518,-104.05898,-33.433472,-13.920929,-16.123697,162.85846
2504500000,-16.784769,22.052622,-37.020123,-17.88504,-30.702181,-0.17421651,-32.709156,15.030543,-37.078861,-17.909483,-13.011981,-176.62065,-40.584568,4.1206703,-39.744965,-105.43042,-30.707182,-0.65028328,-40.471069,4.1906991,-15.862341,21.041239,-33.346359,-14.521143,-32.750706,14.745699,-39.736984,-105.95522,-33.396385,-14.72982,-16.098524,162.40854
2505000000,-16.744026,21.586952,-37.091141,-19.151022,-30.652781,-0.7879715,-32.755127,14.501862,-37.153545,-19.212458,-12.984695,-176.77226,-40.85149,2.8761029,-39.608208,-107.58112,-30.662773,-1.2166131,-40.738148,2.8534887,-15.8031,20.619131,-33.302719,-15.326834,-32.795204,14.199177,-39.595047,-108.16134,-33.357658,-15.586533,-16.073437,161.91074
2505500000,-16.703047,21.098114,-37.159611,-20.445969,-30.586245,-1.4850587,-32.79565,14.011776,-37.221054,-20.514713,-12.957731,-176.90182,-41.132175,1.668162,-39.477074,-110.06709,-30.595461,-1.8615324,-41.024487,1.5460926,-15.742133,20.199051,-33.24823,-16.245762,-32.833935,13.671,-39.45784,-110.67326,-33.310116,-16.516972,-16.045942,161.388
2506000000,-16.663158,20.589863,-37.215149,-21.873503,-30.517752,-2.2744114,-32.822575,13.573676,-37.278698,-21.961252,-12.931305,-177.03293,-41.423313,0.51592922,-39.356598,-112.92483,-30.524965,-2.6121676,-41.327354,0.27940845,-15.681759,19.776653,-33.193066,-17.230688,-32.862392,13.172941,-39.334042,-113.59112,-33.262157,-17.512829,-16.017584,160.81476
2506500000,-16.624531,20.071434,-37.272423,-23.419851,-30.4471,-3.1521065,-32.835575,13.176406,-37.336193,-23.527958,-12.906096,-177.17125,-41.745781,-0.60354459,-39.263927,-116.08627,-30.453194,-3.4502497,-41.668518,-0.9025715,-15.620734,19.349102,-33.141644,-18.325989,-32.880501,12.744865,-39.243412,-116.78301,-33.219757,-18.597803,-15.990464,160.20117
2507000000,-16.590645,19.54184,-37.343327,-25.058107,-30.376514,-4.1302462,-32.828506,12.753912,-37.403801,-25.19314,-12.879278,-177.29027,-42.117107,-1.5747099,-39.220596,-119.46857,-30.377499,-4.3866234,-42.043495,-1.8611674,-15.559201,18.91691,-33.097137,-19.477543,-32.879898,12.285372,-39.200245,-120.21661,-33.183052,-19.737955,-15.967687,159.53638
2507500000,-16.554583,19.026548,-37.425224,-26.753485,-30.310417,-5.1919417,-32.808857,12.255754,-37.484486,-26.947206,-12.853702,-177.42203,-42.520241,-2.2681055,-39.220455,-122.962,-30.306736,-5.4412432,-42.458378,-2.5423167,-15.49754,18.483574,-33.060104,-20.680532,-32.868431,11.76528,-39.204292,-123.74812,-33.150764,-20.920044,-15.950587,158.84767
2508000000,-16.525818,18.491789,-37.521881,-28.483339,-30.253298,-6.3416448,-32.789009,11.701651,-37.581921,-28.741301,-12.827538,-177.54999,-42.953785,-2.5407295,-39.265881,-126.51685,-30.24614,-6.5904326,-42.898796,-2.8631215,-15.437743,18.045706,-33.036808,-21.931219,-32.856129,11.186935,-39.254654,-127.26995,-33.130718,-22.130053,-15.938989,158.14255
2508500000,-16.499613,17.967676,-37.62825,-30.234058,-30.210476,-7.5304518,-32.768448,11.106074,-37.693607,-30.540867,-12.800591,-177.66866,-43.399944,-2.4313507,-39.344585,-130.00801,-30.198631,-7.7899213,-43.350334,-2.7256687,-15.376892,17.613789,-33.023743,-23.157595,-32.843491,10.597279,-39.334423,-130.80403,-33.123409,-23.326342,-15.931948,157.43106
2509000000,-16.482248,17.443735,-37.743374,-32.015453,-30.175501,-8.7265348,-32.746689,10.513488,-37.817162,-32.362034,-12.776029,-177.81201,-43.838066,-1.7729613,-39.450367,-133.47729,-30.162258,-8.9925175,-43.804798,-2.1266909,-15.316885,17.175686,-33.020058,-24.333046,-32.830696,10.02857,-39.448879,-134.26611,-33.12006,-24.469231,-15.927308,156.72263
2509500000,-16.467127,16.940859,-37.874123,-33.855419,-30.147444,-9.9450779,-32.719894,9.944334,-37.954205,-34.225033,-12.750254,-177.95044,-44.25927,-0.64682311,-39.583847,-136.90739,-30.132734,-10.220198,-44.242035,-0.98059702,-15.25634,16.73921,-33.01936,-25.453886,-32.81263,9.5029554,-39.584698,-137.67564,-33.119602,-25.544193,-15.926454,156.00928
2510000000,-16.459887,16.45326,-38.022102,-35.699387,-30.126333,-11.176363,-32.680805,9.3858509,-38.110573,-36.126328,-12.724129,-178.07939,-44.648396,1.0241219,-39.734818,-140.30023,-30.111277,-11.451407,-44.641716,0.64746344,-15.196134,16.306755,-33.015266,-26.505056,-32.779007,9.0087891,-39.735447,-141.0683,-33.112511,-26.575384,-15.930048,155.28067
2510500000,-16.461109,15.969763,-38.203415,-37.555779,-30.115374,-12.431404,-32.62746,8.7906752,-38.296661,-38.003719,-12.700685,-178.22313,-44.983212,3.1650708,-39.911983,-143.6655,-30.096218,-12.713223,-45.00103,2.8420191,-15.137205,15.862326,-33.00206,-27.506369,-32.72821,8.466197,-39.908405,-144.45171,-33.097237,-27.561178,-15.935911,154.58067
2511000000,-16.463655,15.521296,-38.410934,-39.287086,-30.11459,-13.71688,-32.567909,8.1016169,-38.512772,-39.738735,-12.677861,-178.35341,-45.229446,5.8758068,-40.103951,-147.0591,-30.092169,-13.988004,-45.265259,5.6378613,-15.078334,15.414508,-32.97509,-28.537258,-32.66996,7.8461733,-40.097973,-147.82214,-33.06752,-28.570797,-15.947287,153.87251
2511500000,-16.467773,15.097239,-38.632664,-40.828739,-30.128073,-14.977326,-32.505486,7.3485689,-38.744095,-41.249195,-12.654949,-178.46779,-45.334904,8.779562,-40.321224,-150.43561,-30.102915,-15.26372,-45.393089,8.6618967,-15.022155,14.959902,-32.939018,-29.638813,-32.604794,7.1613002,-40.318207,-151.22597,-33.028641,-29.666674,-15.963751,153.1832
2512000000,-16.474812,14.695081,-38.857227,-42.152405,-30.151308,-16.187107,-32.442356,6.541204,-38.971649,-42.587746,-12.631804,-178.58868,-45.336117,11.541186,-40.570442,-153.69771,-30.121889,-16.486902,-45.39225,11.65384,-14.970999,14.50394,-32.907967,-30.820631,-32.537632,6.4111333,-40.571106,-154.53212,-32.992676,-30.871954,-15.984652,152.52055
2512500000,-16.479818,14.301109,-39.060299,-43.425323,-30.187435,-17.352531,-32.380768,5.7173195,-39.182568,-43.785019,-12.609415,-178.70139,-45.239548,14.147949,-40.848583,-156.91974,-30.154892,-17.671106,-45.273514,14.444347,-14.920433,14.062354,-32.881001,-32.02578,-32.470009,5.6253657,-40.847317,-157.78154,-32.963371,-32.091007,-16.007273,151.90121
2513000000,-16.484102,13.904821,-39.263901,-44.663376,-30.22645,-18.402103,-32.310349,4.8585501,-39.394909,-45.025707,-12.585573,-178.79961,-45.011662,16.388479,-41.149727,-160.03772,-30.192429,-18.738304,-45.02816,16.839903,-14.871025,13.635094,-32.852955,-33.257122,-32.393394,4.8107357,-41.142361,-160.91179,-32.937084,-33.333111,-16.031294,151.31169
2513500000,-16.489979,13.507664,-39.470882,-45.888023,-30.259708,-19.355133,-32.236343,3.9363008,-39.605103,-46.239079,-12.562036,-178.89594,-44.705261,17.824522,-41.467312,-162.95377,-30.225353,-19.720358,-44.69236,18.228441,-14.823196,13.210835,-32.829529,-34.507431,-32.311333,3.8977261,-41.459045,-163.84477,-32.917084,-34.623379,-16.054638,150.75169
2514000000,-16.501984,13.095405,-39.678944,-47.059769,-30.282141,-20.264311,-32.162792,2.9160538,-39.820511,-47.384933,-12.536275,-178.99022,-44.3759,18.399511,-41.780987,-165.66905,-30.251484,-20.683735,-44.337547,18.762848,-14.773614,12.798635,-32.810051,-35.785812,-32.230808,2.8867977,-41.77182,-166.63429,-32.901096,-35.901981,-16.078012,150.198
2514500000,-16.515667,12.70783,-39.882813,-48.260033,-30.297785,-21.20072,-32.092163,1.8323022,-40.035629,-48.521301,-12.510032,-179.08881,-44.061863,18.157272,-42.090141,-168.32718,-30.271866,-21.635666,-44.021137,18.472763,-14.725337,12.382066,-32.794117,-37.065601,-32.154373,1.7912513,-42.078682,-169.35005,-32.889854,-37.194244,-16.100309,149.68658
2515000000,-16.533522,12.330636,-40.095169,-49.457237,-30.309179,-22.146986,-32.027897,0.68868369,-40.257198,-49.631615,-12.483648,-179.18666,-43.807838,17.49313,-42.383156,-170.96448,-30.287125,-22.611359,-43.763206,17.662169,-14.675523,11.973504,-32.779812,-38.34341,-32.084114,0.63955909,-42.378857,-172.05411,-32.879868,-38.442093,-16.120768,149.19423
2515500000,-16.559423,11.975581,-40.311989,-50.604973,-30.321486,-23.133516,-31.970863,-0.49981651,-40.475349,-50.661339,-12.456382,-179.28821,-43.591785,16.42514,-42.660221,-173.72656,-30.306366,-23.6003,-43.553654,16.529421,-14.624656,11.566956,-32.765434,-39.587261,-32.023708,-0.57048178,-42.678928,-174.78667,-32.866337,-39.67115,-16.138582,148.72314
2516000000,-16.593399,11.654862,-40.529747,-51.749794,-30.336351,-24.11392,-31.920309,-1.7302537,-40.698288,-51.775002,-12.427112,-179.37924,-43.424915,14.96893,-42.961327,-176.75688,-30.330038,-24.590618,-43.394604,15.0787,-14.572564,11.151439,-32.741043,-40.88245,-31.970285,-1.8033568,-42.981014,-177.77448,-32.84404,-40.933701,-16.154917,148.24446
2516500000,-16.632029,11.413002,-40.772221,-53.012207,-30.354448,-25.10568,-31.87681,-2.9756949,-40.942886,-52.942471,-12.397134,-179.48755,-43.330406,13.249844,-43.316673,-179.87146,-30.35759,-25.557571,-43.31609,13.367811,-14.520454,10.717458,-32.720322,-42.261398,-31.922398,-3.0677042,-43.343098,179.23857,-32.82024,-42.275753,-16.168278,147.81573
2517000000,-16.672419,11.239535,-41.059101,-54.058529,-30.36578,-26.094734,-31.841663,-4.2178574,-41.220818,-53.90736,-12.368251,-179.61668,-43.301163,11.350655,-43.710365,177.23138,-30.377672,-26.512264,-43.288815,11.52189,-14.469973,10.27184,-32.710388,-43.681515,-31.882505,-4.3453646,-43.726952,176.4299,-32.805363,-43.687943,-16.179148,147.38857
2517500000,-16.718769,11.130033,-41.346104,-55.064663,-30.389486,-27.076208,-31.80978,-5.4957047,-41.50309,-54.83181,-12.337472,-179.73737,-43.375923,9.4486942,-44.121819,174.52425,-30.406929,-27.442907,-43.375801,9.7254162,-14.422013,9.8336391,-32.707191,-45.101379,-31.84696,-5.6639748,-44.130215,173.75595,-32.796398,-45.110584,-16.187042,146.9624
2518000000,-16.761036,11.107777,-41.64703,-55.778027,-30.404606,-28.025934,-31.789124,-6.7735157,-41.789249,-55.530861,-12.306693,-179.87701,-43.514172,7.8441477,-44.532001,171.94444,-30.425037,-28.325731,-43.505703,8.1803541,-14.376282,9.400363,-32.711281,-46.525177,-31.823624,-6.9835362,-44.5215,171.21681,-32.793476,-46.56131,-16.190836,146.54922
2518500000,-16.800219,11.155346,-41.939873,-56.398529,-30.416855,-29.009203,-31.776552,-8.019825,-42.077389,-56.162155,-12.276678,179.97446,-43.68906,6.5573597,-44.930298,169.37305,-30.437443,-29.261648,-43.66991,6.9323306,-14.332688,8.9776192,-32.719181,-47.919697,-31.811293,-8.2715063,-44.904427,168.66011,-32.799965,-47.976456,-16.189878,146.11906
2519000000,-16.833872,11.262282,-42.243111,-56.84314,-30.430252,-30.05246,-31.763372,-9.2082567,-42.373558,-56.623272,-12.245363,179.82397,-43.894878,5.4531751,-45.343803,166.70174,-30.452246,-30.246469,-43.873241,5.858583,-14.29029,8.5698423,-32.727009,-49.315186,-31.801989,-9.5218391,-45.291264,165.92751,-32.806866,-49.399044,-16.183846,145.67632
2519500000,-16.857082,11.412638,-42.541309,-57.169834,-30.45421,-31.131643,-31.749649,-10.364611,-42.673477,-56.990837,-12.215962,179.65645,-44.135849,4.7482791,-45.780838,163.93364,-30.473511,-31.280741,-44.105644,5.1551199,-14.24627,8.1779537,-32.735867,-50.723942,-31.792364,-10.707279,-45.71764,163.06685,-32.817337,-50.837036,-16.173906,145.21982
2520000000,-16.873648,11.583994,-42.834743,-57.443054,-30.492552,-32.196213,-31.72802,-11.504124,-42.965034,-57.2985,-12.18908,179.47209,-44.383896,4.3362727,-46.289753,161.20737,-30.506802,-32.297901,-44.339478,4.7793679,-14.20258,7.8039823,-32.747395,-52.154705,-31.777971,-11.888156,-46.213051,160.23967,-32.833038,-52.299511,-16.162018,144.73615
2520500000,-16.88036,11.781503,-43.146015,-57.563797,-30.535961,-33.200077,-31.704165,-12.695575,-43.284706,-57.507607,-12.161955,179.29456,-44.614536,4.1322188,-46.848057,158.78835,-30.544403,-33.284313,-44.573971,4.5805531,-14.157832,7.4315166,-32.772316,-53.588921,-31.762341,-13.094316,-46.754421,157.76035,-32.861458,-53.741924,-16.148235,144.22101
2521000000,-16.881535,11.976737,-43.47319,-57.450489,-30.585157,-34.13039,-31.683599,-13.895579,-43.621666,-57.454437,-12.139231,179.09312,-44.863247,4.2189455,-47.42025,156.82663,-30.588619,-34.214981,-44.82412,4.6474938,-14.109885,7.0571127,-32.800926,-54.953999,-31.750122,-14.308301,-47.324463,155.61562,-32.892574,-55.110046,-16.134306,143.6803
2521500000,-16.871916,12.168449,-43.806801,-57.171833,-30.632917,-34.98724,-31.660213,-15.117993,-43.975838,-57.110928,-12.116348,178.89638,-45.091881,4.5483599,-47.973759,155.35037,-30.631491,-35.069305,-45.05706,4.9756203,-14.061894,6.6632309,-32.823223,-56.310978,-31.734016,-15.508086,-47.878265,154.03232,-32.920097,-56.451172,-16.122534,143.10298
2522000000,-16.856064,12.360412,-44.16703,-56.340073,-30.676716,-35.78616,-31.637077,-16.35775,-44.348564,-56.159542,-12.094144,178.69299,-45.315392,5.1948504,-48.481613,154.24188,-30.674965,-35.864571,-45.265118,5.7232518,-14.012693,6.2626615,-32.845249,-57.662815,-31.717615,-16.73044,-48.394035,152.78683,-32.946499,-57.803749,-16.114222,142.4895
2522500000,-16.833019,12.555564,-44.451534,-54.866444,-30.71343,-36.512547,-31.611959,-17.643604,-44.640114,-54.55764,-12.074573,178.48265,-45.488777,6.023366,-48.904377,153.30765,-30.707912,-36.609936,-45.424789,6.5726953,-13.966479,5.8412623,-32.867062,-59.039181,-31.697104,-17.990858,-48.838783,151.79306,-32.968929,-59.149998,-16.110685,141.86018
2523000000,-16.799807,12.734969,-44.642178,-53.347458,-30.736132,-37.21022,-31.592716,-19.007715,-44.838177,-52.884453,-12.057367,178.26773,-45.632549,6.9970169,-49.247906,152.05588,-30.728079,-37.30761,-45.562782,7.5215726,-13.922112,5.4161711,-32.891747,-60.458103,-31.679663,-19.317183,-49.202801,150.62708,-32.99292,-60.537724,-16.111355,141.22504
2523500000,-16.759235,12.909984,-44.796215,-51.785603,-30.742601,-37.922329,-31.585707,-20.396309,-44.974495,-51.177132,-12.040737,178.06831,-45.745033,7.896615,-49.5653,150.3613,-30.736568,-38.037296,-45.664597,8.3628197,-13.879626,4.9875154,-32.926079,-61.889977,-31.671799,-20.683046,-49.51321,149.06801,-33.026146,-61.97702,-16.118193,140.60345
2524000000,-16.71269,13.07668,-44.885303,-50.256596,-30.740685,-38.677898,-31.587708,-21.777149,-45.052906,-49.468243,-12.027464,177.85849,-45.832211,8.7317276,-49.893574,148.28996,-30.73418,-38.793766,-45.758007,9.1790705,-13.841171,4.5582995,-32.967995,-63.283226,-31.670671,-22.060339,-49.832825,147.08661,-33.066837,-63.37199,-16.128565,139.98083
2524500000,-16.661217,13.221683,-44.911819,-48.745106,-30.727211,-39.503681,-31.5973,-23.147722,-45.050034,-47.833073,-12.013803,177.65498,-45.926617,9.4379807,-50.248375,146.02489,-30.72295,-39.62133,-45.837906,9.9070234,-13.803205,4.140717,-33.017212,-64.644226,-31.676249,-23.421492,-50.15107,144.95877,-33.115471,-64.71904,-16.143545,139.38985
2525000000,-16.594189,13.348865,-44.864918,-47.578407,-30.70974,-40.418354,-31.608946,-24.544485,-44.989922,-46.712772,-12.000852,177.44934,-46.033939,10.015382,-50.570377,143.60316,-30.709185,-40.539764,-45.946804,10.442328,-13.766438,3.7419393,-33.065334,-65.956787,-31.686432,-24.839561,-50.453125,142.49518,-33.162952,-66.019287,-16.16193,138.81522
2525500000,-16.522991,13.408186,-44.830448,-46.948734,-30.695101,-41.43092,-31.636015,-25.97294,-44.936367,-46.023521,-11.989671,177.25027,-46.194187,10.965968,-50.935925,140.74352,-30.692169,-41.522312,-46.110744,11.434182,-13.727279,3.3417428,-33.11338,-67.242882,-31.713305,-26.281878,-50.791931,139.53519,-33.211323,-67.294289,-16.182367,138.26749
2526000000,-16.446796,13.40492,-44.795715,-46.347927,-30.685482,-42.548553,-31.675848,-27.34458,-44.891674,-45.438351,-11.980607,177.03796,-46.336891,11.974586,-51.345093,137.84299,-30.681492,-42.646187,-46.237003,12.492402,-13.691799,2.945204,-33.156601,-68.485916,-31.755482,-27.680933,-51.172272,136.55225,-33.257412,-68.50679,-16.204617,137.75572
2526500000,-16.363604,13.337589,-44.767685,-46.042503,-30.685879,-43.724876,-31.728216,-28.675591,-44.854595,-45.137775,-11.972836,176.82971,-46.508587,13.230525,-51.747139,135.09787,-30.682495,-43.822723,-46.399265,13.867109,-13.657292,2.5649326,-33.19598,-69.737335,-31.810617,-29.023252,-51.553459,133.68367,-33.293556,-69.738403,-16.22817,137.25124
2527000000,-16.277073,13.186238,-44.763309,-45.846329,-30.70253,-44.937401,-31.792263,-29.912176,-44.846325,-44.921127,-11.967402,176.61674,-46.68782,15.067379,-52.10191,132.28609,-30.697094,-45.035618,-46.556564,15.59662,-13.622505,2.194989,-33.231468,-71.01609,-31.879885,-30.27845,-51.937279,130.62289,-33.327808,-71.002914,-16.250938,136.78621
