!CSV A.01.01
!Keysight Technologies,N5222B,MY58422327,A.13.60.06
!Date: Monday, March 28, 2022 16:33:36
!Source: Standard

BEGIN CH1_DATA
Freq(Hz),S11(DB),S11(DEG),S12(DB),S12(DEG),S13(DB),S13(DEG),S14(DB),S14(DEG),S21(DB),S21(DEG),S22(DB),S22(DEG),S23(DB),S23(DEG),S24(DB),S24(DEG),S31(DB),S31(DEG),S32(DB),S32(DEG),S33(DB),S33(DEG),S34(DB),S34(DEG),S41(DB),S41(DEG),S42(DB),S42(DEG),S43(DB),S43(DEG),S44(DB),S44(DEG)
2500000000,-16.86269,21.481522,-33.740913,7.1155677,-33.236614,20.006304,-33.901718,7.3622403,-33.788555,6.9167113,-13.416332,-175.72784,-38.795441,17.476852,-40.644985,-70.668297,-33.220417,20.031828,-38.727776,17.496105,-16.185432,24.554508,-34.731503,4.3295565,-33.958195,7.2696199,-40.644005,-70.703636,-34.820644,4.240396,-16.53796,166.49565
2500500000,-16.852728,21.078831,-33.841637,5.7825289,-33.195805,19.334009,-34.001419,6.2362857,-33.892632,5.563828,-13.379472,-175.84393,-38.853786,15.600279,-40.593681,-73.131706,-33.178112,19.391254,-38.780499,15.639304,-16.125793,24.061256,-34.732807,3.3914716,-34.058475,6.1676283,-40.589523,-73.134773,-34.822208,3.2981265,-16.52425,166.17432
2501000000,-16.840811,20.682283,-33.948639,4.4916739,-33.156235,18.70908,-34.106884,5.2423515,-34.001186,4.2823191,-13.341349,-175.94308,-38.931877,13.657897,-40.550957,-75.631218,-33.135334,18.784067,-38.856064,13.700968,-16.065672,23.561218,-34.73682,2.354393,-34.162617,5.2035146,-40.549416,-75.620232,-34.825871,2.2685616,-16.508701,165.84453
2501500000,-16.826208,20.28867,-34.049641,3.3104169,-33.111626,18.198183,-34.212044,4.4256363,-34.106026,3.0990455,-13.305823,-176.05447,-39.038593,11.757344,-40.52906,-78.123268,-33.088783,18.266632,-38.960125,11.821704,-16.008137,23.048973,-34.748402,1.3098085,-34.262638,4.3902159,-40.52327,-78.101669,-34.83741,1.2309535,-16.488707,165.51698
2502000000,-16.81291,19.86937,-34.136436,2.1746902,-33.056435,17.741549,-34.303596,3.6778209,-34.201004,1.9622978,-13.27163,-176.16362,-39.166199,9.908042,-40.505352,-80.571877,-33.027645,17.79808,-39.082745,9.9554167,-15.953169,22.539896,-34.768696,0.19205356,-34.351349,3.6367364,-40.496166,-80.583298,-34.859978,0.11438008,-16.466759,165.17076
2502500000,-16.797497,19.445173,-34.222485,1.06765,-32.987869,17.244343,-34.389111,3.0131402,-34.292065,0.86399174,-13.237432,-176.26938,-39.301456,8.0903368,-40.473679,-82.943413,-32.955357,17.316057,-39.214863,8.1414137,-15.901957,22.036203,-34.808819,-0.91707754,-34.431095,2.9446692,-40.463524,-83.001328,-34.902229,-0.97212571,-16.443077,164.79759
2503000000,-16.781815,19.013491,-34.297531,0.0036743216,-32.917789,16.780966,-34.463947,2.3899555,-34.366905,-0.17681982,-13.206429,-176.3947,-39.449368,6.2705913,-40.438221,-85.388298,-32.881058,16.825953,-39.359669,6.3149967,-15.853198,21.544775,-34.864532,-1.9088261,-34.502316,2.2905476,-40.424637,-85.480972,-34.958775,-1.9602201,-16.417439,164.41603
2503500000,-16.771353,18.555752,-34.359543,-1.0982473,-32.839603,16.328478,-34.533691,1.8030174,-34.430759,-1.2628981,-13.176372,-176.51305,-39.603336,4.4770479,-40.387627,-87.815254,-32.79747,16.351084,-39.514729,4.4812822,-15.807351,21.069498,-34.917122,-2.7319925,-34.568714,1.6623219,-40.37355,-87.926025,-35.01498,-2.7710605,-16.390612,164.01605
2504000000,-16.759071,18.113894,-34.418789,-2.2200148,-32.74448,15.905624,-34.594662,1.2330436,-34.492413,-2.364763,-13.145971,-176.6241,-39.770145,2.6703727,-40.316303,-90.317551,-32.699902,15.897931,-39.686031,2.6294885,-15.762908,20.622713,-34.961216,-3.5086029,-34.631943,1.0321698,-40.300186,-90.46888,-35.055573,-3.5128152,-16.362373,163.57736
2504500000,-16.747032,17.680202,-34.471153,-3.3552701,-32.62933,15.42457,-34.654037,0.6901511,-34.545742,-3.477314,-13.118459,-176.74287,-39.959595,0.75965631,-40.223911,-93.065384,-32.582184,15.391257,-39.877415,0.70841372,-15.716856,20.198032,-34.995895,-4.2151108,-34.693897,0.45992574,-40.212421,-93.212372,-35.089436,-4.2077694,-16.330757,163.12837
2505000000,-16.73008,17.264753,-34.516521,-4.5761881,-32.501766,14.852122,-34.702606,0.22281875,-34.590244,-4.6683307,-13.093018,-176.86671,-40.178291,-1.1559722,-40.122051,-96.096146,-32.454811,14.774104,-40.094357,-1.2051934,-15.669693,19.776155,-35.02383,-4.868577,-34.745838,-0.052920058,-40.113659,-96.233871,-35.112705,-4.8482485,-16.299587,162.62665
2505500000,-16.710999,16.833574,-34.571468,-5.8272805,-32.361122,14.130824,-34.744453,-0.23395714,-34.639233,-5.8936548,-13.067647,-176.97226,-40.429073,-3.0550022,-40.037792,-99.484055,-32.313602,14.023409,-40.350288,-3.1236126,-15.621253,19.362764,-35.02927,-5.5206342,-34.793484,-0.54258126,-40.035049,-99.606071,-35.11517,-5.4904876,-16.267437,162.09447
2506000000,-16.691845,16.396187,-34.617691,-7.1378775,-32.218479,13.267955,-34.780685,-0.66240263,-34.689583,-7.1934299,-13.043656,-177.07512,-40.705532,-4.9296517,-39.977367,-103.14287,-32.174347,13.118785,-40.626961,-5.0343151,-15.571615,18.955755,-35.027943,-6.1963325,-34.834469,-0.99910676,-39.978535,-103.25194,-35.109619,-6.1807513,-16.235691,161.51151
2506500000,-16.671139,15.951962,-34.678898,-8.5601149,-32.085369,12.282647,-34.806957,-1.0434128,-34.747776,-8.5758591,-13.020699,-177.18208,-41.027729,-6.7624645,-39.952583,-107.03043,-32.043541,12.097666,-40.95636,-6.8896108,-15.521731,18.55298,-35.014496,-6.9137897,-34.864037,-1.3409377,-39.95787,-107.1221,-35.095081,-6.9023824,-16.206293,160.89171
2507000000,-16.654116,15.50455,-34.756596,-9.9710464,-31.955679,11.167901,-34.807247,-1.3659334,-34.821762,-9.9439878,-12.996341,-177.26483,-41.40966,-8.4795771,-39.972252,-111.11491,-31.920687,10.956859,-41.337296,-8.5738029,-15.470927,18.156473,-35.000526,-7.6698356,-34.868057,-1.6777216,-39.97937,-111.19498,-35.076702,-7.6711087,-16.181692,160.22826
2507500000,-16.632799,15.076838,-34.847363,-11.326011,-31.840582,9.9295597,-34.790306,-1.8240385,-34.907848,-11.27986,-12.973045,-177.35246,-41.841057,-9.8967428,-40.038219,-115.29276,-31.811373,9.7274666,-41.773346,-9.9863205,-15.418764,17.769836,-34.980286,-8.4613104,-34.852684,-2.1365149,-40.04768,-115.35703,-35.051434,-8.4947968,-16.162066,159.53781
2508000000,-16.617455,14.634478,-34.948315,-12.623503,-31.743084,8.623806,-34.771187,-2.3752925,-35.001511,-12.549579,-12.947713,-177.43007,-42.311508,-10.909651,-40.156143,-119.54163,-31.719471,8.4448519,-42.250763,-10.977126,-15.366078,17.388529,-34.959251,-9.2990294,-34.837749,-2.6868896,-40.161583,-119.6019,-35.031013,-9.3735399,-16.148365,158.83163
2508500000,-16.601946,14.194756,-35.049583,-13.838509,-31.661875,7.3156977,-34.760853,-2.9685028,-35.095798,-13.752732,-12.920515,-177.49425,-42.802452,-11.443238,-40.32066,-123.78342,-31.643862,7.1651382,-42.74786,-11.492324,-15.309471,17.018583,-34.941292,-10.167994,-34.828003,-3.270313,-40.321926,-123.80976,-35.013287,-10.279635,-16.140518,158.11427
2509000000,-16.592638,13.737898,-35.151604,-15.002471,-31.59374,6.0055466,-34.752598,-3.5504668,-35.186813,-14.94251,-12.894768,-177.58217,-43.313858,-11.457555,-40.529526,-127.89512,-31.57552,5.9037857,-43.264,-11.451332,-15.251764,16.648813,-34.926014,-11.028953,-34.822342,-3.8308842,-40.525833,-127.93275,-34.99971,-11.156605,-16.135736,157.40302
2509500000,-16.585901,13.296062,-35.25108,-16.146894,-31.534349,4.7198067,-34.742783,-4.0884557,-35.278873,-16.117979,-12.865384,-177.67003,-43.818577,-10.870545,-40.771515,-131.94232,-31.512869,4.6499257,-43.76976,-10.846149,-15.1898,16.275356,-34.908852,-11.837922,-34.816231,-4.3633637,-40.760311,-131.94775,-34.98391,-11.981222,-16.135443,156.69342
2510000000,-16.586578,12.84957,-35.349255,-17.284044,-31.479313,3.4135492,-34.72551,-4.5698614,-35.37273,-17.305719,-12.834891,-177.75182,-44.293522,-9.7590141,-41.034618,-135.8725,-31.457073,3.3711619,-44.237961,-9.6828499,-15.126241,15.89724,-34.87994,-12.626956,-34.800129,-4.8430986,-41.018951,-135.86076,-34.958771,-12.793515,-16.139643,155.97548
2510500000,-16.597311,12.399256,-35.453194,-18.409676,-31.434345,2.09935,-34.695152,-5.0365543,-35.476849,-18.483133,-12.806191,-177.85513,-44.724548,-8.0666952,-41.318932,-139.72234,-31.408922,2.0615578,-44.671055,-7.9208755,-15.061768,15.493495,-34.838726,-13.416446,-34.770191,-5.3092899,-41.304958,-139.74724,-34.922962,-13.598648,-16.146292,155.29585
2511000000,-16.611469,11.980157,-35.566864,-19.441874,-31.402542,0.78081608,-34.652107,-5.5457444,-35.591171,-19.549438,-12.777519,-177.95424,-45.075169,-5.7394485,-41.629627,-143.49054,-31.370485,0.74605703,-45.013905,-5.5038385,-14.996205,15.074216,-34.783958,-14.290422,-34.731586,-5.7920976,-41.605831,-143.54762,-34.872505,-14.472247,-16.157389,154.6149
2511500000,-16.628712,11.59271,-35.67334,-20.352352,-31.381765,-0.50947589,-34.598061,-6.0567389,-35.700462,-20.489471,-12.748648,-178.04089,-45.292927,-3.079092,-41.971725,-147.21468,-31.345701,-0.5459609,-45.227661,-2.9007144,-14.931855,14.633766,-34.723316,-15.24719,-34.680511,-6.2860765,-41.940907,-147.35469,-34.815502,-15.439474,-16.172504,153.95834
2512000000,-16.649319,11.226374,-35.767395,-21.212852,-31.362946,-1.7387102,-34.529461,-6.6134844,-35.80056,-21.377277,-12.719577,-178.13741,-45.391739,-0.48081672,-42.339397,-150.78238,-31.324657,-1.7895713,-45.319469,-0.25566959,-14.872965,14.170242,-34.665356,-16.342186,-34.613747,-6.8216686,-42.309204,-150.95952,-34.761406,-16.528538,-16.190744,153.32838
2512500000,-16.668751,10.880275,-35.848389,-22.096693,-31.355469,-2.9233317,-34.450542,-7.220789,-35.884769,-22.257355,-12.69048,-178.23419,-45.3815,2.1701796,-42.727734,-154.16707,-31.317205,-2.985146,-45.307243,2.3574517,-14.814145,13.709245,-34.6133,-17.438726,-34.537449,-7.3887048,-42.695362,-154.42659,-34.711861,-17.595959,-16.208706,152.73639
2513000000,-16.688133,10.543497,-35.928642,-22.976946,-31.34366,-4.0536451,-34.353909,-7.9124908,-35.968121,-23.126873,-12.660191,-178.32639,-45.230705,4.3835483,-43.130703,-157.40088,-31.304995,-4.1201882,-45.14547,4.4595327,-14.75832,13.23874,-34.559406,-18.572237,-34.442608,-8.0451031,-43.108627,-157.76219,-34.659412,-18.721447,-16.227791,152.16566
2513500000,-16.709272,10.207156,-36.001854,-23.865717,-31.326839,-5.1506968,-34.245419,-8.7664928,-36.043453,-23.996328,-12.630576,-178.42224,-44.994987,5.6593032,-43.539082,-160.39812,-31.287443,-5.230875,-44.904705,5.7250137,-14.705734,12.763461,-34.509964,-19.77146,-34.332218,-8.8571434,-43.529377,-160.77495,-34.611809,-19.889177,-16.247112,151.62424
2514000000,-16.735683,9.8664865,-36.070957,-24.740509,-31.304913,-6.2836294,-34.139919,-9.7954321,-36.113091,-24.868254,-12.599405,-178.52238,-44.734573,6.0025024,-43.932629,-163.20589,-31.265617,-6.3691611,-44.642529,6.0972304,-14.653476,12.289744,-34.461376,-21.010717,-34.224281,-9.8375854,-43.930908,-163.5627,-34.562,-21.117992,-16.266314,151.08997
2514500000,-16.764589,9.5572205,-36.136753,-25.666452,-31.288683,-7.4687061,-34.041931,-10.948736,-36.178181,-25.76128,-12.568148,-178.63065,-44.511322,5.5744791,-44.306423,-165.97197,-31.249043,-7.5418558,-44.414246,5.6090889,-14.604728,11.812033,-34.415173,-22.295437,-34.121742,-10.972699,-44.314827,-166.31644,-34.516087,-22.387684,-16.283587,150.59523
2515000000,-16.795759,9.2704668,-36.199604,-26.577375,-31.281729,-8.6659365,-33.956158,-12.231229,-36.241276,-26.673559,-12.538137,-178.74533,-44.359375,4.633821,-44.659531,-168.70914,-31.239813,-8.7396517,-44.263149,4.5928888,-14.557164,11.341475,-34.372475,-23.648438,-34.031101,-12.20835,-44.680515,-168.96283,-34.474609,-23.713068,-16.298512,150.1194
2515500000,-16.835848,9.0136194,-36.259293,-27.527758,-31.283487,-9.8327551,-33.885521,-13.557105,-36.296547,-27.617941,-12.508791,-178.86375,-44.255165,3.3404279,-44.987843,-171.59926,-31.240822,-9.913373,-44.170628,3.2191777,-14.509926,10.873436,-34.337711,-24.994595,-33.953526,-13.534901,-45.009075,-171.74298,-34.436478,-25.06069,-16.309654,149.66446
2516000000,-16.883797,8.7963619,-36.322231,-28.585192,-31.289957,-10.953923,-33.828674,-14.948874,-36.352005,-28.665192,-12.47789,-178.9753,-44.23056,1.7852596,-45.331154,-174.78311,-31.245855,-11.037589,-44.149681,1.5916208,-14.463427,10.406909,-34.299877,-26.402615,-33.89151,-14.913855,-45.353405,-174.82748,-34.397438,-26.458014,-16.319248,149.19002
2516500000,-16.936712,8.6684141,-36.401024,-29.679663,-31.298759,-12.009102,-33.783981,-16.344999,-36.430115,-29.770592,-12.447398,-179.0968,-44.274166,0.11811075,-45.707611,-178.06485,-31.25379,-12.092191,-44.201687,-0.089532942,-14.418553,9.9271059,-34.270401,-27.884022,-33.842342,-16.298113,-45.721508,-178.106,-34.364811,-27.922071,-16.325245,148.75972
2517000000,-16.991129,8.6226349,-36.492378,-30.616379,-31.29837,-13.055957,-33.752377,-17.712065,-36.520573,-30.711727,-12.4192,-179.23593,-44.381962,-1.6386213,-46.102406,178.78561,-31.256166,-13.130359,-44.313255,-1.7561202,-14.377248,9.4496393,-34.254192,-29.386171,-33.802872,-17.683428,-46.103043,178.7364,-34.349651,-29.425148,-16.329319,148.3215
2517500000,-17.050503,8.6659746,-36.588276,-31.559614,-31.30411,-14.02827,-33.721012,-19.097208,-36.6124,-31.648102,-12.389461,-179.36032,-44.598454,-3.3080759,-46.51289,175.58267,-31.261002,-14.095872,-44.534904,-3.4419079,-14.338092,8.9924583,-34.243614,-30.911705,-33.766308,-19.088995,-46.502373,175.5415,-34.33691,-30.951239,-16.330393,147.88068
2518000000,-17.104954,8.8116665,-36.673592,-32.368595,-31.29624,-14.985587,-33.700424,-20.49268,-36.696156,-32.473518,-12.360515,-179.49716,-44.871307,-4.5821652,-46.914177,172.41133,-31.251963,-15.059915,-44.806156,-4.7231212,-14.302341,8.5534601,-34.244011,-32.455475,-33.740158,-20.519653,-46.897778,172.38472,-34.338192,-32.508377,-16.328157,147.446
2518500000,-17.152767,9.0540638,-36.753555,-33.18996,-31.278225,-15.9778,-33.689381,-21.886501,-36.773983,-33.328167,-12.331847,-179.63397,-45.173012,-5.5194535,-47.317532,169.09427,-31.237446,-16.050886,-45.115463,-5.6610432,-14.267748,8.1386061,-34.256195,-33.97224,-33.728592,-21.933897,-47.290154,169.00963,-34.34708,-34.016354,-16.321617,146.98952
2519000000,-17.190865,9.3682823,-36.828762,-33.983509,-31.261629,-17.038614,-33.686741,-23.234482,-36.849907,-34.135723,-12.301705,-179.76759,-45.517365,-6.2579169,-47.751732,165.66937,-31.220612,-17.092346,-45.461235,-6.4364738,-14.2331,7.7512813,-34.273949,-35.458221,-33.722977,-23.317596,-47.704453,165.42697,-34.361282,-35.512562,-16.310671,146.51244
2519500000,-17.213549,9.7324228,-36.896263,-34.792385,-31.246069,-18.131985,-33.684067,-24.52174,-36.92094,-34.973297,-12.272282,-179.91237,-45.909031,-6.5816641,-48.200378,162.14774,-31.204567,-18.187864,-45.861126,-6.6590948,-14.195181,7.3880868,-34.293118,-36.948296,-33.72155,-24.634733,-48.146175,161.77023,-34.381252,-37.000587,-16.297359,146.0179
2520000000,-17.22422,10.115977,-36.964226,-35.64233,-31.237419,-19.257914,-33.673855,-25.790009,-36.994164,-35.840534,-12.244545,179.92949,-46.317383,-6.4154735,-48.703781,158.60197,-31.196766,-19.29689,-46.277111,-6.3587852,-14.156204,7.0397434,-34.319302,-38.467571,-33.711948,-25.923382,-48.644493,158.01215,-34.403381,-38.522858,-16.283382,145.49384
2520500000,-17.221319,10.50735,-37.039986,-36.489506,-31.234516,-20.357252,-33.658264,-27.119492,-37.076317,-36.686115,-12.215064,179.77887,-46.712769,-5.7460423,-49.231041,155.22211,-31.192513,-20.386513,-46.65918,-5.6753488,-14.114676,6.6949358,-34.356655,-39.940784,-33.697243,-27.266813,-49.188515,154.58675,-34.441181,-40.032742,-16.269566,144.944
2521000000,-17.208031,10.886026,-37.119411,-37.289982,-31.232395,-21.420244,-33.648914,-28.487274,-37.16222,-37.470287,-12.189261,179.60135,-47.083549,-4.6818428,-49.776089,152.0697,-31.188026,-21.466831,-47.037552,-4.6228929,-14.069506,6.348681,-34.399616,-41.368668,-33.688622,-28.663006,-49.750565,151.33551,-34.483276,-41.472897,-16.25584,144.37402
2521500000,-17.182348,11.246518,-37.203384,-38.038311,-31.224504,-22.480415,-33.640102,-29.864347,-37.251488,-38.221062,-12.162976,179.4214,-47.463326,-3.3623879,-50.317833,149.40324,-31.180349,-22.523857,-47.420559,-3.2546387,-14.023233,5.982276,-34.439671,-42.751015,-33.683765,-30.063259,-50.306984,148.5083,-34.52319,-42.879124,-16.245148,143.77789
2522000000,-17.146866,11.592253,-37.293858,-38.64407,-31.214533,-23.561323,-33.630722,-31.285364,-37.340427,-38.812286,-12.137376,179.2325,-47.837238,-1.4553078,-50.781509,146.89409,-31.167555,-23.617964,-47.790932,-1.2450993,-13.976176,5.6065083,-34.48138,-44.151825,-33.679024,-31.497425,-50.8018,146.0361,-34.568172,-44.310616,-16.237926,143.15442
2522500000,-17.101711,11.920146,-37.348457,-39.114349,-31.200407,-24.635311,-33.624477,-32.780464,-37.403297,-39.308483,-12.114167,179.03421,-48.12233,0.91602057,-51.166939,144.52336,-31.154617,-24.726547,-48.086407,1.2166983,-13.931276,5.2157168,-34.526035,-45.567295,-33.675686,-32.981785,-51.220413,143.68181,-34.618645,-45.728889,-16.234467,142.52127
2523000000,-17.043621,12.220078,-37.387821,-39.725487,-31.181273,-25.751635,-33.628136,-34.372078,-37.448372,-39.887737,-12.092831,178.82726,-48.368683,3.6552334,-51.44445,141.85388,-31.13649,-25.856983,-48.321869,3.8937671,-13.886484,4.8272219,-34.577553,-46.999355,-33.682896,-34.570564,-51.542843,141.08113,-34.672195,-47.150528,-16.234324,141.88383
2523500000,-16.975212,12.492181,-37.422466,-40.370258,-31.158714,-26.922176,-33.645042,-36.007061,-37.488552,-40.514,-12.072141,178.6338,-48.524765,6.7061048,-51.689884,138.4418,-31.118399,-27.04936,-48.476139,6.8705368,-13.842145,4.4339757,-34.638504,-48.394085,-33.70269,-36.216095,-51.780296,137.86801,-34.737396,-48.559963,-16.2383,141.2583
2524000000,-16.898607,12.726818,-37.460716,-41.021896,-31.136261,-28.164564,-33.687328,-37.674431,-37.525776,-41.152294,-12.055178,178.4295,-48.600998,9.6402655,-51.915573,134.57993,-31.098915,-28.28763,-48.543911,9.9061203,-13.80039,4.0337462,-34.709106,-49.736885,-33.746548,-37.876461,-52.002319,134.07526,-34.808136,-49.901268,-16.246761,140.62379
2524500000,-16.815411,12.905338,-37.490002,-41.657459,-31.114996,-29.47991,-33.748112,-39.319347,-37.555393,-41.765865,-12.037289,178.2242,-48.600712,12.491682,-52.177803,130.46172,-31.079023,-29.605927,-48.53833,12.858897,-13.755979,3.6397388,-34.781521,-51.036564,-33.807034,-39.492886,-52.250748,130.06093,-34.883556,-51.172241,-16.258905,140.01506
2525000000,-16.718052,13.03273,-37.498348,-42.344578,-31.099222,-30.863159,-33.82037,-40.933384,-37.566681,-42.427193,-12.021355,178.01692,-48.535084,14.976679,-52.382607,126.20784,-31.066114,-31.000883,-48.472813,15.265826,-13.711658,3.2446227,-34.859184,-52.27438,-33.882359,-41.104626,-52.446156,125.87659,-34.958279,-52.419849,-16.27545,139.422
2525500000,-16.616798,13.063975,-37.508148,-43.17432,-31.088039,-32.328312,-33.916088,-42.533676,-37.579384,-43.244633,-12.006682,177.81168,-48.502571,17.501995,-52.592747,121.61708,-31.059376,-32.455685,-48.427887,17.772057,-13.664651,2.8267856,-34.941551,-53.460911,-33.976234,-42.692253,-52.64679,121.30263,-35.039032,-53.583515,-16.294027,138.8521
2526000000,-16.512348,12.990533,-37.519337,-43.98708,-31.094069,-33.900002,-34.031296,-44.027664,-37.588772,-44.046249,-11.99453,177.59503,-48.39473,19.656769,-52.800266,117.0494,-31.06683,-34.026402,-48.32502,19.961826,-13.622954,2.3911259,-35.020233,-54.562149,-34.094154,-44.185356,-52.844509,116.63789,-35.119766,-54.68663,-16.31447,138.31522
2526500000,-16.40309,12.83125,-37.524418,-44.928898,-31.117395,-35.49498,-34.167572,-45.4226,-37.595299,-44.960018,-11.984235,177.38188,-48.347496,21.735256,-52.953674,112.56528,-31.092014,-35.613697,-48.248158,22.038229,-13.584357,1.9582452,-35.094898,-55.599716,-34.226154,-45.564739,-53.001221,112.13688,-35.196213,-55.728546,-16.336596,137.78421
2527000000,-16.294664,12.566517,-37.544643,-46.007584,-31.157215,-37.093052,-34.320499,-46.611443,-37.616165,-45.992004,-11.976343,177.16316,-48.323753,24.110388,-53.029388,108.16991,-31.134539,-37.199093,-48.208702,24.22014,-13.547621,1.5314515,-35.159504,-56.602978,-34.375305,-46.796989,-53.077137,107.69816,-35.26273,-56.742817,-16.358063,137.2901
