!CSV A.01.01
!Keysight Technologies,N5222B,MY58422327,A.13.60.06
!Date: Monday, March 28, 2022 16:35:53
!Source: Standard

BEGIN CH1_DATA
Freq(Hz),S11(DB),S11(DEG),S12(DB),S12(DEG),S13(DB),S13(DEG),S14(DB),S14(DEG),S21(DB),S21(DEG),S22(DB),S22(DEG),S23(DB),S23(DEG),S24(DB),S24(DEG),S31(DB),S31(DEG),S32(DB),S32(DEG),S33(DB),S33(DEG),S34(DB),S34(DEG),S41(DB),S41(DEG),S42(DB),S42(DEG),S43(DB),S43(DEG),S44(DB),S44(DEG)
2500000000,-16.803211,21.66151,-33.780373,7.5955119,-33.361778,19.952499,-33.875378,7.7862358,-33.717667,7.9437046,-13.405856,-175.75087,-38.906532,14.98555,-40.827427,-69.780609,-33.345524,20.13497,-38.910492,14.447974,-16.148413,24.452246,-34.735229,4.3411865,-33.932129,7.5928655,-40.751156,-70.222862,-34.814693,4.3730626,-16.550699,166.48418
2500500000,-16.793049,21.247513,-33.895462,6.3301558,-33.334503,19.296247,-33.962795,6.7754335,-33.824043,6.6208091,-13.36936,-175.86473,-38.961273,13.078827,-40.778343,-72.211327,-33.313446,19.482248,-38.980415,12.733782,-16.087797,23.960114,-34.744793,3.2929893,-34.018093,6.5702858,-40.703506,-72.683083,-34.820667,3.2894166,-16.535728,166.16443
2501000000,-16.780766,20.834385,-34.015335,5.1368103,-33.302395,18.699572,-34.047791,5.8616915,-33.936131,5.3443518,-13.330971,-175.96472,-39.034515,11.110756,-40.741455,-74.667664,-33.278954,18.857298,-39.06562,10.969972,-16.026857,23.453104,-34.761395,2.165616,-34.104481,5.6616755,-40.670372,-75.129456,-34.837376,2.1254547,-16.519493,165.83472
2501500000,-16.765589,20.433754,-34.12923,4.0849991,-33.262119,18.193968,-34.131462,5.0748043,-34.038525,4.2061095,-13.295239,-176.08029,-39.135933,9.1311026,-40.71471,-77.07209,-33.238224,18.358124,-39.167488,9.2409582,-15.968803,22.932447,-34.790943,1.0551524,-34.189445,4.8705721,-40.643208,-77.544289,-34.86581,0.9768396,-16.499147,165.50523
2502000000,-16.751858,20.004013,-34.22966,3.09956,-33.210693,17.746948,-34.201168,4.331305,-34.132977,3.0790858,-13.261391,-176.19403,-39.255859,7.2071986,-40.683414,-79.39962,-33.180767,17.902056,-39.277058,7.5551901,-15.914251,22.412415,-34.829319,-0.095208377,-34.259605,4.1410756,-40.608643,-79.88665,-34.906731,-0.19848981,-16.476563,165.15613
2502500000,-16.735451,19.570854,-34.320465,2.172524,-33.149902,17.296276,-34.263214,3.6180148,-34.22139,2.0173666,-13.227491,-176.30249,-39.388622,5.3471732,-40.640308,-81.696495,-33.114388,17.417015,-39.38517,5.8892894,-15.863803,21.894697,-34.88966,-1.1917458,-34.322369,3.4306512,-40.561932,-82.228836,-34.96928,-1.3427577,-16.452047,164.77194
2503000000,-16.717815,19.127735,-34.393753,1.2869074,-33.080933,16.857334,-34.320168,2.9236293,-34.295414,1.011065,-13.197486,-176.4296,-39.534912,3.489373,-40.585976,-84.064285,-33.045536,16.946859,-39.495834,4.16992,-15.816487,21.391747,-34.962265,-2.1483963,-34.380909,2.7317858,-40.500381,-84.641884,-35.04858,-2.3122463,-16.4268,164.37978
2503500000,-16.705725,18.662224,-34.443882,0.3698377,-33.001926,16.448288,-34.373199,2.2597599,-34.353455,-0.064840443,-13.168303,-176.54765,-39.685215,1.631521,-40.507549,-86.45578,-32.965466,16.508677,-39.607899,2.3593338,-15.772248,20.908571,-35.029182,-2.9280639,-34.434208,2.0650716,-40.424313,-87.130959,-35.121964,-3.0737467,-16.400639,163.97133
2504000000,-16.691868,18.19978,-34.486191,-0.60855681,-32.902454,16.057762,-34.42609,1.5914195,-34.410297,-1.162886,-13.139025,-176.65309,-39.852371,-0.25914356,-40.408325,-88.972275,-32.868298,16.091015,-39.734596,0.42411217,-15.729671,20.451109,-35.082985,-3.6395066,-34.484623,1.404923,-40.329227,-89.738365,-35.18018,-3.7688622,-16.374096,163.52475
2504500000,-16.677923,17.74457,-34.521431,-1.6418986,-32.785751,15.598646,-34.478653,0.97283208,-34.460629,-2.2990332,-13.11202,-176.76472,-40.035282,-2.3156114,-40.289314,-91.775726,-32.75198,15.598221,-39.884392,-1.7243582,-15.685834,20.021423,-35.125267,-4.281426,-34.53743,0.77675134,-40.219971,-92.594612,-35.227589,-4.3775887,-16.344234,163.06915
2505000000,-16.660231,17.304306,-34.547733,-2.799912,-32.654194,15.029236,-34.522713,0.43046999,-34.503277,-3.5128839,-13.086689,-176.87981,-40.253792,-4.3543935,-40.164017,-94.894127,-32.622925,15.027475,-40.077763,-3.923429,-15.641919,19.599764,-35.158798,-4.8548241,-34.582642,0.23345569,-40.099476,-95.742302,-35.26265,-4.9369502,-16.315729,162.56123
2505500000,-16.641626,16.846786,-34.580173,-4.0016298,-32.50824,14.32589,-34.559391,-0.095573507,-34.554386,-4.7562943,-13.061032,-176.97572,-40.508781,-6.424222,-40.059158,-98.399132,-32.480698,14.291924,-40.314716,-6.1669674,-15.596097,19.187599,-35.165844,-5.4321995,-34.61871,-0.30252832,-40.006161,-99.265465,-35.272503,-5.4603267,-16.286514,162.03094
2506000000,-16.623375,16.38022,-34.613083,-5.3136816,-32.362717,13.449953,-34.594208,-0.57374078,-34.608364,-6.0699134,-13.03606,-177.07275,-40.792942,-8.4638968,-39.984482,-102.17763,-32.33625,13.406675,-40.588497,-8.4016685,-15.549588,18.785362,-35.160606,-6.0267758,-34.64925,-0.80324936,-39.940037,-103.07423,-35.267483,-6.0267739,-16.257629,161.45381
2506500000,-16.604311,15.915253,-34.658649,-6.7024593,-32.22522,12.462507,-34.614235,-1.0030189,-34.671413,-7.4626536,-13.012191,-177.1761,-41.115585,-10.454016,-39.948856,-106.21854,-32.201855,12.395223,-40.916119,-10.655458,-15.502514,18.395494,-35.146446,-6.7048082,-34.67239,-1.2074076,-39.911629,-107.13484,-35.250607,-6.6515651,-16.230938,160.84343
2507000000,-16.588446,15.450184,-34.720589,-8.1047659,-32.09454,11.34587,-34.612137,-1.4211105,-34.751213,-8.8377008,-12.986665,-177.255,-41.506176,-12.343863,-39.962189,-110.45039,-32.07254,11.256549,-41.312336,-12.752608,-15.452812,18.014454,-35.125053,-7.4285512,-34.66935,-1.6389922,-39.936474,-111.3364,-35.223488,-7.3451362,-16.208944,160.1916
2507500000,-16.568865,15.007119,-34.796913,-9.4785109,-31.975344,10.115071,-34.594986,-1.93644,-34.840477,-10.159284,-12.961871,-177.34308,-41.954025,-13.983186,-40.022362,-114.75616,-31.957697,10.011788,-41.777794,-14.571946,-15.401237,17.643951,-35.096729,-8.2166796,-34.655575,-2.1647041,-40.007156,-115.65916,-35.193211,-8.1328297,-16.191725,159.51923
2508000000,-16.553255,14.550347,-34.8839,-10.822532,-31.873463,8.8104124,-34.58078,-2.5635405,-34.936665,-11.442303,-12.935024,-177.42348,-42.444138,-15.212154,-40.13266,-119.11992,-31.858032,8.7104321,-42.304913,-15.978538,-15.348936,17.279016,-35.074978,-9.0791292,-34.641365,-2.800736,-40.128899,-119.9805,-35.162674,-8.9738274,-16.179884,158.8347
2508500000,-16.538479,14.092755,-34.974827,-12.100511,-31.788275,7.4787235,-34.572136,-3.2092326,-35.034542,-12.671313,-12.90647,-177.49536,-42.971237,-16.022663,-40.289078,-123.45661,-31.776207,7.3732958,-42.877819,-16.861742,-15.291817,16.920488,-35.056297,-9.9616613,-34.635952,-3.4455392,-40.288342,-124.28792,-35.140617,-9.87152,-16.172829,158.13898
2509000000,-16.530622,13.618734,-35.068306,-13.342879,-31.714233,6.1461778,-34.569141,-3.8491275,-35.132069,-13.856683,-12.879805,-177.59227,-43.530907,-16.274033,-40.483513,-127.72117,-31.706221,6.0554743,-43.481228,-17.045319,-15.233447,16.560726,-35.044788,-10.830393,-34.634331,-4.0531702,-40.486172,-128.50552,-35.124054,-10.754101,-16.168333,157.45158
2509500000,-16.525585,13.153477,-35.165962,-14.521301,-31.651287,4.8043814,-34.566589,-4.4102387,-35.233612,-15.013697,-12.850204,-177.68962,-44.087219,-15.843276,-40.704273,-131.89282,-31.645557,4.7542567,-44.070984,-16.401791,-15.171282,16.197371,-35.034565,-11.647524,-34.630314,-4.6163259,-40.713085,-132.66263,-35.108143,-11.602113,-16.167219,156.76584
2510000000,-16.528421,12.690247,-35.266087,-15.693587,-31.594252,3.4609811,-34.556774,-4.9165301,-35.337189,-16.161961,-12.819625,-177.78194,-44.624886,-14.802579,-40.952927,-135.97754,-31.589664,3.4342782,-44.630161,-15.110145,-15.105922,15.827656,-35.011997,-12.413918,-34.617176,-5.1193929,-40.960266,-136.74161,-35.086525,-12.401924,-16.170826,156.07059
2510500000,-16.542372,12.224269,-35.37191,-16.804241,-31.549042,2.0791283,-34.531116,-5.3724618,-35.452374,-17.257975,-12.791323,-177.89505,-45.12463,-13.066132,-41.223663,-140.03758,-31.544291,2.0736136,-45.13702,-13.064439,-15.040243,15.428317,-34.97739,-13.174256,-34.589142,-5.5855246,-41.230343,-140.82585,-35.052319,-13.204357,-16.175823,155.41058
2511000000,-16.559849,11.792008,-35.482395,-17.809797,-31.517513,0.70828694,-34.490128,-5.8452954,-35.573082,-18.221775,-12.763327,-178.00226,-45.536724,-10.580909,-41.514648,-144.07918,-31.512325,0.7255069,-45.527313,-10.311295,-14.97256,15.007746,-34.926003,-13.974651,-34.548347,-6.0585585,-41.524387,-144.87595,-35.004906,-14.041335,-16.184851,154.74609
2511500000,-16.580149,11.399582,-35.582218,-18.715221,-31.497774,-0.60889399,-34.433289,-6.3335128,-35.681953,-19.029747,-12.735036,-178.09505,-45.813839,-7.7277164,-41.839775,-148.06369,-31.491928,-0.58590186,-45.770515,-7.267242,-14.906988,14.560848,-34.865772,-14.871224,-34.493103,-6.5422621,-41.858849,-148.94147,-34.948929,-14.967304,-16.1978,154.10187
2512000000,-16.603642,11.034843,-35.673203,-19.581968,-31.483807,-1.8848897,-34.360153,-6.8692141,-35.774128,-19.787931,-12.706462,-178.19879,-45.958672,-4.7862568,-42.195461,-151.96039,-31.475542,-1.8496383,-45.878246,-4.2988343,-14.847555,14.085238,-34.807556,-15.883743,-34.419113,-7.0824471,-42.230099,-152.87425,-34.898083,-16.004997,-16.214291,153.48203
2512500000,-16.626526,10.695971,-35.748634,-20.461329,-31.480782,-3.1169503,-34.273327,-7.4577599,-35.852173,-20.542376,-12.67782,-178.30302,-45.992161,-1.7878243,-42.577568,-155.73492,-31.469553,-3.0417562,-45.878067,-1.4508796,-14.788264,13.613789,-34.750816,-16.885824,-34.333248,-7.6796684,-42.628452,-156.69196,-34.845268,-17.01227,-16.23036,152.89935
2513000000,-16.647335,10.365807,-35.822956,-21.322491,-31.473181,-4.2785621,-34.167336,-8.138936,-35.919029,-21.29756,-12.649138,-178.39917,-45.84309,0.80278832,-42.978619,-159.39214,-31.459476,-4.1805539,-45.718262,1.0587316,-14.73328,13.133915,-34.688881,-17.961138,-34.226341,-8.3774462,-43.046402,-160.26929,-34.789124,-18.060308,-16.247362,152.33685
2513500000,-16.66955,10.042539,-35.887466,-22.193956,-31.461891,-5.4072189,-34.049599,-9.0190601,-35.974262,-22.099726,-12.620684,-178.49985,-45.585922,2.4742289,-43.397339,-162.84032,-31.444569,-5.3052826,-45.453587,2.5858872,-14.681945,12.650716,-34.62394,-19.094456,-34.110409,-9.2555809,-43.483807,-163.61974,-34.732365,-19.175982,-16.26465,151.79901
2514000000,-16.695805,9.7110567,-35.946602,-23.08079,-31.44348,-6.5851288,-33.935097,-10.091558,-36.022186,-22.923422,-12.590734,-178.60153,-45.292839,3.0881531,-43.814861,-166.08258,-31.424002,-6.4550886,-45.172272,3.0437841,-14.631028,12.169594,-34.562309,-20.299625,-33.996159,-10.32643,-43.907379,-166.76993,-34.670673,-20.343063,-16.282103,151.27028
2514500000,-16.723421,9.4065676,-35.998837,-24.02935,-31.431335,-7.8070097,-33.828899,-11.305305,-36.06395,-23.835693,-12.56105,-178.71245,-45.028564,2.7111063,-44.221283,-169.28099,-31.409977,-7.6650953,-44.917286,2.665009,-14.584522,11.690609,-34.498432,-21.588736,-33.891796,-11.547967,-44.322731,-169.82692,-34.607719,-21.587473,-16.297466,150.77898
2515000000,-16.754272,9.1197319,-36.052845,-25.010447,-31.429575,-9.0371103,-33.737446,-12.644821,-36.108433,-24.799997,-12.532219,-178.82346,-44.843853,1.727536,-44.618576,-172.37598,-31.403677,-8.8934536,-44.740509,1.6886188,-14.538466,11.220891,-34.439762,-22.94169,-33.803318,-12.868615,-44.715893,-172.8499,-34.548283,-22.906073,-16.3106,150.3053
2515500000,-16.792387,8.8486032,-36.104939,-25.994795,-31.439613,-10.250596,-33.663818,-14.024296,-36.152126,-25.818968,-12.503529,-178.93698,-44.723179,0.2872085,-44.985985,-175.56662,-31.409153,-10.103862,-44.616722,0.30960551,-14.493179,10.763155,-34.389412,-24.326042,-33.729622,-14.253376,-45.08989,-175.9973,-34.493328,-24.290556,-16.320215,149.85555
2516000000,-16.839886,8.6146154,-36.161007,-27.12314,-31.459236,-11.410746,-33.605442,-15.457666,-36.201035,-26.970066,-12.472992,-179.043,-44.695087,-1.4551257,-45.36792,-179.05428,-31.423672,-11.265441,-44.575699,-1.4628521,-14.447813,10.304816,-34.336319,-25.804684,-33.672565,-15.668048,-45.470085,-179.43123,-34.435837,-25.742552,-16.327888,149.38548
2516500000,-16.893541,8.4605188,-36.23917,-28.305046,-31.482061,-12.488656,-33.557438,-16.879293,-36.276684,-28.1663,-12.44285,-179.16342,-44.751587,-3.3418803,-45.797455,177.37895,-31.44338,-12.366196,-44.62841,-3.4709966,-14.40402,9.8409796,-34.293526,-27.374628,-33.624447,-17.074787,-45.912331,177.04459,-34.391567,-27.327244,-16.332155,148.95959
2517000000,-16.949791,8.3905916,-36.336407,-29.320845,-31.500864,-13.52878,-33.517498,-18.275978,-36.372906,-29.211767,-12.414901,-179.29796,-44.871544,-5.1887302,-46.229145,173.9438,-31.456892,-13.423674,-44.754505,-5.4595976,-14.362459,9.3811455,-34.26955,-28.984932,-33.5849,-18.47422,-46.357346,173.67323,-34.36179,-28.950064,-16.333876,148.52321
2517500000,-17.013012,8.4122334,-36.436394,-30.322062,-31.523977,-14.480935,-33.477852,-19.704931,-36.473923,-30.229778,-12.385387,-179.42258,-45.111549,-7.0059533,-46.684795,170.52513,-31.476492,-14.395973,-45.002167,-7.3864021,-14.322819,8.9376326,-34.253384,-30.628706,-33.544529,-19.900814,-46.822453,170.34242,-34.348991,-30.608711,-16.332415,148.08209
2518000000,-17.072197,8.546298,-36.531578,-31.177441,-31.534651,-15.372109,-33.447517,-21.163157,-36.571457,-31.085882,-12.357214,-179.56,-45.417679,-8.4364624,-47.122662,167.21991,-31.483315,-15.327056,-45.326473,-8.9412355,-14.284455,8.5135183,-34.255016,-32.290279,-33.513092,-21.358887,-47.280113,167.21637,-34.346596,-32.265865,-16.328243,147.64774
2518500000,-17.125568,8.7866697,-36.621708,-31.997477,-31.533712,-16.282482,-33.428474,-22.652456,-36.659782,-31.909849,-12.329415,-179.69887,-45.761505,-9.4417543,-47.55368,163.68173,-31.480713,-16.270269,-45.694267,-10.062553,-14.247002,8.1068697,-34.26963,-33.920773,-33.494442,-22.835463,-47.707478,163.92236,-34.36322,-33.884823,-16.320206,147.18768
2519000000,-17.16757,9.114398,-36.705715,-32.771889,-31.52824,-17.209629,-33.418072,-24.125496,-36.740204,-32.693298,-12.300417,-179.83022,-46.1427,-10.201299,-48.002094,159.95668,-31.475487,-17.253019,-46.115757,-10.940752,-14.208872,7.7204514,-34.292492,-35.502274,-33.484951,-24.304523,-48.137058,160.34311,-34.382614,-35.483978,-16.307526,146.70869
2519500000,-17.193815,9.499135,-36.781006,-33.552979,-31.519039,-18.164261,-33.413776,-25.532726,-36.816963,-33.478168,-12.271887,-179.97142,-46.585987,-10.499828,-48.481789,156.11278,-31.467281,-18.26236,-46.601189,-11.253635,-14.168262,7.3486414,-34.319695,-37.081684,-33.477959,-25.704933,-48.5868,156.5385,-34.408539,-37.040501,-16.292284,146.21114
2520000000,-17.206919,9.9023809,-36.851963,-34.350201,-31.509981,-19.145861,-33.403183,-26.932583,-36.891132,-34.287956,-12.244869,179.87476,-47.036251,-10.207555,-49.011669,152.13156,-31.464901,-19.288755,-47.097355,-10.824988,-14.126863,6.9860177,-34.353432,-38.651543,-33.466743,-27.097971,-49.095158,152.5361,-34.436783,-38.64344,-16.277136,145.68495
2520500000,-17.204382,10.319078,-36.926826,-35.17635,-31.499475,-20.124807,-33.390659,-28.381403,-36.968315,-35.09058,-12.215899,179.7314,-47.469711,-9.4486361,-49.569378,148.32983,-31.463781,-20.298164,-47.573986,-9.8436794,-14.08361,6.6219373,-34.400654,-40.210049,-33.454273,-28.564728,-49.634262,148.6321,-34.48201,-40.216614,-16.26137,145.13252
2521000000,-17.191486,10.721428,-37.008144,-35.93919,-31.486485,-21.106934,-33.385632,-29.88719,-37.052101,-35.838764,-12.190304,179.56061,-47.875584,-8.3212395,-50.147892,144.66869,-31.45826,-21.294413,-48.022354,-8.3915682,-14.038096,6.2546029,-34.454411,-41.686451,-33.448399,-30.064163,-50.208748,144.78903,-34.534916,-41.717834,-16.246294,144.56227
2521500000,-17.164053,11.109629,-37.09602,-36.68586,-31.467459,-22.104952,-33.385937,-31.39006,-37.135395,-36.560795,-12.163594,179.38916,-48.297264,-6.9277449,-50.741589,141.33295,-31.447393,-22.29528,-48.457893,-6.496243,-13.992651,5.8629932,-34.50613,-43.113541,-33.449932,-31.574059,-50.82151,141.2999,-34.58609,-43.188286,-16.233513,143.96312
2522000000,-17.125704,11.471329,-37.18832,-37.244877,-31.445999,-23.162123,-33.389687,-32.918812,-37.223045,-37.106632,-12.136855,179.20453,-48.717777,-4.8683934,-51.307938,138.35068,-31.430487,-23.323269,-48.8634,-4.0423145,-13.947175,5.4692698,-34.555458,-44.54044,-33.451939,-33.114643,-51.404499,138.12868,-34.641182,-44.649632,-16.22411,143.33176
2522500000,-17.076435,11.806573,-37.250046,-37.709805,-31.421909,-24.231829,-33.397095,-34.514179,-37.276859,-37.551163,-12.112524,179.00543,-49.077713,-2.3036497,-51.789951,135.66315,-31.412262,-24.392725,-49.182228,-1.1089771,-13.904578,5.0616841,-34.611362,-45.972797,-33.459606,-34.712074,-51.9454,135.41631,-34.701134,-46.111229,-16.218945,142.69073
2523000000,-17.014906,12.102401,-37.290398,-38.220585,-31.396542,-25.353157,-33.414249,-36.170044,-37.309612,-38.100624,-12.090758,178.79755,-49.377636,0.62606448,-52.16621,132.87434,-31.392879,-25.510399,-49.431957,1.9451673,-13.8627,4.6614461,-34.673244,-47.403431,-33.479218,-36.380665,-52.369473,132.6216,-34.76865,-47.554928,-16.216942,142.04213
2523500000,-16.943192,12.362573,-37.325672,-38.798046,-31.369938,-26.535406,-33.446167,-37.87289,-37.341747,-38.717422,-12.069483,178.59929,-49.609722,3.8878753,-52.445644,129.5811,-31.372078,-26.676842,-49.6092,5.3702335,-13.821588,4.265234,-34.743492,-48.823086,-33.511906,-38.080441,-52.713673,129.64417,-34.844948,-48.975956,-16.220177,141.40527
2524000000,-16.864004,12.581573,-37.357124,-39.369839,-31.342739,-27.775751,-33.498405,-39.587502,-37.369766,-39.356148,-12.052152,178.39012,-49.734554,7.3731551,-52.696686,125.81641,-31.351435,-27.907356,-49.688622,8.8237782,-13.782256,3.8681839,-34.820965,-50.187084,-33.563877,-39.804295,-52.985813,126.20295,-34.926872,-50.330639,-16.22731,140.76164
2524500000,-16.779877,12.732874,-37.37244,-39.903584,-31.318518,-29.12183,-33.566818,-41.286442,-37.391521,-39.967068,-12.034726,178.18504,-49.766754,10.713654,-52.947739,121.81554,-31.334965,-29.195654,-49.682056,12.19071,-13.740487,3.480824,-34.903389,-51.517357,-33.631165,-41.488373,-53.225937,122.63937,-35.011902,-51.640102,-16.239088,140.14816
2525000000,-16.681278,12.83734,-37.372356,-40.549007,-31.30233,-30.507471,-33.648552,-42.974876,-37.396599,-40.677868,-12.018661,177.97812,-49.761017,13.723161,-53.097401,117.53777,-31.321335,-30.572477,-49.613533,15.045155,-13.697223,3.0953169,-34.990913,-52.806759,-33.712017,-43.189552,-53.36982,118.74423,-35.104572,-52.901413,-16.254372,139.54848
2525500000,-16.579945,12.836175,-37.372421,-41.342564,-31.290125,-31.981668,-33.754818,-44.666931,-37.40485,-41.507458,-12.004227,177.77745,-49.743793,17.115166,-53.246834,112.85487,-31.311842,-31.993717,-49.559361,18.030174,-13.651948,2.684999,-35.087494,-54.051434,-33.817532,-44.870007,-53.449051,114.24074,-35.203751,-54.086887,-16.271721,138.97031
2526000000,-16.47653,12.733231,-37.373051,-42.139923,-31.297783,-33.587963,-33.885513,-46.253918,-37.414303,-42.319687,-11.992071,177.5638,-49.629925,19.961512,-53.393608,107.99629,-31.318676,-33.540009,-49.43465,20.619699,-13.611826,2.2600851,-35.183723,-55.15226,-33.947491,-46.474392,-53.525692,109.44241,-35.303619,-55.166027,-16.290737,138.4259
2526500000,-16.370478,12.542961,-37.366631,-43.031471,-31.322844,-35.199188,-34.038639,-47.73423,-37.423809,-43.268005,-11.981015,177.35124,-49.547073,22.790779,-53.481438,103.37513,-31.34396,-35.111824,-49.345329,23.141464,-13.573909,1.8386154,-35.275276,-56.199482,-34.099747,-47.957233,-53.544315,104.6789,-35.391571,-56.18362,-16.3111,137.88312
2527000000,-16.265944,12.25332,-37.372364,-44.064125,-31.369385,-36.80032,-34.209686,-49.034012,-37.446831,-44.305775,-11.972232,177.13225,-49.466503,25.731983,-53.510269,98.774223,-31.386175,-36.68235,-49.296799,25.763863,-13.538259,1.4241658,-35.361465,-57.218479,-34.273735,-49.281067,-53.505924,99.839294,-35.475689,-57.156719,-16.330957,137.37585
