!CSV A.01.01
!Keysight Technologies,N5222B,MY58422327,A.13.60.06
!Date: Monday, March 28, 2022 16:36:19
!Source: Standard

BEGIN CH1_DATA
Freq(Hz),S11(DB),S11(DEG),S12(DB),S12(DEG),S13(DB),S13(DEG),S14(DB),S14(DEG),S21(DB),S21(DEG),S22(DB),S22(DEG),S23(DB),S23(DEG),S24(DB),S24(DEG),S31(DB),S31(DEG),S32(DB),S32(DEG),S33(DB),S33(DEG),S34(DB),S34(DEG),S41(DB),S41(DEG),S42(DB),S42(DEG),S43(DB),S43(DEG),S44(DB),S44(DEG)
2500000000,-16.765713,21.666557,-33.523117,7.9159794,-33.56971,20.771662,-33.831783,7.9764385,-33.659306,8.3094273,-13.419814,-175.66838,-38.738686,15.689593,-40.344952,-72.096649,-33.542751,20.670965,-38.76339,15.479091,-16.123421,24.374886,-34.54567,2.9003153,-33.900116,7.8415337,-40.443722,-72.917198,-34.651295,2.6903565,-16.514565,166.57321
2500500000,-16.757305,21.23951,-33.642887,6.5446959,-33.537033,20.119741,-33.927364,6.9162436,-33.764523,7.0039945,-13.381653,-175.78532,-38.796993,13.823122,-40.298851,-74.423203,-33.511761,20.037691,-38.826633,13.627262,-16.06325,23.874937,-34.560543,1.8196677,-33.995369,6.8156557,-40.409081,-75.1987,-34.659195,1.6627195,-16.499435,166.25024
2501000000,-16.747221,20.820934,-33.767456,5.2605429,-33.49931,19.51597,-34.022209,5.9663496,-33.874153,5.7599473,-13.3425,-175.89024,-38.879738,11.865668,-40.261921,-76.790733,-33.47031,19.461382,-38.912708,11.699005,-16.002129,23.364969,-34.58316,0.67692542,-34.091484,5.8923397,-40.393867,-77.478699,-34.674519,0.52884001,-16.482443,165.91888
2501500000,-16.734167,20.41798,-33.885296,4.1159191,-33.458576,19.030006,-34.114532,5.1714931,-33.973541,4.6390553,-13.305799,-176.01112,-38.980412,9.9951725,-40.237778,-79.098541,-33.426712,18.989948,-39.020775,9.7824678,-15.944115,22.840221,-34.619328,-0.46018225,-34.182877,5.1156344,-40.38586,-79.729332,-34.701321,-0.60058874,-16.461624,165.58278
2502000000,-16.72266,19.991741,-33.987179,3.0578673,-33.404106,18.6036,-34.193275,4.4326043,-34.058739,3.5469189,-13.271348,-176.12877,-39.095299,8.1151628,-40.209427,-81.344658,-33.365768,18.556129,-39.143406,7.9069858,-15.888326,22.312366,-34.666798,-1.6167735,-34.260464,4.4023905,-40.373768,-81.88694,-34.741467,-1.768699,-16.438871,165.22745
2502500000,-16.707932,19.562141,-34.084412,2.0142443,-33.336952,18.165081,-34.26582,3.7342763,-34.141556,2.4768813,-13.237325,-176.24324,-39.219517,6.2763309,-40.169018,-83.525047,-33.295647,18.098677,-39.27433,6.0729403,-15.838802,21.785122,-34.732376,-2.7320275,-34.32967,3.7189457,-40.348862,-83.995918,-34.802818,-2.9199049,-16.414968,164.84177
2503000000,-16.692389,19.123764,-34.161648,1.0291437,-33.263245,17.734152,-34.328522,3.0916786,-34.210022,1.4374902,-13.206882,-176.37323,-39.352375,4.4137793,-40.118,-85.772995,-33.219738,17.647461,-39.417038,4.2234135,-15.791468,21.270515,-34.813305,-3.6695294,-34.388245,3.0830765,-40.308273,-86.149887,-34.87653,-3.9082701,-16.389685,164.44498
2503500000,-16.681171,18.662075,-34.223236,0.0065645091,-33.180046,17.341759,-34.385635,2.4569995,-34.266155,0.34423891,-13.177532,-176.49124,-39.494106,2.5012512,-40.039604,-88.07093,-33.136078,17.243429,-39.570213,2.3530493,-15.748071,20.775879,-34.888531,-4.4229264,-34.44268,2.4450164,-40.256344,-88.384697,-34.949577,-4.7195177,-16.363398,164.03191
2504000000,-16.667856,18.206688,-34.278214,-1.0997319,-33.076534,16.936872,-34.439125,1.8272784,-34.318855,-0.77307433,-13.148359,-176.59544,-39.64938,0.48936242,-39.941734,-90.461853,-33.030914,16.827312,-39.731102,0.32637563,-15.706844,20.307138,-34.949688,-5.1039481,-34.491665,1.8073829,-40.158615,-90.593666,-35.012814,-5.4602389,-16.337114,163.57974
2504500000,-16.654818,17.762617,-34.331959,-2.2469399,-32.949757,16.49358,-34.490841,1.2529118,-34.364517,-1.9205686,-13.120669,-176.70558,-39.824371,-1.6203063,-39.824787,-93.10997,-32.906971,16.340891,-39.917892,-1.7698479,-15.664094,19.87104,-34.997253,-5.7017479,-34.53997,1.2118316,-40.044525,-93.099075,-35.065411,-6.1000609,-16.307175,163.1228
2505000000,-16.637701,17.330721,-34.381104,-3.4844978,-32.814125,15.917819,-34.53336,0.72169721,-34.405956,-3.1600151,-13.094563,-176.82072,-40.040119,-3.7613335,-39.699085,-96.091255,-32.77108,15.756166,-40.142223,-3.8394384,-15.62215,19.441521,-35.030941,-6.2439852,-34.583263,0.64352518,-39.917404,-95.925385,-35.106163,-6.6884351,-16.278721,162.61505
2505500000,-16.618675,16.88443,-34.441765,-4.733849,-32.663441,15.195614,-34.570431,0.21249792,-34.455204,-4.4166131,-13.067886,-176.91986,-40.297588,-5.9476385,-39.592243,-99.43663,-32.621651,15.010608,-40.407787,-5.947628,-15.578324,19.027134,-35.040203,-6.7646732,-34.617199,0.12305479,-39.807678,-99.119057,-35.125095,-7.2401552,-16.248966,162.08237
2506000000,-16.599504,16.426882,-34.505585,-6.0421233,-32.511627,14.314599,-34.599548,-0.27940083,-34.503166,-5.7342334,-13.042212,-177.0228,-40.586563,-8.0833502,-39.513912,-103.03348,-32.474251,14.117491,-40.704483,-7.9924016,-15.534055,18.628599,-35.032677,-7.3386507,-34.646713,-0.36575842,-39.724609,-102.62563,-35.129208,-7.8149686,-16.219765,161.50258
2506500000,-16.579603,15.968486,-34.580093,-7.3959293,-32.367359,13.303375,-34.618385,-0.68464673,-34.561676,-7.1296062,-13.018016,-177.13359,-40.929638,-10.19792,-39.472702,-106.87728,-32.331818,13.102658,-41.052322,-9.985302,-15.488392,18.234922,-35.013802,-7.9916511,-34.667179,-0.79516071,-39.675716,-106.39516,-35.121132,-8.4446735,-16.192522,160.8877
2507000000,-16.563791,15.505712,-34.669281,-8.70331,-32.231674,12.164764,-34.617188,-1.0977443,-34.637924,-8.5383644,-12.992681,-177.22067,-41.33498,-12.142529,-39.476894,-110.91237,-32.198494,11.962272,-41.453781,-11.840454,-15.441242,17.85787,-34.988922,-8.7248516,-34.664951,-1.2219044,-39.672394,-110.39742,-35.104385,-9.1268606,-16.169985,160.231
2507500000,-16.543022,15.069395,-34.769524,-9.9483585,-32.110935,10.910669,-34.601589,-1.6173491,-34.724091,-9.8960047,-12.968194,-177.31718,-41.800388,-13.802289,-39.526234,-115.01522,-32.076809,10.728271,-41.919022,-13.398757,-15.390826,17.497646,-34.960545,-9.5228424,-34.649319,-1.739496,-39.716774,-114.49401,-35.082283,-9.8705654,-16.152321,159.5546
2508000000,-16.526581,14.61797,-34.875633,-11.11041,-32.004757,9.5946465,-34.586693,-2.220505,-34.817947,-11.18041,-12.942154,-177.40424,-42.315098,-14.99861,-39.625374,-119.17157,-31.971636,9.4058838,-42.419643,-14.515702,-15.33978,17.140877,-34.939655,-10.407217,-34.630661,-2.3608136,-39.812656,-118.60598,-35.062145,-10.67014,-16.140106,158.86531
2508500000,-16.511112,14.162971,-34.979725,-12.169708,-31.915966,8.2348719,-34.577148,-2.8407469,-34.913292,-12.418679,-12.914948,-177.47884,-42.85722,-15.736534,-39.763805,-123.30665,-31.882072,8.0602036,-42.962376,-15.175311,-15.283401,16.795753,-34.924232,-11.301921,-34.621059,-3.0024805,-39.950268,-122.70419,-35.046558,-11.513602,-16.132971,158.16283
2509000000,-16.501602,13.691917,-35.076027,-13.184119,-31.840616,6.8855214,-34.571991,-3.4398401,-35.008995,-13.628657,-12.888894,-177.57669,-43.431808,-15.908025,-39.941029,-127.37494,-31.806364,6.7067451,-43.527668,-15.185807,-15.224808,16.447477,-34.915581,-12.186265,-34.616821,-3.6182005,-40.126339,-126.74859,-35.033115,-12.337907,-16.128401,157.46841
2509500000,-16.495308,13.227601,-35.169765,-14.140076,-31.77125,5.5229163,-34.562813,-3.9860883,-35.10638,-14.805912,-12.860496,-177.67365,-44.002514,-15.381327,-40.145706,-131.38016,-31.739401,5.3592134,-44.087875,-14.507771,-15.162003,16.094275,-34.908375,-12.999235,-34.606781,-4.1918674,-40.328732,-130.67513,-35.017784,-13.110148,-16.127628,156.7764
2510000000,-16.497084,12.76348,-35.258137,-15.106239,-31.710642,4.1422901,-34.548679,-4.4908171,-35.205029,-15.96721,-12.831178,-177.76443,-44.53315,-14.186708,-40.375198,-135.32617,-31.679447,3.9814308,-44.602287,-13.217568,-15.096071,15.728534,-34.890327,-13.787715,-34.590595,-4.7120714,-40.552685,-134.54468,-34.994778,-13.877875,-16.131638,156.07529
2510500000,-16.508934,12.294925,-35.344482,-16.058104,-31.662197,2.7097392,-34.514145,-4.9571867,-35.313736,-17.097393,-12.803574,-177.87402,-45.037754,-12.335886,-40.627483,-139.22653,-31.630405,2.5848458,-45.074276,-11.251471,-15.028936,15.330642,-34.862438,-14.544142,-34.561802,-5.19976,-40.79673,-138.41472,-34.960602,-14.618488,-16.137173,155.4113
2511000000,-16.524921,11.855716,-35.433365,-16.94474,-31.63135,1.2708044,-34.467022,-5.4453712,-35.430901,-18.130104,-12.776134,-177.9756,-45.441395,-9.6948767,-40.909203,-143.11023,-31.598164,1.1800066,-45.440674,-8.5585079,-14.961245,14.908828,-34.819798,-15.330571,-34.519295,-5.6937551,-41.063705,-142.32338,-34.91053,-15.405692,-16.146973,154.74539
2511500000,-16.544777,11.451553,-35.509575,-17.755112,-31.612431,-0.11402846,-34.404736,-5.9821205,-35.540482,-19.015251,-12.748816,-178.06313,-45.697624,-6.7636156,-41.221298,-146.95438,-31.579321,-0.1754953,-45.65271,-5.6288872,-14.894895,14.45886,-34.765934,-16.219709,-34.462284,-6.2250524,-41.366135,-146.18346,-34.849632,-16.294512,-16.160328,154.10107
2512000000,-16.567837,11.077417,-35.568802,-18.569674,-31.602545,-1.431698,-34.331123,-6.5674868,-35.638615,-19.846535,-12.720815,-178.16019,-45.830902,-3.8109078,-41.566414,-150.65762,-31.565454,-1.4714075,-45.730644,-2.8309364,-14.834666,13.978253,-34.714722,-17.205526,-34.391033,-6.8062134,-41.69986,-149.92149,-34.794796,-17.290478,-16.176723,153.48077
2512500000,-16.590298,10.725957,-35.617031,-19.448549,-31.605858,-2.7068295,-34.243874,-7.1904879,-35.718719,-20.657784,-12.693089,-178.25336,-45.835175,-0.82081133,-41.939739,-154.23148,-31.563627,-2.7247496,-45.697189,-0.12288543,-14.776388,13.500305,-34.662567,-18.164804,-34.307701,-7.4266405,-42.064457,-153.58188,-34.738243,-18.291143,-16.192663,152.89644
2513000000,-16.611694,10.388489,-35.665989,-20.345261,-31.606552,-3.868448,-34.140491,-7.9185252,-35.793377,-21.463312,-12.663588,-178.33551,-45.679543,1.6851594,-42.33239,-157.63609,-31.55719,-3.8858628,-45.524105,2.0493488,-14.721626,13.017251,-34.60516,-19.195988,-34.204067,-8.1372013,-42.451199,-157.08591,-34.676296,-19.337736,-16.209743,152.33322
2513500000,-16.633999,10.058499,-35.707191,-21.290073,-31.600149,-5.007153,-34.024857,-8.8193312,-35.855164,-22.279085,-12.63417,-178.42372,-45.424107,3.2507186,-42.744705,-160.78743,-31.545471,-5.0346503,-45.252636,3.27931,-14.670976,12.531818,-34.545341,-20.269348,-34.087578,-9.0300741,-42.856407,-160.36739,-34.614063,-20.459553,-16.22583,151.793
2514000000,-16.661432,9.7226877,-35.746433,-22.25016,-31.588093,-6.1391249,-33.912006,-9.8949242,-35.910328,-23.118963,-12.603273,-178.51497,-45.140678,3.8068035,-43.147381,-163.7238,-31.52775,-6.1903992,-44.980103,3.5540216,-14.620934,12.053221,-34.482628,-21.398779,-33.976555,-10.100253,-43.252975,-163.35924,-34.551117,-21.625618,-16.242575,151.25859
2514500000,-16.689291,9.4171982,-35.78344,-23.273052,-31.579002,-7.3335724,-33.808018,-11.124188,-35.95657,-24.033127,-12.572357,-178.61876,-44.899281,3.462724,-43.534225,-166.57019,-31.512932,-7.4171252,-44.751251,2.9526992,-14.574226,11.576578,-34.416954,-22.620811,-33.873249,-11.32014,-43.634495,-166.2794,-34.484764,-22.890265,-16.258081,150.75699
2515000000,-16.719765,9.1284981,-35.825279,-24.359623,-31.575447,-8.5333252,-33.715702,-12.473369,-36.003567,-25.007471,-12.541718,-178.72452,-44.721123,2.4989123,-43.905415,-169.34258,-31.51042,-8.6612225,-44.59296,1.766723,-14.528023,11.108088,-34.35503,-23.92618,-33.781494,-12.651738,-44.009983,-169.14699,-34.425922,-24.23937,-16.271351,150.27467
2515500000,-16.75824,8.8614798,-35.862259,-25.490417,-31.582943,-9.7197256,-33.642368,-13.881028,-36.049034,-26.031137,-12.511077,-178.83904,-44.607853,1.1958541,-44.250259,-172.22696,-31.517506,-9.8825159,-44.496506,0.2578924,-14.482853,10.647197,-34.296932,-25.275082,-33.707352,-14.039205,-44.361176,-172.08409,-34.373081,-25.637091,-16.281155,149.81401
2516000000,-16.80394,8.6286373,-35.903515,-26.745213,-31.594759,-10.866832,-33.579624,-15.314759,-36.095772,-27.170582,-12.479116,-178.94949,-44.573547,-0.46767026,-44.605663,-175.34862,-31.534016,-11.054283,-44.480164,-1.6637005,-14.437551,10.189121,-34.238831,-26.713917,-33.645317,-15.478421,-44.720448,-175.30008,-34.32127,-27.122059,-16.289976,149.33609
2516500000,-16.856361,8.4740114,-35.973316,-28.07209,-31.609314,-11.940461,-33.529133,-16.774878,-36.171005,-28.378202,-12.448043,-179.07338,-44.628304,-2.2288373,-45.002464,-178.57416,-31.553558,-12.154765,-44.558929,-3.6956689,-14.393217,9.7243996,-34.190098,-28.252922,-33.593571,-16.943533,-45.122387,-178.62466,-34.281254,-28.6933,-16.295406,148.90504
2517000000,-16.911678,8.3983412,-36.064857,-29.294996,-31.619637,-13.013621,-33.488068,-18.225124,-36.26609,-29.442001,-12.419068,-179.21713,-44.739094,-3.9997241,-45.416534,178.33456,-31.571199,-13.217902,-44.722485,-5.7740874,-14.351902,9.2576284,-34.158035,-29.873001,-33.555893,-18.396868,-45.54287,178.18623,-34.2593,-30.319822,-16.298468,148.46819
2517500000,-16.973927,8.4158945,-36.167744,-30.470417,-31.638186,-14.009753,-33.447662,-19.723003,-36.366867,-30.494398,-12.389256,-179.34291,-44.969528,-5.7861319,-45.852272,175.25961,-31.594833,-14.180853,-45.009354,-7.7535677,-14.312249,8.8105278,-34.140198,-31.519083,-33.517036,-19.872776,-45.980755,175.09639,-34.252533,-31.957481,-16.29805,148.02942
2518000000,-17.031862,8.5400276,-36.270523,-31.486507,-31.642176,-14.962651,-33.419174,-21.249449,-36.466133,-31.366579,-12.360457,-179.47983,-45.27076,-7.1583762,-46.277077,172.32965,-31.603081,-15.103054,-45.371628,-9.1513672,-14.275044,8.3797369,-34.138027,-33.186214,-33.488674,-21.405834,-46.386665,171.95496,-34.263287,-33.58136,-16.294468,147.59378
2518500000,-17.08387,8.7684574,-36.371422,-32.492882,-31.640001,-15.941258,-33.408951,-22.801317,-36.558441,-32.235855,-12.332285,-179.62048,-45.61274,-8.0574474,-46.686974,169.22809,-31.600985,-16.030895,-45.779945,-10.0406,-14.238345,7.9681978,-34.150059,-34.798454,-33.474308,-22.935335,-46.787243,168.64978,-34.281162,-35.136879,-16.286684,147.13564
2519000000,-17.125307,9.073597,-36.47208,-33.425468,-31.635275,-16.932196,-33.406685,-24.321575,-36.649323,-33.028393,-12.302813,-179.7551,-45.98296,-8.7640867,-47.120308,165.9946,-31.593857,-17.005157,-46.217007,-10.70821,-14.201772,7.5796514,-34.166843,-36.391918,-33.474056,-24.454824,-47.203636,165.15848,-34.304752,-36.662823,-16.274471,146.65921
2519500000,-17.151745,9.4421043,-36.56823,-34.288433,-31.629662,-17.986979,-33.41362,-25.78722,-36.730019,-33.781353,-12.274191,-179.89745,-46.404457,-8.9908867,-47.574772,162.5965,-31.585634,-18.005676,-46.722462,-10.629485,-14.162638,7.2074418,-34.19054,-37.968178,-33.479359,-25.903378,-47.650867,161.45763,-34.331005,-38.177696,-16.259485,146.16112
2520000000,-17.165594,9.8292055,-36.661182,-35.187981,-31.629059,-19.021467,-33.4142,-27.192905,-36.805706,-34.579865,-12.246987,179.94815,-46.833065,-8.6492405,-48.089066,159.17734,-31.580009,-19.042198,-47.220993,-9.8553267,-14.122496,6.8489251,-34.220272,-39.550888,-33.480816,-27.307131,-48.171101,157.54933,-34.359844,-39.691593,-16.244089,145.63382
2520500000,-17.1654,10.228551,-36.762169,-36.05064,-31.629271,-20.061066,-33.412529,-28.664795,-36.888634,-35.373211,-12.217778,179.80196,-47.23761,-7.7412162,-48.639011,155.98405,-31.578428,-20.059422,-47.671513,-8.5180416,-14.080279,6.4925637,-34.267265,-41.117558,-33.477608,-28.760845,-48.7328,153.78377,-34.402943,-41.17371,-16.228029,145.08113
2521000000,-17.154985,10.622172,-36.863602,-36.872375,-31.627064,-21.061852,-33.419727,-30.140125,-36.970425,-36.105942,-12.191702,179.62701,-47.636566,-6.5663657,-49.199898,152.96091,-31.572332,-21.075554,-48.092529,-6.8033657,-14.035716,6.1318007,-34.318016,-42.588856,-33.485657,-30.252243,-49.331654,150.12648,-34.44828,-42.617924,-16.212584,144.50713
2521500000,-17.12953,11.005723,-36.975349,-37.638527,-31.621338,-22.060604,-33.430698,-31.635185,-37.053436,-36.797455,-12.16525,179.45425,-48.012482,-5.0694723,-49.773621,150.27542,-31.561815,-22.073862,-48.482391,-4.7486043,-13.990182,5.7525558,-34.365265,-44.044914,-33.495113,-31.726954,-49.982117,146.78439,-34.489887,-44.021603,-16.200176,143.90486
2522000000,-17.09325,11.369647,-37.086994,-38.181351,-31.609634,-23.098001,-33.443619,-33.136463,-37.136723,-37.351006,-12.139091,179.27025,-48.397102,-3.0556114,-50.307613,147.87158,-31.545572,-23.127726,-48.837887,-2.1011741,-13.944609,5.3655014,-34.417484,-45.49765,-33.506004,-33.22316,-50.618462,143.81186,-34.534313,-45.447353,-16.191076,143.274
2522500000,-17.045292,11.709233,-37.173206,-38.613583,-31.596397,-24.140707,-33.460266,-34.678074,-37.189949,-37.839985,-12.114831,179.07578,-48.696014,-0.52325517,-50.788986,145.58075,-31.527332,-24.216259,-49.111057,0.80915701,-13.901152,4.9691277,-34.472775,-46.933384,-33.518764,-34.778385,-51.220119,141.31604,-34.583244,-46.868896,-16.185745,142.62791
2523000000,-16.983835,12.012675,-37.238747,-39.073811,-31.575741,-25.231092,-33.483982,-36.283012,-37.223427,-38.418858,-12.092676,178.86964,-48.957977,2.1374273,-51.172798,143.13751,-31.508057,-25.334936,-49.329342,4.0051098,-13.858143,4.5705938,-34.533604,-48.388107,-33.540058,-36.414726,-51.734505,138.67807,-34.635685,-48.299286,-16.183832,141.97536
2523500000,-16.912546,12.275852,-37.291962,-39.545006,-31.553869,-26.367331,-33.5224,-37.940929,-37.255558,-39.03933,-12.071088,178.67392,-49.16853,5.0981512,-51.514744,140.22015,-31.487301,-26.508942,-49.480492,7.4555726,-13.815636,4.175015,-34.606625,-49.817505,-33.577267,-38.07893,-52.187309,135.98798,-34.703537,-49.739841,-16.187544,141.33585
2524000000,-16.833017,12.492571,-37.33606,-40.031013,-31.531446,-27.567764,-33.576694,-39.60725,-37.287331,-39.732712,-12.053521,178.46469,-49.290955,8.2573233,-51.848969,136.90947,-31.464359,-27.755148,-49.51989,10.899899,-13.775004,3.7770255,-34.685509,-51.171974,-33.631615,-39.769932,-52.606232,132.76405,-34.776253,-51.109276,-16.195154,140.68915
2524500000,-16.748518,12.640483,-37.358807,-40.477196,-31.506659,-28.839569,-33.645996,-41.269901,-37.310925,-40.376301,-12.035168,178.25769,-49.324356,11.530307,-52.187935,133.32228,-31.445875,-29.077072,-49.458668,14.213752,-13.733057,3.385242,-34.770412,-52.511917,-33.702511,-41.443359,-53.012329,129.68346,-34.856617,-52.454002,-16.206766,140.07069
2525000000,-16.650126,12.742088,-37.359108,-41.033463,-31.485771,-30.211403,-33.729691,-42.940483,-37.320797,-41.080471,-12.018636,178.04913,-49.301861,14.385804,-52.476101,129.62686,-31.433378,-30.471735,-49.36021,17.046518,-13.689813,2.9954214,-34.85994,-53.781273,-33.789928,-43.119919,-53.337589,126.1844,-34.940441,-53.734436,-16.222485,139.46675
2525500000,-16.548738,12.740128,-37.363548,-41.778984,-31.469172,-31.670113,-33.837914,-44.583866,-37.332928,-41.915325,-12.004021,177.84242,-49.285427,17.502203,-52.758316,125.45573,-31.425142,-31.938593,-49.261822,19.983013,-13.643771,2.581027,-34.956509,-54.977936,-33.900173,-44.787209,-53.642715,122.2746,-35.034672,-54.947403,-16.240545,138.88339
2526000000,-16.445517,12.632949,-37.366909,-42.535801,-31.472843,-33.26458,-33.974918,-46.170025,-37.342297,-42.766289,-11.991446,177.62494,-49.1647,20.243717,-53.035549,121.16127,-31.43593,-33.543377,-49.090206,22.464041,-13.603281,2.1503358,-35.055187,-56.085327,-34.037201,-46.354717,-53.940647,118.13166,-35.126343,-56.039898,-16.260633,138.3331
2526500000,-16.339733,12.437351,-37.365955,-43.424088,-31.497972,-34.891422,-34.132145,-47.60294,-37.350063,-43.70472,-11.980257,177.40796,-49.083252,22.790998,-53.282505,116.92206,-31.466881,-35.145374,-48.930653,24.719568,-13.565736,1.7265015,-35.147308,-57.099579,-34.194359,-47.813637,-54.18343,113.92361,-35.212944,-57.098282,-16.282059,137.78806
2527000000,-16.236221,12.146791,-37.380737,-44.423717,-31.540985,-36.518166,-34.308281,-48.855442,-37.369583,-44.752907,-11.971568,177.18745,-49.009621,25.513971,-53.451721,112.66524,-31.516537,-36.753784,-48.786922,26.958429,-13.530084,1.3093387,-35.230522,-58.078819,-34.373695,-49.071659,-54.356915,109.79674,-35.294865,-58.107433,-16.30316,137.27962
