!CSV A.01.01
!Keysight Technologies,N5222B,MY58422327,A.13.60.06
!Date: Monday, March 28, 2022 16:37:10
!Source: Standard

BEGIN CH1_DATA
Freq(Hz),S11(DB),S11(DEG),S12(DB),S12(DEG),S13(DB),S13(DEG),S14(DB),S14(DEG),S21(DB),S21(DEG),S22(DB),S22(DEG),S23(DB),S23(DEG),S24(DB),S24(DEG),S31(DB),S31(DEG),S32(DB),S32(DEG),S33(DB),S33(DEG),S34(DB),S34(DEG),S41(DB),S41(DEG),S42(DB),S42(DEG),S43(DB),S43(DEG),S44(DB),S44(DEG)
2500000000,-16.806784,21.628452,-33.731041,7.6435113,-33.292637,20.118744,-33.858894,7.8799081,-33.753544,7.5560727,-13.400508,-175.7149,-38.833866,15.727257,-40.732212,-70.080696,-33.274937,20.092443,-38.794567,15.938108,-16.14736,24.492439,-34.645756,4.3381419,-33.9403,7.6302109,-40.873383,-71.1007,-34.706234,4.1528006,-16.557035,166.48352
2500500000,-16.796934,21.214111,-33.841297,6.3904557,-33.260403,19.449337,-33.947536,6.8132801,-33.866104,6.2815242,-13.363371,-175.83481,-38.889912,13.835465,-40.676189,-72.50956,-33.247196,19.422865,-38.849632,14.055095,-16.087883,23.990665,-34.647747,3.2868285,-34.034451,6.5631266,-40.826996,-73.525017,-34.711571,3.0748119,-16.543146,166.17654
2501000000,-16.784357,20.799355,-33.950829,5.1931629,-33.225185,18.832489,-34.041103,5.8504386,-33.978722,5.0406575,-13.325353,-175.93622,-38.966122,11.858851,-40.636986,-74.952255,-33.214542,18.803118,-38.924301,12.100747,-16.027822,23.482124,-34.658012,2.1239305,-34.129974,5.640079,-40.793274,-75.97728,-34.725571,1.8919398,-16.526978,165.86006
2501500000,-16.769932,20.391075,-34.049011,4.1234365,-33.184875,18.332472,-34.133091,5.0523944,-34.082809,3.9149518,-13.289737,-176.0546,-39.068943,9.9166508,-40.609241,-77.38932,-33.175053,18.29269,-39.026386,10.179978,-15.970628,22.960546,-34.679123,0.97344136,-34.223789,4.8685937,-40.771374,-78.387901,-34.74929,0.728733,-16.506304,165.54095
2502000000,-16.75757,19.960165,-34.135681,3.0488634,-33.128605,17.886995,-34.214283,4.2917848,-34.175575,2.8345506,-13.255837,-176.1693,-39.194775,8.0005445,-40.577221,-79.780312,-33.124096,17.835506,-39.144363,8.2806578,-15.915798,22.442253,-34.713249,-0.22642475,-34.303509,4.152904,-40.750267,-80.739227,-34.789623,-0.48288158,-16.482857,165.19994
2502500000,-16.74338,19.525238,-34.213573,2.0378864,-33.061703,17.413671,-34.288998,3.5865679,-34.263199,1.7716193,-13.221575,-176.27795,-39.330379,6.1426396,-40.538212,-82.077759,-33.063,17.356895,-39.273022,6.4539289,-15.865418,21.924778,-34.770931,-1.3959711,-34.375607,3.4852803,-40.716812,-83.004974,-34.85202,-1.6566557,-16.457815,164.8273
2503000000,-16.728088,19.082632,-34.279396,1.0570422,-32.98827,16.953983,-34.357346,2.9392264,-34.340172,0.76912022,-13.190638,-176.40671,-39.480312,4.3171964,-40.488785,-84.4496,-32.99511,16.919987,-39.420799,4.5814538,-15.817764,21.420002,-34.840656,-2.4091713,-34.438202,2.8798847,-40.669731,-85.292679,-34.927452,-2.6617324,-16.431284,164.44109
2503500000,-16.717676,18.623507,-34.326836,0.011715136,-32.903694,16.517076,-34.42054,2.3102267,-34.400517,-0.27755454,-13.160644,-176.52705,-39.623402,2.4874861,-40.416306,-86.867279,-32.913864,16.48731,-39.56514,2.7410316,-15.773737,20.935896,-34.910759,-3.2584655,-34.495117,2.2914748,-40.59288,-87.59082,-35.000408,-3.491405,-16.404003,164.03981
2504000000,-16.704971,18.172205,-34.373184,-1.0989357,-32.803967,16.081022,-34.479183,1.7086807,-34.456917,-1.3513422,-13.130843,-176.63669,-39.782455,0.56969076,-40.323563,-89.395851,-32.815063,16.079193,-39.71767,0.83041412,-15.730412,20.478559,-34.969078,-4.0356135,-34.546257,1.6959347,-40.496841,-90.055817,-35.062912,-4.2618346,-16.376087,163.59525
2504500000,-16.691904,17.735899,-34.415047,-2.2257285,-32.683643,15.562202,-34.532234,1.157515,-34.50502,-2.4421802,-13.103406,-176.75732,-39.964306,-1.4665622,-40.213509,-92.131516,-32.696659,15.57811,-39.892143,-1.2268509,-15.686455,20.048676,-35.017536,-4.7409344,-34.595356,1.1386569,-40.37339,-92.794777,-35.115204,-4.9297943,-16.34461,163.14211
2505000000,-16.674507,17.308094,-34.446938,-3.4775043,-32.552395,14.948258,-34.577717,0.68961102,-34.545406,-3.6214752,-13.078438,-176.87878,-40.177547,-3.4955785,-40.090374,-95.191025,-32.566372,14.990691,-40.098053,-3.2965348,-15.642249,19.622311,-35.05608,-5.3606248,-34.635666,0.6534304,-40.240139,-95.890961,-35.156021,-5.5408225,-16.314459,162.63876
2505500000,-16.654577,16.866135,-34.49086,-4.736619,-32.410892,14.187333,-34.612736,0.25117892,-34.588223,-4.8297887,-13.052958,-176.97972,-40.425804,-5.5495534,-39.988182,-98.676964,-32.423264,14.230738,-40.345665,-5.4152021,-15.596287,19.206949,-35.071358,-5.9728127,-34.669785,0.1689755,-40.127693,-99.357117,-35.174294,-6.1051607,-16.283674,162.10605
2506000000,-16.634195,16.416197,-34.533237,-6.0694003,-32.27121,13.28361,-34.641499,-0.17039415,-34.628693,-6.1265421,-13.028542,-177.08037,-40.70916,-7.5986762,-39.913994,-102.41916,-32.280918,13.347578,-40.622772,-7.533535,-15.549652,18.802402,-35.075127,-6.5967073,-34.696255,-0.3018454,-40.045898,-103.12214,-35.17807,-6.6945419,-16.253082,161.5271
2506500000,-16.613298,15.958221,-34.586582,-7.4943476,-32.14122,12.259181,-34.655025,-0.5220871,-34.68148,-7.5384302,-13.004703,-177.18735,-41.037308,-9.6949749,-39.882156,-106.39815,-32.14817,12.324402,-40.960388,-9.6700811,-15.502531,18.402615,-35.07045,-7.2601624,-34.710136,-0.68750495,-40.006107,-107.15138,-35.170639,-7.3358574,-16.224497,160.9095
2507000000,-16.596651,15.495268,-34.658794,-8.9302826,-32.014709,11.115971,-34.645325,-0.87940854,-34.754169,-8.9411945,-12.979126,-177.27063,-41.430302,-11.606,-39.893806,-110.57625,-32.019836,11.193244,-41.355728,-11.696246,-15.453954,18.016436,-35.055794,-7.9786649,-34.701939,-1.0804601,-40.016296,-111.35268,-35.153595,-8.0277128,-16.201834,160.25014
2507500000,-16.575731,15.05465,-34.742741,-10.313734,-31.904402,9.8739338,-34.618122,-1.3471977,-34.838135,-10.312927,-12.954797,-177.36467,-41.879375,-13.255424,-39.955463,-114.86942,-31.906094,9.961441,-41.814426,-13.394163,-15.403015,17.642109,-35.038662,-8.7374935,-34.678288,-1.5794837,-40.079235,-115.65993,-35.131134,-8.7952738,-16.183926,159.56833
2508000000,-16.558969,14.598804,-34.832623,-11.657242,-31.806774,8.5824814,-34.593758,-1.9442356,-34.927731,-11.642951,-12.927958,-177.44914,-42.375629,-14.518216,-40.061783,-119.20148,-31.809235,8.6703587,-42.336292,-14.76204,-15.352001,17.273308,-35.021446,-9.5630503,-34.65485,-2.1714149,-40.182728,-119.97416,-35.10791,-9.6095362,-16.172125,158.87541
2508500000,-16.543324,14.143674,-34.931,-12.9378,-31.727781,7.2423811,-34.573151,-2.5725431,-35.023586,-12.909713,-12.899826,-177.524,-42.918423,-15.323149,-40.214596,-123.51732,-31.7274,7.3560123,-42.893879,-15.581656,-15.296173,16.918633,-35.007553,-10.399942,-34.636032,-2.8109798,-40.333107,-124.32178,-35.09219,-10.474345,-16.165384,158.17343
2509000000,-16.533907,13.669935,-35.031532,-14.209707,-31.659033,5.9399357,-34.554485,-3.1931159,-35.120914,-14.157334,-12.873671,-177.62198,-43.488075,-15.51067,-40.406864,-127.78684,-31.65807,6.0480132,-43.477383,-15.792398,-15.238445,16.563488,-34.996555,-11.236322,-34.620693,-3.4255896,-40.519161,-128.60231,-35.079163,-11.310159,-16.161486,157.48378
2509500000,-16.527105,13.206982,-35.131119,-15.428547,-31.597256,4.6125727,-34.536797,-3.78266,-35.223614,-15.343704,-12.844442,-177.72241,-44.058624,-15.08901,-40.629478,-131.95105,-31.595921,4.7529597,-44.08292,-15.20959,-15.176818,16.205103,-34.98135,-12.00461,-34.600754,-4.0173063,-40.737274,-132.78458,-35.063511,-12.112883,-16.161074,156.797
2510000000,-16.528847,12.738029,-35.239349,-16.65082,-31.541061,3.2670684,-34.511002,-4.3246531,-35.328629,-16.510937,-12.814927,-177.81845,-44.601959,-13.979647,-40.881248,-136.02507,-31.536339,3.437372,-44.649441,-13.930508,-15.11181,15.839437,-34.956505,-12.795941,-34.576023,-4.5863914,-40.981014,-136.92213,-35.039425,-12.889767,-16.164843,156.10124
2510500000,-16.541166,12.261967,-35.355915,-17.783924,-31.499367,1.9103746,-34.471489,-4.8649988,-35.44199,-17.632811,-12.786895,-177.93239,-45.11673,-12.103151,-41.156097,-140.02628,-31.487526,2.0925806,-45.18121,-11.860315,-15.046906,15.444475,-34.91608,-13.55065,-34.540268,-5.1438532,-41.242786,-140.99542,-35.003803,-13.679197,-16.169685,155.44055
2511000000,-16.558599,11.827423,-35.480957,-18.808451,-31.467365,0.54619777,-34.420532,-5.4396749,-35.561398,-18.635695,-12.759511,-178.04138,-45.534134,-9.4835815,-41.453712,-144.00703,-31.453058,0.74650323,-45.602497,-8.9341192,-14.9802,15.029072,-34.865356,-14.375045,-34.491726,-5.7126946,-41.532909,-145.08904,-34.956276,-14.494609,-16.178579,154.7775
2511500000,-16.57901,11.424629,-35.595684,-19.657055,-31.449282,-0.77313596,-34.357685,-6.0371332,-35.674927,-19.483898,-12.732598,-178.13261,-45.805798,-6.4544368,-41.785542,-147.98119,-31.429893,-0.57165307,-45.844059,-5.6050887,-14.914083,14.591811,-34.805649,-15.29945,-34.434795,-6.3093758,-41.860058,-149.15512,-34.898701,-15.422485,-16.191677,154.13434
2512000000,-16.602972,11.053858,-35.693069,-20.471132,-31.435915,-2.0502782,-34.282963,-6.6944089,-35.774509,-20.283348,-12.704912,-178.23436,-45.937737,-3.4541941,-42.150414,-151.83025,-31.410929,-1.8403499,-45.943104,-2.4081385,-14.853274,14.124961,-34.752045,-16.33161,-34.363934,-6.9583426,-42.225533,-153.07474,-34.846455,-16.434486,-16.207449,153.51683
2512500000,-16.625494,10.707732,-35.774769,-21.278328,-31.435066,-3.2703073,-34.200184,-7.4077721,-35.855762,-21.076912,-12.677353,-178.33051,-45.947834,-0.40921518,-42.539608,-155.52127,-31.40237,-3.0703647,-45.903194,0.70520866,-14.793857,13.658928,-34.700813,-17.351315,-34.285526,-7.6491313,-42.614525,-156.89006,-34.793312,-17.452415,-16.222954,152.93501
2513000000,-16.647203,10.373181,-35.844852,-22.078548,-31.428957,-4.4177289,-34.102585,-8.2103024,-35.93063,-21.880812,-12.648433,-178.41833,-45.792061,2.2067218,-42.949738,-159.02692,-31.393719,-4.2345605,-45.706684,3.2717338,-14.737374,13.184729,-34.643147,-18.407385,-34.190456,-8.4135847,-43.028008,-160.53899,-34.736427,-18.525604,-16.23975,152.37201
2513500000,-16.669878,10.048208,-35.901733,-22.927988,-31.416985,-5.5294404,-33.996902,-9.1553907,-35.994003,-22.685898,-12.619263,-178.51237,-45.519379,3.8983092,-43.373299,-162.26523,-31.378082,-5.373723,-45.402344,4.8787131,-14.68416,12.701208,-34.584835,-19.542887,-34.084999,-9.3298254,-43.463852,-163.92281,-34.679054,-19.644361,-16.255692,151.83197
2514000000,-16.69742,9.7154427,-35.951138,-23.800575,-31.39735,-6.6768389,-33.896156,-10.293865,-36.04845,-23.521919,-12.589118,-178.61142,-45.219849,4.5316486,-43.77108,-165.34236,-31.359182,-6.5428596,-45.079334,5.3389659,-14.632444,12.220106,-34.525063,-20.739679,-33.983845,-10.419575,-43.866562,-167.04613,-34.617867,-20.802828,-16.271688,151.29776
2514500000,-16.725012,9.4096928,-35.99445,-24.752439,-31.384649,-7.8874445,-33.80497,-11.534866,-36.093239,-24.414743,-12.558825,-178.72182,-44.958935,4.2191219,-44.158699,-168.33116,-31.345482,-7.7749982,-44.803898,4.8562937,-14.583993,11.737573,-34.464306,-21.977196,-33.891506,-11.638074,-44.266811,-170.15695,-34.555485,-22.055258,-16.286556,150.79585
2515000000,-16.755495,9.1200733,-36.045944,-25.789577,-31.380037,-9.0974436,-33.729576,-12.868736,-36.142498,-25.370728,-12.529301,-178.83406,-44.769997,3.2406116,-44.532719,-171.31552,-31.342146,-9.0068188,-44.605274,3.7573669,-14.537195,11.262466,-34.408314,-23.328722,-33.813805,-12.952356,-44.649719,-173.21477,-34.499317,-23.398031,-16.299191,150.31161
2515500000,-16.794653,8.8501186,-36.091969,-26.864946,-31.385815,-10.321964,-33.667637,-14.224312,-36.188046,-26.399902,-12.500306,-178.95218,-44.640503,1.8901995,-44.885952,-174.47409,-31.349936,-10.22068,-44.487259,2.2919908,-14.491378,10.79562,-34.357391,-24.681696,-33.748325,-14.292751,-45.016201,-176.36385,-34.445671,-24.790575,-16.30913,149.84883
2516000000,-16.841696,8.6184149,-36.149124,-28.095299,-31.400084,-11.483776,-33.619118,-15.600637,-36.240227,-27.550692,-12.469684,-179.05981,-44.595287,0.19109017,-45.250298,-177.99086,-31.365471,-11.390739,-44.443638,0.53841573,-14.445513,10.331272,-34.307652,-26.13447,-33.693409,-15.661153,-45.383442,-179.87747,-34.393005,-26.237444,-16.317921,149.36971
2516500000,-16.896029,8.472002,-36.234333,-29.360466,-31.419252,-12.566784,-33.575832,-16.972361,-36.317558,-28.755445,-12.439754,-179.17955,-44.651466,-1.6332859,-45.664684,178.44038,-31.384552,-12.479342,-44.493767,-1.4113108,-14.401631,9.8576279,-34.268089,-27.671749,-33.64957,-17.037632,-45.800064,176.52872,-34.352467,-27.794527,-16.323198,148.93697
2517000000,-16.9526,8.4055395,-36.339474,-30.474829,-31.432442,-13.640754,-33.538612,-18.312037,-36.416233,-29.808189,-12.411556,-179.31729,-44.75378,-3.479017,-46.100178,175.06261,-31.398293,-13.55361,-44.613388,-3.290174,-14.360092,9.388052,-34.243546,-29.260927,-33.61142,-18.391413,-46.230431,173.09309,-34.326466,-29.397696,-16.326841,148.49858
2517500000,-17.015125,8.432045,-36.454586,-31.537556,-31.454607,-14.598741,-33.500744,-19.726902,-36.52103,-30.825857,-12.381815,-179.43976,-44.984043,-5.2109871,-46.560139,171.6796,-31.41942,-14.518568,-44.851738,-5.0815954,-14.320938,8.9385996,-34.231064,-30.87151,-33.570854,-19.789417,-46.681141,169.6698,-34.314125,-31.05768,-16.327047,148.05788
2518000000,-17.072506,8.5669346,-36.571465,-32.444721,-31.460846,-15.532067,-33.46962,-21.167765,-36.622517,-31.676714,-12.352761,-179.57748,-45.276844,-6.5258641,-47.005119,168.45642,-31.425068,-15.441246,-45.153534,-6.4020429,-14.283612,8.5058537,-34.231358,-32.490089,-33.53949,-21.231834,-47.118149,166.35136,-34.317657,-32.699703,-16.324089,147.62746
2518500000,-17.123732,8.802392,-36.676533,-33.275974,-31.457888,-16.47508,-33.452656,-22.629654,-36.715763,-32.519844,-12.324011,-179.72078,-45.599213,-7.4336047,-47.436169,165.03885,-31.421337,-16.390095,-45.485023,-7.3179269,-14.247169,8.094593,-34.243935,-34.071774,-33.519463,-22.697985,-47.539154,162.8718,-34.332096,-34.29567,-16.316465,147.17014
2519000000,-17.1656,9.1161022,-36.780361,-34.041859,-31.450689,-17.462326,-33.442497,-24.074495,-36.801834,-33.305866,-12.294419,-179.86104,-45.961872,-8.1892414,-47.887264,161.43872,-31.413519,-17.389086,-45.843906,-8.0057354,-14.210548,7.7016897,-34.261997,-35.626469,-33.51038,-24.140882,-47.97617,159.19487,-34.35614,-35.868904,-16.304937,146.69702
2519500000,-17.191603,9.4847326,-36.872028,-34.776669,-31.441954,-18.48522,-33.436302,-25.458126,-36.883663,-34.072315,-12.265936,179.98695,-46.386185,-8.4890003,-48.358673,157.7153,-31.405107,-18.412167,-46.259937,-8.2555771,-14.171295,7.3271008,-34.286343,-37.173088,-33.50256,-25.54422,-48.436867,155.33208,-34.382847,-37.407177,-16.290138,146.20631
2520000000,-17.205677,9.8782501,-36.961823,-35.540318,-31.43639,-19.535723,-33.424091,-26.834698,-36.967827,-34.844166,-12.239649,179.82448,-46.810307,-8.1633987,-48.882706,153.84546,-31.404079,-19.46582,-46.676235,-7.9945598,-14.131756,6.9676309,-34.314228,-38.729099,-33.488823,-26.942873,-48.942234,151.34123,-34.415161,-38.969189,-16.275015,145.68427
2520500000,-17.205826,10.28301,-37.057533,-36.250797,-31.433559,-20.564579,-33.408417,-28.275904,-37.055878,-35.592884,-12.21174,179.674,-47.210655,-7.3792324,-49.434196,150.19044,-31.404749,-20.492785,-47.088127,-7.3221216,-14.089776,6.6085896,-34.3559,-40.265831,-33.473877,-28.384354,-49.493423,147.60736,-34.461594,-40.49633,-16.25913,145.13811
2521000000,-17.195366,10.680615,-37.145569,-36.897106,-31.430326,-21.589439,-33.400776,-29.770527,-37.142567,-36.276443,-12.187633,179.49561,-47.597687,-6.3296776,-50.020821,146.62523,-31.40556,-21.501579,-47.504929,-6.1870904,-14.045148,6.2461658,-34.405819,-41.715378,-33.467667,-29.902884,-50.051373,144.03036,-34.512806,-41.952583,-16.243923,144.56999
2521500000,-17.170366,11.069341,-37.237072,-37.510033,-31.420628,-22.59911,-33.39772,-31.307203,-37.230957,-36.902756,-12.162065,179.32034,-47.999859,-4.9802408,-50.610985,143.4184,-31.398254,-22.503784,-47.905144,-4.8174691,-14.00042,5.8655372,-34.448338,-43.152107,-33.467888,-31.423058,-50.620682,140.75313,-34.558582,-43.369732,-16.230764,143.97119
2522000000,-17.13438,11.436169,-37.324223,-37.958118,-31.408712,-23.650206,-33.398155,-32.862797,-37.317879,-37.367023,-12.13669,179.13667,-48.396416,-2.9618776,-51.156677,140.49614,-31.386705,-23.529541,-48.307781,-2.7097721,-13.955034,5.4773269,-34.495102,-44.578934,-33.471169,-32.979271,-51.165127,137.77411,-34.607784,-44.80891,-16.221422,143.34471
2522500000,-17.087107,11.78028,-37.378494,-38.316612,-31.394468,-24.736069,-33.405903,-34.481133,-37.37001,-37.716877,-12.113578,178.94189,-48.69804,-0.47535855,-51.628857,137.93005,-31.372753,-24.577995,-48.604824,-0.1306532,-13.912198,5.0777326,-34.543156,-46.029755,-33.477886,-34.593533,-51.640434,134.99756,-34.659336,-46.22998,-16.215771,142.70514
2523000000,-17.026546,12.090579,-37.404736,-38.797832,-31.37611,-25.833256,-33.427814,-36.176762,-37.393139,-38.183266,-12.092598,178.73671,-48.957191,2.2325594,-51.991528,135.09698,-31.353514,-25.652935,-48.843803,2.7991238,-13.869946,4.6796384,-34.597118,-47.497917,-33.499245,-36.272385,-51.994785,132.14114,-34.717876,-47.667801,-16.213646,142.05891
2523500000,-16.956017,12.363598,-37.433193,-39.358208,-31.35709,-27.00338,-33.465836,-37.898006,-37.410305,-38.721157,-12.072271,178.54465,-49.149525,5.3078723,-52.295094,131.79733,-31.332083,-26.801872,-49.008728,5.932868,-13.828365,4.2861843,-34.665066,-48.943478,-33.536839,-37.999611,-52.274433,128.65938,-34.787365,-49.105156,-16.21644,141.42474
2524000000,-16.877663,12.596946,-37.453842,-39.94799,-31.340696,-28.219105,-33.524628,-39.620369,-37.422928,-39.355457,-12.055539,178.33977,-49.25238,8.5079498,-52.561653,127.96288,-31.311378,-28.002569,-49.080791,9.1153345,-13.789536,3.8903148,-34.74036,-50.348904,-33.592606,-39.722179,-52.515766,124.88136,-34.86618,-50.473087,-16.222948,140.78337
2524500000,-16.793104,12.763068,-37.465794,-40.558105,-31.323627,-29.490124,-33.599823,-41.312168,-37.429428,-39.998699,-12.038408,178.13588,-49.277607,11.645718,-52.827835,123.94508,-31.293365,-29.288395,-49.08065,12.112911,-13.748072,3.5052691,-34.822754,-51.703636,-33.66671,-41.40398,-52.766991,121.0164,-34.945881,-51.817444,-16.2337,140.16595
2525000000,-16.694786,12.876854,-37.467861,-41.240265,-31.310036,-30.843998,-33.688461,-42.96516,-37.419216,-40.741428,-12.022611,177.93074,-49.253769,14.378814,-53.0191,119.68467,-31.278311,-30.645006,-49.042038,14.629461,-13.705321,3.1237521,-34.912937,-53.006332,-33.756081,-43.093067,-52.930981,116.81607,-35.033772,-53.094677,-16.24864,139.56035
2525500000,-16.593187,12.88823,-37.474072,-42.074574,-31.299931,-32.269695,-33.799946,-44.620914,-37.422207,-41.656399,-12.00879,177.73109,-49.243874,17.342546,-53.218819,115.10911,-31.266876,-32.078453,-49.039063,17.550617,-13.660175,2.7189081,-35.008064,-54.240746,-33.869888,-44.753399,-53.068985,112.34591,-35.128479,-54.293827,-16.26598,138.97911
2526000000,-16.488525,12.79812,-37.483459,-42.896801,-31.306124,-33.799576,-33.936062,-46.155083,-37.427029,-42.551712,-11.997089,177.51961,-49.139935,20.076048,-53.40353,110.38809,-31.271902,-33.618683,-48.931202,20.1371,-13.61935,2.3008237,-35.104267,-55.364979,-34.004387,-46.306808,-53.191597,107.69302,-35.221432,-55.409424,-16.285221,138.42804
2526500000,-16.380293,12.619726,-37.489426,-43.811981,-31.3307,-35.364304,-34.091267,-47.591156,-37.435917,-43.598858,-11.987078,177.3075,-49.059738,22.616236,-53.521656,105.8063,-31.296278,-35.186295,-48.855061,22.577185,-13.580441,1.8847747,-35.194004,-56.419361,-34.161522,-47.729183,-53.272709,103.16338,-35.309093,-56.447887,-16.305908,137.88258
2527000000,-16.27401,12.333957,-37.507893,-44.823257,-31.372513,-36.931763,-34.262119,-48.815834,-37.458973,-44.688725,-11.979092,177.09427,-48.990276,25.193403,-53.548412,101.33954,-31.336077,-36.758804,-48.782623,25.140562,-13.543641,1.4724214,-35.279865,-57.445763,-34.335281,-48.977119,-53.297234,98.751068,-35.390205,-57.482079,-16.326221,137.36957
