!CSV A.01.01
!Keysight Technologies,N5222B,MY58422327,A.13.60.06
!Date: Monday, March 28, 2022 15:46:23
!Source: Standard

BEGIN CH1_DATA
Freq(Hz),S11(DB),S11(DEG),S12(DB),S12(DEG),S13(DB),S13(DEG),S14(DB),S14(DEG),S21(DB),S21(DEG),S22(DB),S22(DEG),S23(DB),S23(DEG),S24(DB),S24(DEG),S31(DB),S31(DEG),S32(DB),S32(DEG),S33(DB),S33(DEG),S34(DB),S34(DEG),S41(DB),S41(DEG),S42(DB),S42(DEG),S43(DB),S43(DEG),S44(DB),S44(DEG)
2500000000,-16.650204,21.811239,-32.284191,24.072454,-30.739464,12.558377,-32.071606,27.256689,-32.314579,24.442053,-13.065132,-174.93323,-37.076077,35.011341,-36.872868,-100.42863,-30.724182,12.072343,-37.002972,35.497101,-15.727475,28.107365,-43.611492,-53.473995,-32.12685,27.074387,-36.945694,-100.45085,-43.675594,-53.737923,-16.742102,164.90683
2500500000,-16.637472,21.393373,-32.365242,22.687069,-30.72719,11.983262,-32.144524,26.204363,-32.392635,23.049841,-13.027173,-175.1076,-37.148994,33.859081,-36.832996,-102.07301,-30.719696,11.495966,-37.072308,34.319489,-15.684794,27.539888,-43.89468,-52.937771,-32.201714,26.026562,-36.901077,-102.06617,-43.954693,-53.212845,-16.73365,164.56372
2501000000,-16.623423,20.977612,-32.459389,21.348114,-30.71162,11.405663,-32.219151,25.219381,-32.485321,21.687634,-12.987929,-175.2668,-37.235836,32.644482,-36.791191,-103.76759,-30.709929,10.917333,-37.154629,33.153587,-15.64093,26.982277,-44.098892,-52.474102,-32.275681,25.051666,-36.847797,-103.73262,-44.169674,-52.829948,-16.7236,164.20984
2501500000,-16.606758,20.572533,-32.548481,20.120783,-30.693575,10.893304,-32.294052,24.327801,-32.573879,20.443333,-12.951536,-175.43687,-37.336288,31.531586,-36.753056,-105.44659,-30.699032,10.41496,-37.250206,32.014435,-15.599005,26.439798,-44.28896,-52.154999,-32.348202,24.17852,-36.801987,-105.41856,-44.360538,-52.570831,-16.710737,163.8551
2502000000,-16.59165,20.145826,-32.634472,18.91855,-30.671801,10.396535,-32.364429,23.469961,-32.66246,19.215395,-12.916116,-175.60211,-37.440578,30.501661,-36.703152,-107.09767,-30.68174,9.9505568,-37.351135,30.961357,-15.557147,25.917564,-44.468773,-52.130306,-32.414562,23.314592,-36.75,-107.09422,-44.538944,-52.61047,-16.696527,163.48422
2502500000,-16.573217,19.719469,-32.723537,17.771683,-30.643276,9.9184914,-32.432705,22.684963,-32.750534,18.03916,-12.88031,-175.76378,-37.53706,29.526262,-36.649914,-108.72748,-30.658228,9.5002871,-37.451469,29.942785,-15.517057,25.417486,-44.677216,-52.275589,-32.479862,22.519405,-36.687222,-108.76051,-44.743828,-52.899963,-16.681843,163.09155
2503000000,-16.551825,19.291128,-32.806583,16.674826,-30.616243,9.4611378,-32.494877,21.9569,-32.830238,16.931881,-12.8472,-175.94472,-37.628963,28.585011,-36.584949,-110.43107,-30.630489,9.0783939,-37.555462,28.937397,-15.475129,24.937256,-44.922459,-52.493793,-32.540993,21.758024,-36.616074,-110.50082,-45.00444,-53.24477,-16.66576,162.6917
2503500000,-16.533121,18.835091,-32.880127,15.583572,-30.58058,9.0920153,-32.55735,21.282137,-32.900928,15.809282,-12.815115,-176.12408,-37.713142,27.5263,-36.495857,-112.1386,-30.595531,8.7305336,-37.649456,27.925859,-15.432862,24.477304,-45.23571,-52.446877,-32.60051,21.081022,-36.530472,-112.25281,-45.331219,-53.28093,-16.650183,162.27309
2504000000,-16.510801,18.372873,-32.950855,14.485901,-30.529633,8.7769585,-32.609745,20.681974,-32.970093,14.694755,-12.782527,-176.29955,-37.806976,26.463064,-36.395779,-113.95631,-30.544088,8.4405375,-37.748829,26.873787,-15.387874,24.035076,-45.568649,-52.047844,-32.654697,20.467556,-36.426601,-114.12434,-45.683376,-52.930557,-16.634483,161.81863
2504500000,-16.488344,17.900726,-33.017879,13.39042,-30.457037,8.4769936,-32.656689,20.132023,-33.03677,13.576003,-12.752589,-176.48849,-37.913132,25.258215,-36.280251,-115.9222,-30.469286,8.1366854,-37.861099,25.714041,-15.340344,23.605417,-45.927109,-51.031017,-32.698589,19.923229,-36.313908,-116.13899,-46.069199,-51.944649,-16.617104,161.3597
2505000000,-16.461456,17.42691,-33.079357,12.248461,-30.365061,8.117137,-32.687763,19.669559,-33.098507,12.399661,-12.725494,-176.68695,-38.045803,24.058483,-36.156879,-118.11371,-30.377312,7.813097,-37.992077,24.566538,-15.29107,23.166193,-46.263588,-49.475533,-32.730339,19.42474,-36.194408,-118.34791,-46.436363,-50.322418,-16.601959,160.86618
2505500000,-16.434168,16.924276,-33.141621,11.123293,-30.251854,7.6793728,-32.704105,19.18895,-33.161774,11.238895,-12.699147,-176.87393,-38.204971,22.885735,-36.037243,-120.52628,-30.261137,7.367867,-38.154438,23.478909,-15.238644,22.729847,-46.532307,-47.24424,-32.751633,18.947466,-36.081985,-120.78883,-46.730385,-47.995632,-16.586473,160.35381
2506000000,-16.407646,16.404907,-33.203995,9.9473495,-30.128172,7.107368,-32.713615,18.715364,-33.224972,10.024849,-12.675704,-177.07111,-38.382885,21.759066,-35.927467,-123.17332,-30.138834,6.796236,-38.332043,22.434898,-15.184262,22.291325,-46.705326,-44.410763,-32.760288,18.45944,-35.982529,-123.4343,-46.938042,-45.176193,-16.572325,159.80176
2506500000,-16.382336,15.870307,-33.276669,8.6788101,-29.997019,6.4152303,-32.707668,18.280817,-33.298424,8.7387419,-12.655051,-177.27124,-38.588123,20.765541,-35.837734,-126.04527,-30.009365,6.1195049,-38.535736,21.485922,-15.128859,21.842628,-46.748009,-41.398655,-32.75523,18.023842,-35.896469,-126.29751,-47.002403,-41.987118,-16.560209,159.23401
2507000000,-16.362082,15.325794,-33.360649,7.4632096,-29.863176,5.5682678,-32.682411,17.793409,-33.38768,7.4986539,-12.634831,-177.44551,-38.820374,19.961813,-35.781994,-129.09261,-29.87689,5.2974167,-38.771152,20.790798,-15.072233,21.387817,-46.677204,-38.399181,-32.729904,17.521425,-35.841457,-129.35173,-46.933048,-38.779762,-16.552185,158.63803
2507500000,-16.339802,14.802412,-33.453312,6.2553234,-29.736057,4.5799356,-32.645367,17.207529,-33.484573,6.3211322,-12.617687,-177.62019,-39.069214,19.483438,-35.759216,-132.24268,-29.747467,4.3409595,-39.01189,20.387817,-15.015257,20.930037,-46.472679,-35.758518,-32.692642,16.928398,-35.821598,-132.52144,-46.734249,-35.882092,-16.547112,158.02702
2508000000,-16.323339,14.258751,-33.553768,5.081203,-29.615747,3.5014505,-32.609612,16.551069,-33.589672,5.176146,-12.600388,-177.77243,-39.31052,19.313944,-35.774925,-135.46764,-29.625273,3.2646694,-39.2411,20.288988,-14.959214,20.47032,-46.182777,-33.632912,-32.658169,16.263956,-35.841461,-135.7442,-46.443733,-33.629639,-16.546391,157.41156
2508500000,-16.31024,13.717329,-33.660904,4.0143633,-29.505735,2.3491457,-32.574451,15.87879,-33.700108,4.1278901,-12.581861,-177.89798,-39.539509,19.43935,-35.827721,-138.66512,-29.514099,2.0979183,-39.453541,20.456488,-14.900755,20.019192,-45.861805,-32.148094,-32.623543,15.572092,-35.901939,-138.94189,-46.111217,-32.0201,-16.549465,156.78796
2509000000,-16.305704,13.157965,-33.771343,3.0036554,-29.404402,1.1203184,-32.53709,15.184964,-33.809731,3.1377833,-12.564466,-178.03532,-39.732834,19.82049,-35.915413,-141.82623,-29.413044,0.87233371,-39.63522,20.881077,-14.841556,19.564032,-45.541775,-31.136986,-32.58746,14.873355,-35.993744,-142.07561,-45.770451,-30.905039,-16.554937,156.17957
2509500000,-16.30616,12.61667,-33.882423,2.0573778,-29.315704,-0.15175256,-32.488628,14.493725,-33.921928,2.200372,-12.543324,-178.15726,-39.887829,20.354954,-36.02684,-144.87517,-29.320337,-0.41075701,-39.773357,21.436789,-14.780496,19.106342,-45.207317,-30.36853,-32.546227,14.176864,-36.108341,-145.13213,-45.422398,-30.059752,-16.563261,155.57274
2510000000,-16.316879,12.084425,-33.992966,1.2075535,-29.233461,-1.4662062,-32.432873,13.752562,-34.037296,1.3559058,-12.52005,-178.26909,-40.002956,20.960201,-36.157021,-147.82184,-29.237629,-1.7420695,-39.868298,22.047995,-14.718773,18.645542,-44.862755,-29.825268,-32.495831,13.454008,-36.243912,-148.04172,-45.068222,-29.576735,-16.574898,154.96625
2510500000,-16.338223,11.575888,-34.106762,0.43912864,-29.159914,-2.8297668,-32.372879,12.934604,-34.1469,0.64035589,-12.497207,-178.39549,-40.08289,21.617785,-36.303242,-150.69603,-29.167105,-3.0993652,-39.933624,22.660919,-14.657653,18.163935,-44.490265,-29.619864,-32.43568,12.632033,-36.389874,-150.94,-44.692181,-29.317003,-16.586266,154.3972
2511000000,-16.362589,11.114089,-34.211292,-0.19448018,-29.100695,-4.2320108,-32.311764,12.031511,-34.250309,0.041468572,-12.473225,-178.51685,-40.115166,22.297043,-36.459599,-153.48706,-29.108139,-4.4965811,-39.954391,23.232561,-14.595854,17.667299,-44.110909,-29.771156,-32.376366,11.772985,-36.54715,-153.71416,-44.310429,-29.421333,-16.600801,153.83124
2511500000,-16.388775,10.695093,-34.29422,-0.70481348,-29.052769,-5.6326199,-32.257011,11.089934,-34.329292,-0.45172668,-12.448086,-178.62733,-40.099434,22.827267,-36.630806,-156.22939,-29.061609,-5.8915105,-39.931164,23.696808,-14.536093,17.158228,-43.72768,-30.272617,-32.319874,10.832714,-36.718567,-156.46761,-43.926598,-29.972618,-16.618147,153.28455
2512000000,-16.417423,10.306261,-34.353905,-1.2182208,-29.010195,-7.0250144,-32.200352,10.127111,-34.381931,-0.93512207,-12.422323,-178.75763,-40.057228,23.151045,-36.816128,-158.90607,-29.018356,-7.2754869,-39.876186,23.892721,-14.482864,16.622221,-43.36274,-31.218462,-32.264175,9.8746405,-36.90134,-159.1245,-43.558327,-30.886007,-16.636236,152.76219
2512500000,-16.444464,9.9390707,-34.392658,-1.7800809,-28.985939,-8.445281,-32.145008,9.1553984,-34.415939,-1.496623,-12.39711,-178.8904,-39.999947,23.300655,-37.009701,-161.48859,-28.995785,-8.6852999,-39.815086,23.976753,-14.431473,16.108326,-43.018303,-32.306129,-32.207214,8.9224529,-37.099762,-161.75299,-43.208225,-31.897118,-16.651985,152.27101
2513000000,-16.470387,9.5825033,-34.424595,-2.4218667,-28.967514,-9.8126612,-32.080688,8.1469297,-34.442539,-2.1178687,-12.371273,-179.01506,-39.918148,23.22998,-37.217705,-163.99652,-28.979025,-10.051931,-39.735435,23.785801,-14.383953,15.594067,-42.687279,-33.716331,-32.14452,7.9085531,-37.310215,-164.28008,-42.871895,-33.21521,-16.668005,151.78934
2513500000,-16.498039,9.2300177,-34.445812,-3.1532953,-28.954515,-11.144743,-32.014938,7.0524225,-34.463451,-2.8322036,-12.345905,-179.14452,-39.837059,22.823942,-37.444191,-166.39465,-28.969898,-11.387044,-39.652149,23.30488,-14.339658,15.091887,-42.378296,-35.279881,-32.077118,6.8403745,-37.531891,-166.69539,-42.561234,-34.745728,-16.683762,151.32201
2514000000,-16.530689,8.8746777,-34.469227,-3.9725769,-28.946413,-12.479997,-31.950466,5.8671865,-34.480343,-3.6304634,-12.320206,-179.27521,-39.769588,22.136667,-37.666553,-168.70415,-28.961538,-12.685056,-39.58691,22.580309,-14.295353,14.611485,-42.099163,-37.048084,-32.01186,5.6725521,-37.754539,-168.98242,-42.262474,-36.508625,-16.700331,150.85869
2514500000,-16.565928,8.5524406,-34.501205,-4.8567033,-28.944378,-13.789793,-31.889286,4.609117,-34.501503,-4.5315113,-12.294662,-179.40945,-39.743183,21.244272,-37.900406,-170.95941,-28.95801,-13.960525,-39.560379,21.642174,-14.252069,14.13721,-41.836185,-38.964081,-31.9524,4.4181786,-37.98753,-171.24457,-41.9944,-38.408379,-16.71504,150.42888
2515000000,-16.605831,8.2625093,-34.545731,-5.7213936,-28.947742,-15.077689,-31.837503,3.2999697,-34.539124,-5.4159303,-12.269529,-179.54198,-39.757271,20.326056,-38.146965,-173.10307,-28.959574,-15.219195,-39.571869,20.692066,-14.208802,13.668839,-41.607452,-41.050247,-31.901249,3.1070566,-38.238327,-173.40712,-41.754974,-40.516548,-16.726641,150.01512
2515500000,-16.653378,8.0160866,-34.590038,-6.5824909,-28.954521,-16.343859,-31.793547,1.9256771,-34.573524,-6.2953057,-12.24439,-179.67856,-39.789143,19.436611,-38.39677,-175.14218,-28.963686,-16.453737,-39.605732,19.755655,-14.165622,13.217312,-41.407993,-43.11549,-31.858801,1.7645079,-38.491493,-175.48622,-41.553776,-42.61512,-16.735081,149.62039
2516000000,-16.706482,7.8282318,-34.637562,-7.4770293,-28.968054,-17.57065,-31.757986,0.50753289,-34.617027,-7.2429419,-12.217577,-179.8035,-39.841797,18.557072,-38.656479,-177.14746,-28.972738,-17.65123,-39.66526,18.831833,-14.121532,12.765655,-41.226269,-45.271664,-31.82107,0.37427628,-38.74744,-177.48996,-41.353374,-44.78754,-16.741241,149.20377
2516500000,-16.762383,7.7337508,-34.700039,-8.3467188,-28.984106,-18.729851,-31.737844,-0.93329585,-34.674763,-8.1724348,-12.190339,-179.93678,-39.922279,17.67658,-38.92675,-178.99649,-28.983223,-18.808266,-39.748531,17.923544,-14.077858,12.310312,-41.053463,-47.597336,-31.797438,-1.0639353,-39.030308,-179.33257,-41.173195,-47.128094,-16.743273,148.82288
2517000000,-16.816874,7.7210031,-34.766151,-9.0472412,-28.99712,-19.856354,-31.726377,-2.380739,-34.746197,-8.9492197,-12.164264,179.91399,-40.027187,16.879639,-39.209244,179.43599,-28.990772,-19.940641,-39.853424,17.05121,-14.035874,11.864092,-40.921741,-49.994755,-31.78495,-2.5000718,-39.312515,179.09,-41.031197,-49.609863,-16.743536,148.42712
2517500000,-16.873285,7.7860441,-34.829102,-9.7302103,-29.011047,-20.907549,-31.727564,-3.8427141,-34.811092,-9.6606426,-12.135849,179.7731,-40.177925,16.258759,-39.467857,177.99724,-29.002094,-20.999161,-40.008907,16.392441,-13.994301,11.439261,-40.823704,-52.382469,-31.78286,-3.9445188,-39.576046,177.69049,-40.929832,-52.066029,-16.742064,148.01886
2518000000,-16.922775,7.9482398,-34.880573,-10.327308,-29.011372,-21.923023,-31.738148,-5.2737389,-34.865036,-10.28263,-12.10751,179.61266,-40.337444,15.924535,-39.719219,176.73419,-28.998442,-22.039585,-40.174164,16.052547,-13.953183,11.033422,-40.741413,-54.648067,-31.793152,-5.3810163,-39.825466,176.43379,-40.848312,-54.397602,-16.737337,147.61336
2518500000,-16.964409,8.1900129,-34.922604,-10.904354,-28.997948,-22.956863,-31.76231,-6.6762166,-34.911922,-10.877426,-12.080102,179.44748,-40.485172,15.875544,-39.944122,175.5231,-28.984348,-23.110907,-40.326233,15.980066,-13.910583,10.645564,-40.668484,-56.924702,-31.816357,-6.7685146,-40.058792,175.20366,-40.774567,-56.676678,-16.730541,147.17517
2519000000,-16.994366,8.4817104,-34.957298,-11.465323,-28.98074,-24.069832,-31.795898,-8.0035467,-34.9491,-11.449301,-12.051888,179.28354,-40.629463,15.891269,-40.147038,174.28795,-28.969139,-24.244892,-40.475052,16.041777,-13.865697,10.269096,-40.595783,-59.255165,-31.845598,-8.1010809,-40.268726,173.99954,-40.702915,-59.038578,-16.72168,146.71831
2519500000,-17.009907,8.8055573,-34.981926,-12.049261,-28.963797,-25.229307,-31.82827,-9.2520561,-34.979206,-12.009584,-12.024792,179.11017,-40.771191,16.24889,-40.347061,173.1132,-28.953621,-25.436518,-40.619896,16.369755,-13.817242,9.899972,-40.540516,-61.610062,-31.877058,-9.3503571,-40.474998,172.80051,-40.648712,-61.429398,-16.710888,146.25438
2520000000,-17.015541,9.1284618,-35.000427,-12.638922,-28.950647,-26.441967,-31.855095,-10.480237,-35.000809,-12.589128,-11.998994,178.92358,-40.884304,16.807636,-40.547138,171.91563,-28.945225,-26.660303,-40.736607,16.88921,-13.767338,9.5310707,-40.501289,-63.974129,-31.902706,-10.563394,-40.682026,171.61159,-40.614227,-63.871914,-16.701319,145.7612
2520500000,-17.009325,9.453229,-35.022469,-13.20594,-28.941885,-27.65222,-31.877588,-11.697305,-35.02195,-13.163141,-11.971486,178.74486,-40.959869,17.507973,-40.738853,170.84854,-28.939013,-27.897467,-40.813736,17.569448,-13.715114,9.1531763,-40.48122,-66.392769,-31.92313,-11.795082,-40.880222,170.61121,-40.601177,-66.328903,-16.691675,145.25218
2521000000,-16.996206,9.7588587,-35.035992,-13.768179,-28.934959,-28.890207,-31.904472,-12.929161,-35.034988,-13.713903,-11.947483,178.53622,-40.991474,18.261086,-40.912334,169.91379,-28.936867,-29.155325,-40.849232,18.331734,-13.660987,8.7617979,-40.47673,-68.802483,-31.950312,-13.060614,-41.059029,169.67838,-40.607067,-68.75708,-16.683512,144.73148
2521500000,-16.970425,10.054528,-35.041073,-14.300062,-28.926357,-30.127621,-31.930279,-14.159411,-35.038151,-14.268379,-11.922708,178.32516,-40.996956,18.955975,-41.062149,169.02396,-28.93458,-30.39204,-40.853508,19.017698,-13.606102,8.3459072,-40.474041,-71.16433,-31.979233,-14.317489,-41.204849,168.82599,-40.613495,-71.109047,-16.678856,144.19626
2522000000,-16.936357,10.331304,-35.037155,-14.804787,-28.919315,-31.415117,-31.963223,-15.427665,-35.034908,-14.807683,-11.897923,178.09985,-40.970833,19.660332,-41.175743,168.10263,-28.931063,-31.665602,-40.83173,19.730528,-13.551569,7.9152784,-40.488598,-73.6502,-32.016922,-15.593801,-41.321346,167.91006,-40.634808,-73.639046,-16.677965,143.6465
2522500000,-16.894255,10.589281,-35.014072,-15.349886,-28.916317,-32.733883,-32.001667,-16.703186,-35.015305,-15.359026,-11.876089,177.8586,-40.91209,20.239981,-41.260612,167.05925,-28.932827,-32.972099,-40.768497,20.314909,-13.501024,7.4650068,-40.534439,-76.146873,-32.058037,-16.857014,-41.407925,166.87773,-40.689114,-76.073547,-16.680759,143.09828
2523000000,-16.840321,10.828378,-34.977093,-15.999752,-28.912424,-34.061909,-32.04961,-17.975744,-34.985756,-16.036352,-11.856838,177.60233,-40.837296,20.581835,-41.331665,165.7869,-28.932796,-34.284092,-40.694004,20.701046,-13.450429,7.013329,-40.602337,-78.612267,-32.107948,-18.1341,-41.474487,165.63062,-40.75312,-78.523041,-16.685246,142.56247
2523500000,-16.776281,11.037169,-34.946236,-16.734976,-28.911398,-35.460186,-32.110233,-19.270617,-34.957069,-16.77652,-11.839352,177.35484,-40.767185,20.872692,-41.405796,164.32199,-28.935278,-35.662868,-40.612095,20.95929,-13.40255,6.5578675,-40.701454,-81.112495,-32.172451,-19.376673,-41.547203,164.18222,-40.857357,-81.026337,-16.691389,142.05432
2524000000,-16.706394,11.204444,-34.919704,-17.507515,-28.918249,-36.904636,-32.18491,-20.478125,-34.931351,-17.534643,-11.826928,177.09573,-40.687763,21.042295,-41.489185,162.72163,-28.942528,-37.071404,-40.530354,21.096142,-13.357829,6.1002421,-40.830456,-83.456329,-32.247028,-20.579571,-41.636631,162.59103,-40.988976,-83.41304,-16.699495,141.53873
2524500000,-16.632011,11.316177,-34.882366,-18.289894,-28.932146,-38.382389,-32.271206,-21.609529,-34.902168,-18.311045,-11.814994,176.84561,-40.597446,21.138962,-41.59338,161.08096,-28.95785,-38.547367,-40.439728,21.139254,-13.312254,5.65168,-40.987881,-85.671959,-32.329163,-21.691868,-41.741486,160.95213,-41.153049,-85.652885,-16.709318,141.04852
2525000000,-16.544231,11.394656,-34.845398,-19.163519,-28.957031,-39.893711,-32.359566,-22.647877,-34.863483,-19.18,-11.804756,176.59291,-40.520874,21.01058,-41.708313,159.41997,-28.983147,-40.040646,-40.366589,20.963476,-13.266611,5.206099,-41.161095,-87.624405,-32.416645,-22.711845,-41.850307,159.26912,-41.331123,-87.607765,-16.721188,140.57196
2525500000,-16.454374,11.383984,-34.815769,-20.112936,-28.988646,-41.400826,-32.455704,-23.611216,-34.834919,-20.125227,-11.796884,176.35197,-40.45993,21.091457,-41.826302,157.69742,-29.015341,-41.530006,-40.317291,20.99222,-13.218738,4.7448859,-41.333206,-89.432449,-32.508659,-23.680574,-41.971226,157.5569,-41.510521,-89.409004,-16.733479,140.11569
2526000000,-16.361349,11.291931,-34.784119,-21.051739,-29.029976,-42.963432,-32.557434,-24.464487,-34.803062,-21.043488,-11.7914,176.09668,-40.378357,21.000551,-41.969421,156.0043,-29.05648,-43.087364,-40.23502,20.908869,-13.17721,4.267591,-41.521027,-91.088486,-32.60677,-24.552217,-42.110168,155.89775,-41.710945,-90.994003,-16.745796,139.68419
2526500000,-16.263201,11.118674,-34.752705,-22.08602,-29.083752,-44.525852,-32.662415,-25.203545,-34.772198,-22.092257,-11.788408,175.84828,-40.308868,20.777067,-42.114044,154.42146,-29.111717,-44.647156,-40.168991,20.730515,-13.13863,3.8052013,-41.702915,-92.540588,-32.710701,-25.307901,-42.24649,154.28635,-41.895023,-92.307785,-16.758507,139.24554
2527000000,-16.165243,10.855997,-34.730911,-23.205687,-29.155268,-46.070309,-32.767601,-25.773001,-34.756981,-23.214329,-11.788542,175.60274,-40.269588,20.546934,-42.25106,152.87354,-29.181427,-46.203857,-40.120834,20.540747,-13.101596,3.3549716,-41.876156,-93.815742,-32.815628,-25.878893,-42.377117,152.74466,-42.064304,-93.516243,-16.771393,138.84061
