!CSV A.01.01
!Keysight Technologies,N5222B,MY58422327,A.13.60.06
!Date: Monday, March 28, 2022 15:47:14
!Source: Standard

BEGIN CH1_DATA
Freq(Hz),S11(DB),S11(DEG),S12(DB),S12(DEG),S13(DB),S13(DEG),S14(DB),S14(DEG),S21(DB),S21(DEG),S22(DB),S22(DEG),S23(DB),S23(DEG),S24(DB),S24(DEG),S31(DB),S31(DEG),S32(DB),S32(DEG),S33(DB),S33(DEG),S34(DB),S34(DEG),S41(DB),S41(DEG),S42(DB),S42(DEG),S43(DB),S43(DEG),S44(DB),S44(DEG)
2500000000,-16.64781,22.076529,-32.22897,26.076128,-30.991646,15.464245,-32.181969,27.106913,-32.288361,25.614235,-13.067698,-175.21758,-37.148796,34.325729,-36.825405,-105.17934,-30.947639,15.744976,-37.061951,34.418285,-15.733088,28.323719,-44.176178,-48.240002,-32.240547,26.880821,-36.759621,-105.05812,-44.325939,-48.109249,-16.797939,165.13341
2500500000,-16.63862,21.656784,-32.308777,24.703993,-30.973383,14.899708,-32.255466,26.032478,-32.37569,24.271112,-13.030907,-175.39217,-37.225574,33.072712,-36.78904,-106.89825,-30.926046,15.151042,-37.139584,33.166832,-15.688767,27.741819,-44.443703,-47.660137,-32.312096,25.810326,-36.720039,-106.76826,-44.599628,-47.393463,-16.788467,164.8031
2501000000,-16.627625,21.25794,-32.400875,23.384317,-30.95026,14.340561,-32.332535,25.023596,-32.467567,22.993795,-12.993694,-175.54875,-37.320263,31.80258,-36.752911,-108.66128,-30.899302,14.578565,-37.231201,31.904942,-15.643819,27.175341,-44.662067,-47.168114,-32.389256,24.789183,-36.686398,-108.51203,-44.805523,-46.853615,-16.778021,164.4597
2501500000,-16.612747,20.873112,-32.488571,22.168402,-30.922358,13.807313,-32.407887,24.124374,-32.555305,21.812401,-12.959353,-175.71503,-37.427261,30.593992,-36.728462,-110.43304,-30.870228,14.030313,-37.338226,30.722786,-15.601233,26.620081,-44.863899,-46.773968,-32.466713,23.890215,-36.657913,-110.23959,-44.990273,-46.375778,-16.765083,164.11514
2502000000,-16.598579,20.462845,-32.571091,20.987333,-30.891567,13.272727,-32.481838,23.276949,-32.636574,20.662628,-12.926538,-175.87314,-37.542912,29.475224,-36.698578,-112.1246,-30.835999,13.497857,-37.449177,29.621824,-15.55973,26.081814,-45.056606,-46.538738,-32.54158,23.033674,-36.623871,-111.92997,-45.172794,-46.128784,-16.750835,163.7556
2502500000,-16.580822,20.060431,-32.651615,19.834404,-30.857916,12.741835,-32.552418,22.504118,-32.714779,19.542423,-12.893018,-176.02298,-37.650101,28.428675,-36.663185,-113.78478,-30.800892,12.952851,-37.552776,28.558937,-15.520312,25.566925,-45.26123,-46.399529,-32.612019,22.27487,-36.58419,-113.58389,-45.370052,-46.055626,-16.736279,163.37331
2503000000,-16.559381,19.64712,-32.725811,18.724064,-30.824396,12.238703,-32.615963,21.779968,-32.786213,18.465847,-12.862134,-176.18982,-37.759922,27.390707,-36.612953,-115.44894,-30.766603,12.427467,-37.655155,27.533543,-15.480146,25.076801,-45.502239,-46.209805,-32.679993,21.565189,-36.536041,-115.24935,-45.625988,-45.850479,-16.720083,162.98297
2503500000,-16.540758,19.211077,-32.791679,17.609175,-30.787844,11.816247,-32.678497,21.106552,-32.846699,17.347431,-12.831047,-176.35426,-37.860935,26.304993,-36.545303,-117.10184,-30.730639,11.983831,-37.750389,26.41543,-15.439174,24.612217,-45.806961,-45.567822,-32.742481,20.924356,-36.469471,-116.89269,-45.913593,-45.228374,-16.703821,162.57857
2504000000,-16.518116,18.763975,-32.855415,16.469894,-30.735184,11.455719,-32.734573,20.509563,-32.905605,16.209543,-12.799768,-176.51204,-37.966213,25.132195,-36.465527,-118.80431,-30.674625,11.626822,-37.852024,25.253675,-15.395707,24.166048,-46.080307,-44.56076,-32.800926,20.318462,-36.385597,-118.61491,-46.185768,-44.185173,-16.687504,162.13953
2504500000,-16.49507,18.311764,-32.917427,15.304757,-30.660954,11.119141,-32.780815,19.983316,-32.964783,15.038239,-12.77083,-176.6814,-38.088017,23.834888,-36.36573,-120.63107,-30.600159,11.261663,-37.972389,23.954117,-15.348289,23.738358,-46.346191,-43.02314,-32.849716,19.808939,-36.283554,-120.47984,-46.445713,-42.62669,-16.668949,161.70096
2505000000,-16.468433,17.85256,-32.977898,14.109815,-30.571436,10.722219,-32.813721,19.521793,-33.024693,13.851151,-12.743691,-176.86115,-38.238522,22.576189,-36.24992,-122.64785,-30.510546,10.857256,-38.117432,22.656195,-15.299019,23.302429,-46.569721,-40.986534,-32.884663,19.364986,-36.164795,-122.50425,-46.664291,-40.545166,-16.652317,161.22043
2505500000,-16.440851,17.37187,-33.039906,12.934377,-30.458811,10.26012,-32.836971,19.069174,-33.087006,12.66958,-12.71661,-177.03175,-38.415852,21.339245,-36.135918,-124.90944,-30.400032,10.362348,-38.292179,21.390587,-15.246644,22.863617,-46.692844,-38.576965,-32.906357,18.927599,-36.044949,-124.78513,-46.789635,-38.115334,-16.635067,160.72066
2506000000,-16.413366,16.876959,-33.101273,11.690792,-30.33853,9.6510324,-32.848003,18.625292,-33.149853,11.417113,-12.691928,-177.21056,-38.617565,20.152719,-36.021381,-127.36884,-30.282146,9.7472858,-38.487122,20.224264,-15.193069,22.426954,-46.727894,-35.970139,-32.914604,18.485529,-35.931339,-127.28915,-46.816319,-35.429321,-16.618507,160.18335
2506500000,-16.384756,16.369444,-33.174831,10.379167,-30.213852,8.9507399,-32.845322,18.21044,-33.224815,10.126102,-12.669807,-177.39731,-38.856083,19.10054,-35.926186,-130.09048,-30.157831,9.0380783,-38.713108,19.123915,-15.138757,21.976202,-46.655193,-33.396557,-32.910007,18.075022,-35.834606,-130.01727,-46.721527,-32.738079,-16.60368,159.62674
2507000000,-16.361532,15.847998,-33.264175,9.1029892,-30.080545,8.1011505,-32.822105,17.761923,-33.315372,8.8920994,-12.647694,-177.56284,-39.122181,18.26354,-35.857639,-133.00511,-30.028759,8.1894188,-38.974388,18.267206,-15.082846,21.521114,-46.489052,-30.933985,-32.885544,17.608572,-35.767998,-132.96973,-46.551727,-30.287432,-16.592419,159.03659
2507500000,-16.335217,15.340935,-33.362667,7.8891001,-29.951572,7.1139169,-32.791111,17.219801,-33.414352,7.7186465,-12.628433,-177.73343,-39.403286,17.740219,-35.826557,-136.06665,-29.903574,7.2030892,-39.24752,17.715338,-15.026046,21.070719,-46.222691,-28.833166,-32.853508,17.072111,-35.734653,-136.04095,-46.271324,-28.273607,-16.584404,158.43033
2508000000,-16.314758,14.804505,-33.469337,6.7224727,-29.830944,6.0102272,-32.759724,16.613167,-33.518192,6.5813875,-12.60911,-177.88596,-39.674789,17.532024,-35.827953,-139.18591,-29.783371,6.1127663,-39.522556,17.513788,-14.970319,20.619774,-45.897247,-27.382048,-32.821819,16.466637,-35.739437,-139.16574,-45.942814,-26.949242,-16.581142,157.81483
2508500000,-16.297119,14.26139,-33.58173,5.6709256,-29.724651,4.8249741,-32.727749,15.995624,-33.627331,5.5341048,-12.589069,-178.01672,-39.952499,17.664663,-35.867691,-142.29202,-29.675274,4.9177318,-39.786617,17.571449,-14.911159,20.175596,-45.551216,-26.390289,-32.791035,15.835042,-35.779053,-142.2952,-45.59837,-26.045975,-16.582184,157.19366
2509000000,-16.289124,13.702811,-33.696625,4.693717,-29.626923,3.5667999,-32.691639,15.37093,-33.734024,4.5629907,-12.570641,-178.15985,-40.195591,18.111059,-35.94038,-145.37828,-29.577454,3.6594272,-40.028008,17.943201,-14.851666,19.72418,-45.210125,-25.834444,-32.756733,15.221784,-35.856102,-145.40045,-45.253052,-25.600559,-16.584976,156.58351
2509500000,-16.285984,13.156074,-33.8083,3.7900887,-29.543097,2.2516956,-32.645351,14.771022,-33.838394,3.6314456,-12.549034,-178.29135,-40.403145,18.755196,-36.039291,-148.40298,-29.49087,2.3613319,-40.234589,18.485065,-14.789779,19.266336,-44.870575,-25.518324,-32.710869,14.617555,-35.957096,-148.43169,-44.925575,-25.445879,-16.590813,155.97621
2510000000,-16.294344,12.615357,-33.918793,2.9394383,-29.472847,0.92052829,-32.590111,14.128052,-33.947384,2.7660232,-12.525755,-178.41087,-40.572479,19.603241,-36.157925,-151.34137,-29.416462,1.0302765,-40.405323,19.248817,-14.727488,18.806599,-44.521355,-25.537487,-32.653751,13.962963,-36.078014,-151.35365,-44.587063,-25.450466,-16.600086,155.3654
2510500000,-16.312944,12.093774,-34.028904,2.2108316,-29.410707,-0.427066,-32.525154,13.422501,-34.052139,2.0030499,-12.503729,-178.54524,-40.698429,20.571926,-36.293262,-154.21027,-29.353615,-0.33411008,-40.533524,20.135832,-14.665421,18.327358,-44.191978,-25.782248,-32.588318,13.241393,-36.215729,-154.18132,-44.251244,-25.713482,-16.610081,154.78775
2511000000,-16.335463,11.624075,-34.131969,1.5897628,-29.36219,-1.7718478,-32.454407,12.62632,-34.150673,1.3559171,-12.480855,-178.67076,-40.759602,21.604231,-36.444408,-156.98264,-29.302946,-1.7007215,-40.604801,21.101583,-14.602027,17.83238,-43.835289,-26.26988,-32.520748,12.449267,-36.368439,-156.92809,-43.890644,-26.21623,-16.623224,154.21109
2511500000,-16.361166,11.195234,-34.21315,1.0862924,-29.321411,-3.1259987,-32.387173,11.777288,-34.23061,0.80535138,-12.456433,-178.7854,-40.771221,22.493824,-36.611595,-159.69577,-29.265081,-3.0476084,-40.617607,21.969486,-14.541546,17.320274,-43.481098,-27.123253,-32.454346,11.60274,-36.53138,-159.63077,-43.552883,-27.0851,-16.638973,153.65587
2512000000,-16.389107,10.803887,-34.270954,0.56282634,-29.282724,-4.4459853,-32.31633,10.884143,-34.289104,0.2810438,-12.431672,-178.91718,-40.745419,23.170935,-36.790688,-162.29266,-29.225845,-4.3613715,-40.598705,22.589165,-14.487737,16.782097,-43.148056,-28.350248,-32.386673,10.720504,-36.710537,-162.1944,-43.225121,-28.305035,-16.656,153.12355
2512500000,-16.414667,10.43664,-34.313065,0.0020529972,-29.258854,-5.7690315,-32.244781,9.9739294,-34.329464,-0.3193413,-12.407682,-179.04799,-40.691509,23.711727,-36.980061,-164.80545,-29.201235,-5.67944,-40.552616,23.061224,-14.435812,16.261295,-42.836349,-29.647974,-32.314869,9.8064442,-36.898254,-164.71107,-42.917759,-29.606848,-16.671848,152.61916
2513000000,-16.438847,10.079448,-34.342464,-0.61043215,-29.237261,-7.0423517,-32.161373,8.9944572,-34.362129,-0.94800925,-12.382849,-179.16922,-40.610191,23.957256,-37.181877,-167.22845,-29.179108,-6.9504704,-40.478767,23.284613,-14.387817,15.744703,-42.538399,-31.235931,-32.232716,8.8421326,-37.096745,-167.10133,-42.627674,-31.166153,-16.688721,152.12944
2513500000,-16.464525,9.7260427,-34.365925,-1.3177429,-29.216955,-8.3152828,-32.07671,7.9028072,-34.386528,-1.675319,-12.3583,-179.29549,-40.521656,23.831554,-37.388645,-169.53217,-29.16046,-8.2198935,-40.400951,23.115623,-14.342563,15.238706,-42.268326,-32.957542,-32.147636,7.7638025,-37.302059,-169.3911,-42.359924,-32.879971,-16.705444,151.65254
2514000000,-16.497065,9.3650208,-34.385567,-2.0809934,-29.196894,-9.5841188,-31.995457,6.7016945,-34.413445,-2.4696486,-12.333073,-179.41943,-40.454872,23.398756,-37.594017,-171.73402,-29.139959,-9.4632273,-40.338829,22.660887,-14.29764,14.750248,-42.020836,-34.823116,-32.065968,6.5891228,-37.502174,-171.58678,-42.107994,-34.707783,-16.723528,151.18388
2514500000,-16.531179,9.0369501,-34.413635,-2.9246683,-29.181322,-10.856632,-31.921289,5.3979354,-34.448223,-3.312387,-12.307834,-179.54684,-40.426945,22.75841,-37.802372,-173.8904,-29.124037,-10.745026,-40.323685,22.056496,-14.25457,14.266643,-41.795109,-36.822262,-31.986156,5.3006463,-37.7052,-173.76601,-41.873253,-36.677349,-16.739552,150.75459
2515000000,-16.569855,8.7445574,-34.446087,-3.7455947,-29.171055,-12.127064,-31.856802,3.9988132,-34.486561,-4.1412783,-12.282593,-179.67374,-40.43539,22.153337,-38.019493,-175.95963,-29.111832,-12.026458,-40.342445,21.447054,-14.211781,13.796609,-41.599171,-38.99836,-31.920588,3.9238179,-37.919125,-175.84755,-41.676327,-38.782562,-16.752844,150.34497
2515500000,-16.615154,8.4924793,-34.477909,-4.6120534,-29.163956,-13.419439,-31.804644,2.5674243,-34.524551,-4.9742899,-12.257472,-179.80241,-40.467281,21.58322,-38.231384,-177.96858,-29.105623,-13.300919,-40.371094,20.91337,-14.168701,13.341738,-41.432053,-41.174393,-31.864367,2.48311,-38.128086,-177.85562,-41.504349,-40.931492,-16.762754,149.95903
2516000000,-16.668102,8.2983303,-34.517548,-5.5180469,-29.16408,-14.68325,-31.764648,1.0474601,-34.566929,-5.8272076,-12.230236,-179.92215,-40.506622,20.998791,-38.449635,-179.96837,-29.106712,-14.56387,-40.421486,20.3428,-14.124153,12.892459,-41.270401,-43.353756,-31.823236,0.98045725,-38.35043,-179.87837,-41.337952,-43.113178,-16.769705,149.55231
2516500000,-16.723007,8.200717,-34.570801,-6.4093447,-29.171669,-15.916726,-31.741831,-0.47487494,-34.625492,-6.670496,-12.202663,179.94807,-40.572334,20.480852,-38.693497,178.16104,-29.113972,-15.792952,-40.490948,19.840248,-14.079523,12.441421,-41.128944,-45.676228,-31.79862,-0.54244143,-38.587513,178.23209,-41.18856,-45.412254,-16.7724,149.19054
2517000000,-16.7757,8.1908197,-34.630947,-7.139658,-29.178606,-17.124788,-31.732992,-1.9976684,-34.686241,-7.348691,-12.175586,179.79955,-40.653183,20.065298,-38.936169,176.50122,-29.119183,-17.000177,-40.569504,19.376703,-14.036854,11.992852,-41.022926,-48.060257,-31.787907,-2.0701101,-38.826748,176.54662,-41.078259,-47.895657,-16.77223,148.81113
2517500000,-16.830635,8.25776,-34.688351,-7.8196907,-29.192825,-18.263086,-31.737261,-3.5133026,-34.740753,-7.9957476,-12.146561,179.66017,-40.768356,19.799139,-39.173717,174.96092,-29.132982,-18.130596,-40.692825,19.128948,-13.993597,11.56199,-40.953075,-50.364265,-31.790314,-3.593235,-39.057816,174.98039,-41.001404,-50.272018,-16.769329,148.42111
2518000000,-16.878399,8.4114819,-34.73222,-8.4014139,-29.196634,-19.347572,-31.756006,-5.0084,-34.78083,-8.5517321,-12.11794,179.49937,-40.882092,19.839264,-39.397316,173.55635,-29.136902,-19.212694,-40.806194,19.136326,-13.951283,11.146955,-40.899254,-52.611771,-31.809622,-5.0850239,-39.276627,173.5562,-40.944767,-52.550564,-16.763605,148.02995
2518500000,-16.91783,8.6447096,-34.765491,-8.9798346,-29.18968,-20.452412,-31.788055,-6.4393225,-34.809486,-9.1155682,-12.089824,179.32988,-40.971119,20.040773,-39.601543,172.23085,-29.12993,-20.31358,-40.903965,19.331547,-13.907938,10.747611,-40.84568,-54.730305,-31.84247,-6.509778,-39.478191,172.18591,-40.890266,-54.702267,-16.75461,147.6088
2519000000,-16.946756,8.9226761,-34.78273,-9.5539598,-29.180557,-21.603039,-31.831367,-7.7816396,-34.824791,-9.6906023,-12.061506,179.16144,-41.060299,20.334438,-39.794464,170.95393,-29.119492,-21.465231,-40.994663,19.591461,-13.862728,10.36165,-40.794205,-56.861477,-31.88336,-7.8462019,-39.663116,170.81387,-40.842464,-56.884491,-16.743408,147.16837
2519500000,-16.961182,9.2398291,-34.789391,-10.192393,-29.169815,-22.805004,-31.87446,-9.0227737,-34.833996,-10.320947,-12.03416,178.9801,-41.136574,20.827108,-39.972088,169.67216,-29.109102,-22.670301,-41.079681,20.072611,-13.814433,9.9797745,-40.741364,-59.039219,-31.926485,-9.078248,-39.843468,169.45059,-40.793938,-59.085022,-16.730259,146.71454
2520000000,-16.966093,9.5554647,-34.797192,-10.856974,-29.165699,-24.047953,-31.914455,-10.190434,-34.84129,-11.011217,-12.008816,178.78636,-41.177158,21.422518,-40.147461,168.35966,-29.10512,-23.908936,-41.129093,20.677986,-13.765329,9.6023626,-40.69743,-61.242065,-31.963728,-10.243631,-40.022118,168.12389,-40.751141,-61.360363,-16.717518,146.23428
2520500000,-16.959196,9.8680897,-34.80381,-11.533557,-29.16498,-25.300709,-31.947845,-11.34802,-34.850071,-11.707509,-11.98249,178.6008,-41.182407,22.112797,-40.314247,167.13939,-29.103981,-25.147552,-41.14806,21.361994,-13.71423,9.2194633,-40.672493,-63.583496,-31.996031,-11.391816,-40.195217,166.88689,-40.729404,-63.674015,-16.704807,145.73141
2521000000,-16.945068,10.16815,-34.809097,-12.238325,-29.170788,-26.558868,-31.980249,-12.485205,-34.858925,-12.391188,-11.959889,178.38971,-41.159195,22.826864,-40.468899,165.93765,-29.106953,-26.395784,-41.127518,22.057367,-13.660791,8.8283281,-40.663677,-65.901436,-32.030094,-12.531173,-40.352848,165.69099,-40.718876,-66.010773,-16.692915,145.21301
2521500000,-16.919592,10.458596,-34.813477,-12.943863,-29.175573,-27.796602,-32.010719,-13.608205,-34.863419,-13.061697,-11.936439,178.17621,-41.095837,23.370773,-40.609348,164.79208,-29.109909,-27.637245,-41.075497,22.707838,-13.606379,8.4117823,-40.649696,-68.243767,-32.057274,-13.661903,-40.495747,164.53577,-40.717995,-68.357559,-16.685112,144.67482
2522000000,-16.885639,10.731433,-34.812248,-13.622056,-29.179733,-29.071793,-32.040054,-14.75283,-34.863255,-13.691245,-11.913177,177.95105,-41.023636,23.868752,-40.72327,163.59428,-29.111649,-28.911594,-41.001225,23.257498,-13.552275,7.9806876,-40.662636,-70.730934,-32.084358,-14.831997,-40.614731,163.36021,-40.730194,-70.880859,-16.680614,144.11932
2522500000,-16.842628,10.990811,-34.796059,-14.310225,-29.18796,-30.365597,-32.071629,-15.916979,-34.846371,-14.343062,-11.892697,177.71097,-40.91674,24.179905,-40.823669,162.32765,-29.116899,-30.196075,-40.895794,23.579617,-13.501446,7.5335221,-40.711891,-73.194916,-32.114956,-16.009705,-40.716114,162.10632,-40.777561,-73.340584,-16.680031,143.56444
2523000000,-16.788006,11.223503,-34.777908,-15.099496,-29.194424,-31.650866,-32.108974,-17.097898,-34.822498,-15.107717,-11.874961,177.46204,-40.81266,24.201712,-40.910286,160.90518,-29.122007,-31.507437,-40.793968,23.693247,-13.450151,7.0823946,-40.7785,-75.630478,-32.149872,-17.222589,-40.802898,160.68819,-40.848824,-75.810295,-16.681974,143.01923
2523500000,-16.724388,11.423572,-34.761784,-15.930976,-29.201838,-33.009842,-32.15807,-18.286234,-34.806698,-15.935959,-11.858152,177.22118,-40.719677,24.178541,-40.999611,159.32265,-29.129246,-32.869404,-40.700489,23.698725,-13.400977,6.6219435,-40.873924,-78.041946,-32.199024,-18.427666,-40.895191,159.16069,-40.947033,-78.244507,-16.686399,142.50114
2524000000,-16.654018,11.58604,-34.752541,-16.759373,-29.215584,-34.398655,-32.217598,-19.417845,-34.792618,-16.789465,-11.846107,176.96744,-40.637718,24.080294,-41.104084,157.61794,-29.142382,-34.274883,-40.612415,23.593401,-13.355198,6.158196,-41.004253,-80.380356,-32.259071,-19.602949,-40.995232,157.47499,-41.077892,-80.530861,-16.691687,141.97322
2524500000,-16.579655,11.696464,-34.740864,-17.61754,-29.233923,-35.829472,-32.281387,-20.490288,-34.779537,-17.611893,-11.834702,176.72238,-40.554188,23.899067,-41.228752,155.91049,-29.161123,-35.711716,-40.531197,23.469501,-13.308511,5.6971064,-41.151779,-82.489075,-32.326008,-20.689135,-41.103447,155.7653,-41.22625,-82.653046,-16.700233,141.47209
2525000000,-16.492046,11.76593,-34.723778,-18.49902,-29.261002,-37.293415,-32.351616,-21.513079,-34.757618,-18.490469,-11.824963,176.47229,-40.488312,23.568796,-41.357635,154.20074,-29.188282,-37.198521,-40.460018,23.127563,-13.262621,5.237752,-41.305012,-84.401428,-32.399986,-21.725794,-41.230965,154.05096,-41.384144,-84.60479,-16.710592,140.98482
2525500000,-16.401974,11.753991,-34.714405,-19.429888,-29.295767,-38.77454,-32.427883,-22.482428,-34.7481,-19.4203,-11.817744,176.23491,-40.447151,23.471397,-41.50222,152.48567,-29.223459,-38.691265,-40.422546,23.044353,-13.215395,4.7594581,-41.452999,-86.219147,-32.479382,-22.687214,-41.362946,152.31441,-41.533577,-86.435448,-16.720953,140.5135
2526000000,-16.308344,11.656726,-34.702183,-20.321745,-29.340351,-40.32275,-32.510895,-23.356245,-34.734222,-20.311449,-11.813038,175.98546,-40.381447,23.327209,-41.662735,150.88351,-29.269646,-40.258835,-40.350777,22.907473,-13.174728,4.2708187,-41.618343,-87.939499,-32.563744,-23.551014,-41.51638,150.63075,-41.702034,-88.1633,-16.732103,140.06746
2526500000,-16.210918,11.479395,-34.684433,-21.303432,-29.40299,-41.88475,-32.599174,-24.140154,-34.714111,-21.27734,-11.810561,175.7451,-40.330383,23.120695,-41.81292,149.39236,-29.333565,-41.83395,-40.298714,22.72221,-13.136921,3.7973249,-41.777985,-89.535759,-32.652428,-24.323835,-41.665279,149.08957,-41.864491,-89.755737,-16.744055,139.61728
2527000000,-16.114332,11.213748,-34.676861,-22.348356,-29.483618,-43.437912,-32.68845,-24.73287,-34.701294,-22.321808,-11.81046,175.50558,-40.292343,22.977837,-41.952667,148.00056,-29.415653,-43.392918,-40.262413,22.569719,-13.10153,3.3366437,-41.934376,-91.011269,-32.742851,-24.930012,-41.799839,147.60606,-42.029369,-91.269302,-16.755304,139.19414
