!CSV A.01.01
!Keysight Technologies,N5222B,MY58422327,A.13.60.06
!Date: Monday, March 28, 2022 15:47:40
!Source: Standard

BEGIN CH1_DATA
Freq(Hz),S11(DB),S11(DEG),S12(DB),S12(DEG),S13(DB),S13(DEG),S14(DB),S14(DEG),S21(DB),S21(DEG),S22(DB),S22(DEG),S23(DB),S23(DEG),S24(DB),S24(DEG),S31(DB),S31(DEG),S32(DB),S32(DEG),S33(DB),S33(DEG),S34(DB),S34(DEG),S41(DB),S41(DEG),S42(DB),S42(DEG),S43(DB),S43(DEG),S44(DB),S44(DEG)
2500000000,-16.635643,22.06691,-32.295227,26.589567,-31.049061,16.348322,-32.3018,27.161915,-32.348015,26.100073,-13.061838,-174.99997,-37.784397,34.36908,-36.86322,-102.25861,-30.972643,16.621183,-37.689865,34.320751,-15.777761,28.451908,-42.995594,-51.875996,-32.377441,26.982309,-36.822121,-102.31223,-43.136913,-51.646122,-16.796818,164.8243
2500500000,-16.626339,21.643274,-32.381435,25.230085,-31.025576,15.821227,-32.377235,26.070885,-32.440212,24.748281,-13.02334,-175.17354,-37.862743,33.130688,-36.831623,-103.98025,-30.949911,16.042253,-37.767906,33.076954,-15.732833,27.877302,-43.252899,-51.583916,-32.451435,25.938828,-36.789364,-103.97545,-43.381489,-51.26873,-16.787348,164.49301
2501000000,-16.615616,21.232103,-32.478119,23.933996,-30.995657,15.263217,-32.45557,25.072992,-32.543732,23.461653,-12.984496,-175.33266,-37.95742,31.867758,-36.801258,-105.74476,-30.920841,15.463451,-37.859612,31.807306,-15.687218,27.312191,-43.454044,-51.367355,-32.528946,24.957914,-36.75803,-105.71532,-43.579754,-51.050949,-16.776985,164.14751
2501500000,-16.601402,20.8333,-32.572704,22.731625,-30.962788,14.742482,-32.531521,24.217777,-32.641468,22.264908,-12.948243,-175.50169,-38.071766,30.684172,-36.783829,-107.50056,-30.888273,14.912221,-37.968075,30.642115,-15.643219,26.754688,-43.653664,-51.175175,-32.60408,24.108442,-36.732876,-107.44535,-43.769917,-50.858326,-16.764542,163.8031
2502000000,-16.58831,20.421507,-32.659431,21.572653,-30.924816,14.21439,-32.603279,23.384775,-32.733673,21.142614,-12.9136,-175.66701,-38.186687,29.59923,-36.758121,-109.20914,-30.850166,14.369762,-38.083988,29.563477,-15.600061,26.220201,-43.835773,-51.275276,-32.675434,23.296946,-36.700321,-109.13388,-43.945183,-50.879906,-16.751339,163.44185
2502500000,-16.571575,20.013405,-32.746864,20.463259,-30.881985,13.668569,-32.672344,22.630144,-32.821354,20.057972,-12.878445,-175.8264,-38.299774,28.572618,-36.728283,-110.87635,-30.809664,13.797961,-38.191578,28.53087,-15.559328,25.706011,-44.03289,-51.347084,-32.743633,22.54921,-36.660648,-110.80883,-44.135754,-50.975986,-16.73773,163.05945
2503000000,-16.551056,19.598284,-32.826336,19.395651,-30.843103,13.160717,-32.73341,21.921465,-32.901951,19.017622,-12.846447,-176.00452,-38.409172,27.563595,-36.68906,-112.55343,-30.770874,13.250443,-38.295666,27.540913,-15.51729,25.21596,-44.25758,-51.452915,-32.802853,21.84667,-36.612362,-112.49739,-44.363422,-51.074417,-16.72266,162.67267
2503500000,-16.533176,19.157671,-32.893997,18.32583,-30.800903,12.711553,-32.792126,21.262449,-32.968987,17.975197,-12.814886,-176.1797,-38.508171,26.46751,-36.629818,-114.20538,-30.72945,12.786427,-38.39003,26.449993,-15.474091,24.74839,-44.524857,-51.220947,-32.861309,21.212706,-36.546543,-114.18534,-44.61969,-50.903824,-16.70755,162.27078
2504000000,-16.511673,18.709341,-32.958195,17.256437,-30.742563,12.3201,-32.845348,20.655584,-33.033386,16.909538,-12.783462,-176.3479,-38.61364,25.30475,-36.554691,-115.91442,-30.674164,12.380307,-38.490318,25.276112,-15.429418,24.296167,-44.793179,-50.752712,-32.914063,20.622339,-36.467381,-115.92989,-44.886005,-50.477074,-16.692415,161.83479
2504500000,-16.489231,18.25539,-33.021561,16.153416,-30.665775,11.923615,-32.892586,20.11368,-33.095356,15.827015,-12.754725,-176.52664,-38.734169,24.009203,-36.457581,-117.75917,-30.601322,11.983844,-38.606647,23.925127,-15.381283,23.856668,-45.059025,-49.875092,-32.957401,20.097593,-36.368774,-117.79881,-45.157776,-49.571415,-16.674961,161.39728
2505000000,-16.462788,17.798447,-33.079323,15.019572,-30.572363,11.509613,-32.92334,19.623098,-33.153954,14.708,-12.727757,-176.71341,-38.881794,22.703299,-36.345001,-119.76846,-30.512575,11.547213,-38.756001,22.605875,-15.331762,23.410065,-45.312565,-48.535202,-32.984543,19.598646,-36.258942,-119.86243,-45.415485,-48.289368,-16.659004,160.92357
2505500000,-16.435322,17.317303,-33.135612,13.901339,-30.461218,10.980019,-32.94672,19.135323,-33.213444,13.58903,-12.700865,-176.88896,-39.066772,21.380255,-36.232262,-122.03469,-30.403685,11.037464,-38.93837,21.300707,-15.279469,22.967587,-45.497009,-46.733845,-33.005867,19.122103,-36.150394,-122.14531,-45.605415,-46.529327,-16.64262,160.42938
2506000000,-16.407761,16.817636,-33.191257,12.697682,-30.342226,10.359199,-32.964317,18.649302,-33.26992,12.402886,-12.676071,-177.07167,-39.278133,20.164454,-36.120705,-124.54762,-30.284716,10.412894,-39.142387,20.045231,-15.226756,22.524021,-45.604317,-44.604321,-33.020756,18.634548,-36.041473,-124.65987,-45.715691,-44.302273,-16.626562,159.89853
2506500000,-16.380535,16.300831,-33.261879,11.416474,-30.217422,9.6163836,-32.968334,18.229126,-33.339165,11.154536,-12.654116,-177.26466,-39.525047,19.024084,-36.028076,-127.29245,-30.162243,9.6776495,-39.386093,18.820784,-15.172221,22.075768,-45.624954,-42.447117,-33.024731,18.211016,-35.95274,-127.41218,-45.735718,-42.101879,-16.611866,159.34756
2507000000,-16.35881,15.773308,-33.344269,10.159941,-30.089397,8.7489004,-32.953102,17.78792,-33.422096,9.9484711,-12.632008,-177.43266,-39.814838,18.137987,-35.963745,-130.27319,-30.034462,8.8177338,-39.669701,17.896652,-15.116406,21.623457,-45.562153,-40.23978,-33.007313,17.756886,-35.890182,-130.39223,-45.656582,-39.846668,-16.600157,158.76534
2507500000,-16.333996,15.261236,-33.435608,8.9724874,-29.967224,7.7580934,-32.927818,17.274979,-33.509914,8.7987175,-12.612981,-177.60654,-40.121292,17.611057,-35.938122,-133.38676,-29.910097,7.8335576,-39.976349,17.298592,-15.059548,21.170891,-45.396992,-38.239315,-32.980518,17.221996,-35.865353,-133.49086,-45.482861,-37.87545,-16.592012,158.16515
2508000000,-16.31534,14.729962,-33.536232,7.823297,-29.852219,6.6716948,-32.901154,16.702269,-33.604164,7.670661,-12.593908,-177.76181,-40.436264,17.461195,-35.951138,-136.57816,-29.795784,6.7405176,-40.292,17.086611,-15.00357,20.718042,-45.171108,-36.797047,-32.951134,16.65115,-35.880428,-136.6537,-45.239609,-36.396103,-16.587576,157.5477
2508500000,-16.298672,14.196006,-33.637856,6.7628107,-29.746914,5.4914408,-32.871262,16.120411,-33.701977,6.627902,-12.574118,-177.89644,-40.746834,17.700583,-36.002037,-139.77173,-29.688648,5.5620298,-40.600544,17.269621,-14.943926,20.269743,-44.917995,-35.789738,-32.92202,16.044497,-35.928898,-139.81282,-44.974224,-35.456989,-16.588366,156.92361
2509000000,-16.291512,13.644966,-33.7411,5.7564149,-29.653156,4.2609048,-32.8382,15.534394,-33.803478,5.6131306,-12.556014,-178.04181,-41.027439,18.351343,-36.087803,-142.90889,-29.592789,4.3159833,-40.880089,17.856352,-14.884776,19.817297,-44.662479,-35.126816,-32.891716,15.456613,-36.012321,-142.93269,-44.714443,-34.792995,-16.591396,156.30621
2509500000,-16.288439,13.104152,-33.847984,4.8010974,-29.571117,2.9878623,-32.79575,14.952557,-33.906555,4.6549411,-12.535005,-178.17537,-41.266594,19.307096,-36.20089,-145.95068,-29.508801,3.0207829,-41.119507,18.759083,-14.822994,19.357569,-44.4146,-34.720119,-32.8489,14.875493,-36.12241,-145.94295,-44.457325,-34.343525,-16.596933,155.69508
2510000000,-16.296715,12.573328,-33.956131,3.9212415,-29.497812,1.6791459,-32.741074,14.340915,-34.015274,3.7681231,-12.512031,-178.29474,-41.450356,20.481075,-36.335201,-148.89987,-29.435442,1.7110664,-41.306957,19.824642,-14.75977,18.895546,-44.148972,-34.344841,-32.793304,14.289428,-36.250542,-148.85448,-44.184414,-34.092823,-16.606833,155.07817
2510500000,-16.316027,12.056386,-34.066666,3.1389103,-29.435049,0.33675247,-32.677513,13.669296,-34.123062,2.9971247,-12.490033,-178.42848,-41.57695,21.798954,-36.484032,-151.73248,-29.372463,0.35927635,-41.443344,21.096809,-14.697819,18.414804,-43.870686,-34.123814,-32.726246,13.613878,-36.396454,-151.72469,-43.903313,-33.99128,-16.616913,154.50047
2511000000,-16.338614,11.586429,-34.16864,2.4915912,-29.383167,-0.99427259,-32.608383,12.910672,-34.220795,2.3673146,-12.46729,-178.55215,-41.625713,23.192015,-36.646107,-154.51944,-29.320742,-0.97642058,-41.50547,22.362381,-14.635286,17.916882,-43.558861,-34.144028,-32.654331,12.879859,-36.553944,-154.49251,-43.598309,-34.103428,-16.63085,153.92264
2511500000,-16.364508,11.15968,-34.25153,1.9383974,-29.342228,-2.3306799,-32.535358,12.108831,-34.297924,1.817091,-12.442725,-178.66316,-41.608673,24.353394,-36.823505,-157.26442,-29.278717,-2.3133538,-41.503326,23.530611,-14.574896,17.401241,-43.231064,-34.514442,-32.580788,12.054548,-36.725338,-157.24364,-43.280548,-34.499607,-16.647655,153.36469
2512000000,-16.393253,10.769761,-34.310932,1.4092199,-29.301147,-3.6487422,-32.462265,11.252065,-34.352795,1.2697949,-12.417494,-178.78973,-41.550213,25.12274,-37.016113,-159.89053,-29.239372,-3.6313243,-41.456516,24.378654,-14.521669,16.859819,-42.920158,-35.320911,-32.505684,11.206743,-36.912907,-159.87973,-42.983391,-35.306355,-16.666288,152.82828
2512500000,-16.420223,10.406197,-34.357304,0.83244455,-29.272919,-4.9608693,-32.385147,10.366686,-34.390129,0.65948284,-12.392392,-178.91904,-41.462761,25.755196,-37.222778,-162.43999,-29.212997,-4.9703526,-41.384003,25.06707,-14.469963,16.340372,-42.617901,-36.229404,-32.424706,10.294266,-37.115967,-162.47604,-42.682453,-36.174835,-16.683624,152.3239
2513000000,-16.446316,10.06032,-34.385113,0.18895136,-29.247421,-6.2519116,-32.297489,9.4124556,-34.420208,-0.016337153,-12.366648,-179.04083,-41.346832,26.013885,-37.440708,-164.90816,-29.191523,-6.2547441,-41.271816,25.373869,-14.4225,15.822284,-42.317284,-37.386181,-32.337257,9.3282661,-37.331947,-164.95045,-42.381481,-37.380299,-16.701878,151.83574
2513500000,-16.472343,9.7266569,-34.410858,-0.56851524,-29.223038,-7.5165925,-32.20776,8.3360968,-34.445969,-0.80900133,-12.341125,-179.16808,-41.238358,25.854628,-37.670834,-167.23807,-29.170893,-7.5193539,-41.161514,25.237417,-14.378653,15.316829,-42.044003,-38.789574,-32.244881,8.2443762,-37.562092,-167.29294,-42.103401,-38.771088,-16.720112,151.36505
2514000000,-16.503279,9.3855238,-34.437283,-1.37928,-29.200361,-8.7940769,-32.119328,7.1417022,-34.473907,-1.6369896,-12.315078,-179.29713,-41.15387,25.357788,-37.901558,-169.446,-29.152063,-8.7792149,-41.078827,24.743814,-14.334236,14.831679,-41.784103,-40.403114,-32.156525,7.0416937,-37.790462,-169.50389,-41.839527,-40.365547,-16.738962,150.90648
2514500000,-16.53549,9.0766087,-34.475285,-2.2811034,-29.181597,-10.093531,-32.037117,5.8452578,-34.516758,-2.5318568,-12.289068,-179.42931,-41.123028,24.619535,-38.137703,-171.61082,-29.137987,-10.046181,-41.047771,24.04047,-14.292459,14.354701,-41.540134,-42.153141,-32.074718,5.7317791,-38.022598,-171.65012,-41.595703,-42.117538,-16.755491,150.48862
2515000000,-16.570547,8.7952824,-34.524731,-3.1257718,-29.170866,-11.388874,-31.966578,4.4399309,-34.570576,-3.3800633,-12.263277,-179.56174,-41.138103,23.933521,-38.382782,-173.64444,-29.127508,-11.30614,-41.053627,23.332575,-14.249866,13.894915,-41.325302,-44.079517,-32.005203,4.3263583,-38.264145,-173.69934,-41.384403,-44.047722,-16.76927,150.0939
2515500000,-16.613081,8.544817,-34.568993,-3.958025,-29.163164,-12.702272,-31.908594,2.9779096,-34.618855,-4.169323,-12.237868,-179.69662,-41.179169,23.33852,-38.634457,-175.61604,-29.121742,-12.579577,-41.090595,22.70532,-14.206847,13.446265,-41.144535,-46.026711,-31.947353,2.8461487,-38.498077,-175.66985,-41.196327,-45.990555,-16.778543,149.71735
2516000000,-16.661474,8.345192,-34.620449,-4.8162222,-29.166121,-13.984622,-31.86529,1.4511347,-34.674232,-5.0056429,-12.210352,-179.82216,-41.238304,22.759068,-38.889469,-177.54282,-29.122934,-13.8165,-41.153595,22.09166,-14.162821,13.004967,-40.9734,-48.028996,-31.902653,1.3188713,-38.738831,-177.62094,-41.01717,-48.017723,-16.78443,149.31999
2516500000,-16.713625,8.2362967,-34.68396,-5.6381664,-29.176115,-15.227564,-31.840034,-0.10834359,-34.743145,-5.7708783,-12.182673,-179.95462,-41.31316,22.282265,-39.164719,-179.28218,-29.12965,-15.020473,-41.241688,21.56855,-14.118346,12.563713,-40.815979,-50.146149,-31.877155,-0.25173438,-39.004311,-179.44983,-40.850422,-50.221607,-16.78602,148.95848
2517000000,-16.765505,8.2032413,-34.751766,-6.2835927,-29.185837,-16.44726,-31.830942,-1.6485451,-34.809174,-6.3675742,-12.155883,179.8958,-41.41227,21.889835,-39.433865,179.22916,-29.135103,-16.190269,-41.346352,21.180986,-14.074716,12.126735,-40.687279,-52.365829,-31.867088,-1.7981895,-39.266537,178.93237,-40.726246,-52.546482,-16.785238,148.57799
2517500000,-16.820581,8.2491627,-34.809311,-6.8724341,-29.203465,-17.578213,-31.835526,-3.1861722,-34.866379,-6.8981867,-12.126657,179.75223,-41.550121,21.780115,-39.689766,177.85591,-29.145826,-17.284033,-41.49387,21.040686,-14.030457,11.704644,-40.594688,-54.60907,-31.871452,-3.355891,-39.520916,177.45996,-40.635223,-54.798641,-16.781805,148.18228
2518000000,-16.869196,8.3935957,-34.850075,-7.3901887,-29.209095,-18.643661,-31.856213,-4.6878195,-34.904953,-7.3670516,-12.09776,179.58951,-41.684689,21.988287,-39.927135,176.64433,-29.141907,-18.347736,-41.633968,21.262592,-13.986484,11.298901,-40.520149,-56.73695,-31.892342,-4.8764315,-39.762638,176.15576,-40.555527,-56.975891,-16.775887,147.78093
2518500000,-16.910069,8.6212521,-34.876923,-7.9155788,-29.203247,-19.719952,-31.888269,-6.1190519,-34.929066,-7.8547058,-12.06967,179.41716,-41.783699,22.46596,-40.136242,175.4922,-29.129904,-19.426186,-41.734051,21.757975,-13.941293,10.901918,-40.44611,-58.806435,-31.931427,-6.3341322,-39.981316,174.91164,-40.490555,-59.071293,-16.76733,147.35313
2519000000,-16.939484,8.9023151,-34.895012,-8.4636688,-29.193708,-20.858894,-31.931993,-7.450397,-34.93626,-8.3574257,-12.041034,179.24635,-41.863022,23.022076,-40.333477,174.33067,-29.111881,-20.581728,-41.816685,22.350666,-13.894528,10.517242,-40.37048,-60.874439,-31.979584,-7.6760793,-40.186043,173.7209,-40.417961,-61.225502,-16.756727,146.90669
2519500000,-16.954197,9.2231398,-34.903725,-9.0343447,-29.184687,-22.028685,-31.977592,-8.6908102,-34.938988,-8.9113045,-12.01391,179.06465,-41.920139,23.789194,-40.522106,173.17026,-29.096619,-21.792345,-41.875187,23.140615,-13.845103,10.132831,-40.305534,-63.04702,-32.027943,-8.8880873,-40.380871,172.50337,-40.358311,-63.406799,-16.744415,146.44839
2520000000,-16.958483,9.5400476,-34.907486,-9.6505013,-29.178679,-23.24012,-32.015526,-9.8401499,-34.932487,-9.5623178,-11.988507,178.86952,-41.93372,24.622513,-40.706676,172.01733,-29.086599,-23.039848,-41.892788,23.898273,-13.794602,9.7493572,-40.239899,-65.243454,-32.069523,-10.01308,-40.574524,171.3503,-40.303276,-65.626228,-16.732395,145.96582
2520500000,-16.950626,9.8521872,-34.911297,-10.285239,-29.175116,-24.44911,-32.043499,-10.971446,-34.929878,-10.241978,-11.961748,178.68353,-41.913517,25.415874,-40.880482,170.9558,-29.08119,-24.302,-41.875488,24.713232,-13.742573,9.3599586,-40.199142,-67.551811,-32.097637,-11.121556,-40.758785,170.30203,-40.274014,-67.938492,-16.720413,145.46249
2521000000,-16.935074,10.151102,-34.911083,-10.917545,-29.173437,-25.687748,-32.072021,-12.12061,-34.921249,-10.919255,-11.938123,178.46844,-41.863605,26.192274,-41.040169,169.9272,-29.08046,-25.571884,-41.8279,25.448141,-13.688423,8.961298,-40.178013,-69.842392,-32.125629,-12.258669,-40.920433,169.30777,-40.256691,-70.226555,-16.709795,144.94276
2521500000,-16.907465,10.432655,-34.906708,-11.567554,-29.171162,-26.917902,-32.093998,-13.263772,-34.91275,-11.645814,-11.913942,178.25142,-41.782207,26.840982,-41.178421,168.98077,-29.079462,-26.829628,-41.755203,26.017839,-13.634275,8.5382071,-40.162926,-72.162148,-32.147282,-13.380176,-41.057747,168.34891,-40.245251,-72.52681,-16.70293,144.40302
2522000000,-16.871138,10.690742,-34.894444,-12.205428,-29.167439,-28.202105,-32.117558,-14.44754,-34.904652,-12.364662,-11.890527,178.02165,-41.686119,27.364456,-41.286152,167.96234,-29.078188,-28.135101,-41.670258,26.554413,-13.579587,8.1001987,-40.166954,-74.589142,-32.169476,-14.563846,-41.166527,167.34718,-40.250912,-74.947693,-16.69981,143.84703
2522500000,-16.82704,10.921908,-34.868916,-12.900619,-29.169321,-29.513241,-32.146885,-15.655524,-34.88657,-13.117916,-11.869663,177.7758,-41.565601,27.71102,-41.369984,166.82751,-29.083143,-29.45573,-41.558243,26.930187,-13.529146,7.6469364,-40.207069,-76.980492,-32.194977,-15.769327,-41.250751,166.21893,-40.292011,-77.291512,-16.700699,143.29398
2523000000,-16.772715,11.125878,-34.839417,-13.717729,-29.170649,-30.839907,-32.181961,-16.889576,-34.868076,-13.969165,-11.851959,177.51947,-41.451118,27.79838,-41.441521,165.51004,-29.086826,-30.78801,-41.451153,27.082787,-13.479647,7.1921244,-40.261074,-79.33532,-32.227837,-17.035257,-41.318981,164.86435,-40.34539,-79.672791,-16.703783,142.75085
2523500000,-16.710091,11.294715,-34.82053,-14.602878,-29.176031,-32.228783,-32.231277,-18.136209,-34.863144,-14.837302,-11.835666,177.27435,-41.347382,27.854006,-41.513287,163.98129,-29.093563,-32.180397,-41.355854,27.183119,-13.43167,6.7319446,-40.335331,-81.651886,-32.274715,-18.298285,-41.393757,163.32106,-40.419956,-81.965851,-16.70912,142.23416
2524000000,-16.643173,11.429507,-34.811012,-15.502233,-29.190273,-33.652977,-32.294804,-19.33569,-34.865318,-15.704295,-11.824038,177.01729,-41.242981,27.885897,-41.601086,162.27882,-29.107924,-33.621002,-41.25848,27.256948,-13.386813,6.2706032,-40.432236,-83.904572,-32.338181,-19.531029,-41.490726,161.58682,-40.522606,-84.172523,-16.715296,141.71109
2524500000,-16.573732,11.5142,-34.804844,-16.37237,-29.211618,-35.11808,-32.367928,-20.470963,-34.86602,-16.50968,-11.812485,176.76772,-41.133018,27.811987,-41.705517,160.52069,-29.128899,-35.088379,-41.156284,27.245672,-13.34102,5.8182244,-40.545044,-86.027161,-32.412682,-20.669147,-41.608696,159.88289,-40.636787,-86.275505,-16.724813,141.21536
2525000000,-16.492222,11.580274,-34.793118,-17.249577,-29.242931,-36.598782,-32.444729,-21.530188,-34.85828,-17.29586,-11.803011,176.5174,-41.038105,27.535542,-41.819736,158.73398,-29.161709,-36.593994,-41.061241,27.03775,-13.294907,5.365314,-40.670612,-88.029785,-32.491096,-21.768028,-41.730301,158.14769,-40.754265,-88.271622,-16.736197,140.73076
2525500000,-16.408127,11.57273,-34.790623,-18.143124,-29.281506,-38.087982,-32.530312,-22.50918,-34.853783,-18.107075,-11.796183,176.27643,-40.965248,27.531197,-41.955181,156.87022,-29.202553,-38.086021,-40.983589,27.040867,-13.248047,4.8974624,-40.792725,-89.951233,-32.578201,-22.757317,-41.869434,156.35727,-40.874699,-90.169395,-16.747494,140.26558
2526000000,-16.320068,11.488748,-34.784508,-18.97406,-29.332548,-39.602486,-32.622597,-23.393639,-34.83884,-18.892948,-11.791663,176.02438,-40.864174,27.332573,-42.114033,155.05028,-29.252699,-39.633774,-40.883995,26.91061,-13.206912,4.4166613,-40.943329,-91.787651,-32.674332,-23.647642,-42.03146,154.64624,-41.013268,-92.029488,-16.759459,139.82458
2526500000,-16.226707,11.341882,-34.768711,-19.87845,-29.395866,-41.143536,-32.720673,-24.165348,-34.814877,-19.746145,-11.789032,175.78133,-40.781906,27.033369,-42.286091,153.37648,-29.317873,-41.180225,-40.794876,26.702951,-13.169008,3.9500751,-41.089657,-93.526352,-32.773121,-24.415594,-42.186569,153.0426,-41.161102,-93.759308,-16.771814,139.38115
2527000000,-16.132874,11.104856,-34.757267,-20.821524,-29.474771,-42.655819,-32.815281,-24.762362,-34.794857,-20.699257,-11.789164,175.53984,-40.724766,26.752327,-42.451187,151.80281,-29.399639,-42.710987,-40.729855,26.439648,-13.132535,3.4962912,-41.240459,-95.193764,-32.874649,-25.006178,-42.339096,151.55806,-41.317699,-95.430595,-16.783272,138.96088
