!CSV A.01.01
!Keysight Technologies,N5222B,MY58422327,A.13.60.06
!Date: Monday, March 28, 2022 15:48:14
!Source: Standard

BEGIN CH1_DATA
Freq(Hz),S11(DB),S11(DEG),S12(DB),S12(DEG),S13(DB),S13(DEG),S14(DB),S14(DEG),S21(DB),S21(DEG),S22(DB),S22(DEG),S23(DB),S23(DEG),S24(DB),S24(DEG),S31(DB),S31(DEG),S32(DB),S32(DEG),S33(DB),S33(DEG),S34(DB),S34(DEG),S41(DB),S41(DEG),S42(DB),S42(DEG),S43(DB),S43(DEG),S44(DB),S44(DEG)
2500000000,-16.597342,22.135895,-32.237301,28.478807,-30.918961,15.948587,-32.21843,29.403368,-32.251545,28.416908,-13.091066,-174.8701,-39.051369,37.872379,-37.497406,-96.310982,-30.876928,15.911202,-38.978424,37.658806,-15.819764,28.949099,-41.823315,-53.103371,-32.27037,29.103617,-37.476089,-96.231987,-41.926476,-53.277344,-16.640505,164.04469
2500500000,-16.589218,21.698706,-32.324265,27.110006,-30.908472,15.339239,-32.285713,28.264215,-32.337685,27.01445,-13.051381,-175.0403,-39.132408,36.817394,-37.47015,-98.027283,-30.865271,15.232628,-39.071346,36.605003,-15.770052,28.348753,-42.042713,-53.227596,-32.339447,27.966661,-37.451126,-97.943672,-42.144024,-53.386383,-16.633747,163.71034
2501000000,-16.578964,21.278456,-32.422543,25.799389,-30.896139,14.719778,-32.358795,27.176657,-32.43412,25.66588,-13.010979,-175.1927,-39.238022,35.694839,-37.437004,-99.801842,-30.854147,14.576122,-39.177895,35.530972,-15.72006,27.757864,-42.212017,-53.495205,-32.415375,26.883533,-37.420635,-99.71505,-42.320084,-53.652954,-16.62524,163.3616
2501500000,-16.565779,20.874098,-32.517067,24.593666,-30.884609,14.166634,-32.43491,26.213003,-32.529331,24.428188,-12.973555,-175.35522,-39.354885,34.692116,-37.412277,-101.58427,-30.843176,13.979182,-39.29998,34.558632,-15.673859,27.177299,-42.375618,-53.921265,-32.492889,25.932394,-37.397552,-101.49895,-42.486908,-54.068977,-16.614586,163.01404
2502000000,-16.553492,20.45179,-32.607555,23.434637,-30.867851,13.646194,-32.50716,25.309559,-32.620815,23.239332,-12.936526,-175.51201,-39.481567,33.801151,-37.382755,-103.33485,-30.830362,13.432429,-39.430359,33.669716,-15.629189,26.618385,-42.546314,-54.594265,-32.570915,25.035471,-37.368507,-103.25076,-42.656181,-54.720749,-16.602922,162.65598
2502500000,-16.537745,20.038179,-32.695896,22.310915,-30.849352,13.153725,-32.575806,24.508032,-32.709957,22.082367,-12.898872,-175.66489,-39.604561,32.93639,-37.34346,-105.0699,-30.813951,12.91015,-39.553349,32.880547,-15.587122,26.079729,-42.756123,-55.33646,-32.644508,24.249384,-37.330387,-104.994,-42.859577,-55.475269,-16.58954,162.27573
2503000000,-16.518276,19.615452,-32.778358,21.265104,-30.828804,12.711812,-32.637875,23.762753,-32.794037,21.005091,-12.863638,-175.84016,-39.72744,32.154022,-37.29808,-106.87116,-30.796999,12.452258,-39.67218,32.133198,-15.543735,25.569099,-43.014969,-56.071106,-32.707405,23.52166,-37.286869,-106.79906,-43.109402,-56.22205,-16.574362,161.8844
2503500000,-16.501371,19.168697,-32.849964,20.195621,-30.798689,12.375483,-32.694141,23.082432,-32.866547,19.912544,-12.828704,-176.01646,-39.833069,31.348974,-37.235722,-108.67556,-30.769169,12.099916,-39.776978,31.361893,-15.500164,25.083593,-43.322914,-56.480686,-32.765141,22.867714,-37.2304,-108.60314,-43.426624,-56.675861,-16.558802,161.48119
2504000000,-16.480659,18.71229,-32.917725,19.13011,-30.746561,12.093107,-32.741547,22.426441,-32.93795,18.829916,-12.793684,-176.19409,-39.937214,30.477182,-37.167347,-110.5551,-30.722996,11.812225,-39.885422,30.541464,-15.45442,24.617811,-43.63665,-56.568985,-32.811348,22.242783,-37.160259,-110.49445,-43.755676,-56.834099,-16.542587,161.04185
2504500000,-16.460348,18.253092,-32.983116,18.048101,-30.670294,11.830638,-32.778038,21.837965,-33.006062,17.737803,-12.761374,-176.38951,-40.056442,29.452923,-37.082382,-112.57111,-30.65369,11.52845,-39.998516,29.556545,-15.4057,24.168766,-43.97839,-56.185429,-32.848557,21.668066,-37.078663,-112.51955,-44.097843,-56.43869,-16.523916,160.59641
2505000000,-16.435324,17.795734,-33.041843,16.93045,-30.574846,11.504955,-32.802589,21.255592,-33.069931,16.607529,-12.732595,-176.59715,-40.206123,28.449606,-36.990376,-114.739,-30.565014,11.215441,-40.142883,28.606367,-15.355404,23.713335,-44.309208,-55.307899,-32.872845,21.095943,-36.990517,-114.71035,-44.43531,-55.628361,-16.506771,160.10422
2505500000,-16.408861,17.313606,-33.102028,15.822096,-30.456961,11.068665,-32.823547,20.663048,-33.133331,15.487569,-12.704505,-176.79643,-40.380798,27.492077,-36.897327,-117.14057,-30.450954,10.812016,-40.303593,27.659218,-15.302248,23.258017,-44.591526,-53.899437,-32.892609,20.513222,-36.902149,-117.11187,-44.724861,-54.225578,-16.489431,159.59331
2506000000,-16.383024,16.819044,-33.159973,14.638439,-30.327593,10.492262,-32.838169,20.086172,-33.193542,14.32204,-12.680192,-177.00168,-40.575207,26.60446,-36.811409,-119.74818,-30.325169,10.251871,-40.4818,26.714106,-15.248005,22.802412,-44.810081,-52.126259,-32.908936,19.937469,-36.819874,-119.72621,-44.962128,-52.388275,-16.47298,159.04405
2506500000,-16.356853,16.310196,-33.229366,13.42146,-30.190754,9.791048,-32.842819,19.547205,-33.264153,13.102672,-12.658607,-177.21689,-40.801731,25.800768,-36.743263,-122.60961,-30.193148,9.5711212,-40.703339,25.884483,-15.192138,22.338707,-44.950336,-50.108505,-32.913975,19.420877,-36.754734,-122.54995,-45.110371,-50.336739,-16.458448,158.47462
2507000000,-16.335688,15.792775,-33.307442,12.227079,-30.050859,8.9305077,-32.834095,18.995533,-33.344017,11.919557,-12.6382,-177.40506,-41.065903,25.251215,-36.706337,-125.66757,-30.055616,8.7258949,-40.962048,25.253357,-15.135523,21.873566,-45.009304,-47.879513,-32.902264,18.861435,-36.721539,-125.59214,-45.180244,-48.07206,-16.44729,157.87366
2507500000,-16.310949,15.291756,-33.392788,11.042013,-29.916536,7.9276938,-32.817276,18.370842,-33.431599,10.754279,-12.62112,-177.59311,-41.348579,25.086214,-36.7103,-128.84348,-29.921204,7.7479053,-41.246189,24.997698,-15.07775,21.403183,-44.964516,-45.70755,-32.884079,18.268953,-36.724098,-128.75386,-45.1464,-45.826057,-16.439419,157.26132
2508000000,-16.291443,14.767777,-33.484879,9.8805962,-29.790237,6.7808852,-32.802479,17.723928,-33.524311,9.578105,-12.604356,-177.76038,-41.628639,25.366804,-36.752064,-132.06888,-29.794313,6.6334434,-41.53376,25.220041,-15.021312,20.929771,-44.842777,-43.855518,-32.868031,17.62566,-36.766396,-131.96494,-45.029987,-43.901985,-16.43483,156.63496
2508500000,-16.273829,14.240092,-33.586819,8.7620344,-29.679193,5.5620484,-32.786396,17.080496,-33.625576,8.4716444,-12.587092,-177.90085,-41.885487,26.137293,-36.830959,-135.28149,-29.678104,5.425221,-41.794998,25.836285,-14.963243,20.469316,-44.676998,-42.298653,-32.84996,17.009825,-36.844677,-135.17268,-44.862858,-42.222088,-16.434296,155.99947
2509000000,-16.264513,13.689349,-33.694683,7.7114081,-29.57761,4.2433991,-32.76284,16.46706,-33.734592,7.4067035,-12.571791,-178.04713,-42.085545,27.238878,-36.943626,-138.45546,-29.575935,4.1223359,-42.007427,26.907825,-14.903911,20.004135,-44.485725,-40.970299,-32.823551,16.430986,-36.959484,-138.3506,-44.66843,-40.82732,-16.435322,155.36574
2509500000,-16.260729,13.151134,-33.808624,6.7423449,-29.492231,2.893254,-32.729027,15.883419,-33.851582,6.4344673,-12.553186,-178.17465,-42.209602,28.542727,-37.085342,-141.53595,-29.489073,2.7744024,-42.152397,28.229069,-14.843113,19.535635,-44.271915,-39.814899,-32.784119,15.851806,-37.101402,-141.44441,-44.440849,-39.55315,-16.439432,154.72818
2510000000,-16.26613,12.614851,-33.922203,5.8698692,-29.42057,1.4935902,-32.679424,15.262592,-33.968082,5.5834422,-12.532038,-178.28699,-42.262875,29.844994,-37.247772,-144.50485,-29.413141,1.3864726,-42.216145,29.610859,-14.781007,19.064491,-44.009705,-38.808304,-32.727604,15.217578,-37.266537,-144.40332,-44.164383,-38.446266,-16.4473,154.08197
2510500000,-16.282909,12.088396,-34.034504,5.1341329,-29.362387,0.073111504,-32.617477,14.560509,-34.082088,4.8439288,-12.511389,-178.41118,-42.25798,31.069561,-37.428181,-147.39162,-29.35177,-0.018333396,-42.217548,30.928001,-14.719543,18.576546,-43.703529,-38.032444,-32.664707,14.50092,-37.449558,-147.27295,-43.841232,-37.631134,-16.456434,153.46822
2511000000,-16.303316,11.607162,-34.140583,4.5141764,-29.316301,-1.3445989,-32.553116,13.782389,-34.185795,4.2572179,-12.489348,-178.52576,-42.180798,32.082817,-37.627056,-150.19414,-29.305906,-1.4266804,-42.150604,32.030651,-14.657333,18.074202,-43.345768,-37.6175,-32.594101,13.701394,-37.648067,-150.06221,-43.472347,-37.176212,-16.46965,152.84993
2511500000,-16.327423,11.156998,-34.220978,3.9946866,-29.28244,-2.7290058,-32.488297,12.928282,-34.264378,3.7581208,-12.465413,-178.63071,-42.064735,32.68779,-37.845085,-152.91234,-29.272209,-2.8244965,-42.028324,32.782471,-14.596341,17.549471,-42.958477,-37.661018,-32.525932,12.816455,-37.864239,-152.79233,-43.067295,-37.252308,-16.4865,152.2515
2512000000,-16.355658,10.741601,-34.2766,3.4570601,-29.252552,-4.0982785,-32.421581,12.023352,-34.319252,3.2438037,-12.440797,-178.75102,-41.933811,32.859512,-38.076038,-155.47293,-29.239866,-4.1641893,-41.881176,33.079895,-14.543306,17.002459,-42.575676,-38.309753,-32.457787,11.898261,-38.096222,-155.32639,-42.665581,-37.936123,-16.505587,151.67653
2512500000,-16.38364,10.351143,-34.317944,2.8305695,-29.235804,-5.4502368,-32.353142,11.103157,-34.357052,2.6551044,-12.415947,-178.87592,-41.799362,32.873066,-38.321823,-157.94733,-29.223261,-5.515316,-41.73843,33.063091,-14.491554,16.473581,-42.209373,-39.25491,-32.390198,10.951622,-38.343594,-157.77856,-42.28455,-38.931229,-16.523834,151.13162
2513000000,-16.411629,9.9801035,-34.352009,2.144335,-29.223612,-6.7440972,-32.277084,10.124932,-34.385281,1.9899908,-12.390497,-178.99559,-41.671154,32.441887,-38.572983,-160.28128,-29.2097,-6.8028493,-41.594109,32.651775,-14.444266,15.949214,-41.868355,-40.587685,-32.314781,9.9426184,-38.595257,-160.07263,-41.926758,-40.383327,-16.542892,150.60091
2513500000,-16.440918,9.6258354,-34.389481,1.3641475,-29.211748,-8.003973,-32.19939,9.0582876,-34.416382,1.2169069,-12.365329,-179.11952,-41.573189,31.664345,-38.834549,-162.46864,-29.198959,-8.0562525,-41.492474,31.889256,-14.400748,15.434478,-41.559181,-42.202869,-32.235847,8.8508377,-38.856548,-162.27299,-41.617756,-42.11647,-16.56283,150.08771
2514000000,-16.475683,9.2726068,-34.431839,0.56512767,-29.202003,-9.2462568,-32.120888,7.8902125,-34.451405,0.37136766,-12.339649,-179.24722,-41.515759,30.646444,-39.09024,-164.5509,-29.185297,-9.3001814,-41.428905,30.863529,-14.357292,14.938254,-41.278801,-44.033783,-32.159824,7.648088,-39.115627,-164.35007,-41.338371,-44.010571,-16.583328,149.57626
2514500000,-16.511522,8.959549,-34.481052,-0.28696775,-29.190817,-10.493,-32.048271,6.621984,-34.499996,-0.4962678,-12.314406,-179.37691,-41.526455,29.519449,-39.34763,-166.62978,-29.173586,-10.531604,-41.428143,29.751167,-14.316325,14.450054,-41.028805,-46.066669,-32.089577,6.3546629,-39.370384,-166.37894,-41.097195,-46.109066,-16.603411,149.10385
2515000000,-16.551153,8.6797619,-34.544254,-1.0820366,-29.182558,-11.74877,-31.98391,5.2637281,-34.560841,-1.3097553,-12.289776,-179.50299,-41.582104,28.540956,-39.615349,-168.56999,-29.163336,-11.788831,-41.471279,28.734623,-14.275487,13.9763,-40.819492,-48.234291,-32.030182,4.9866223,-39.632637,-168.34024,-40.899723,-48.354942,-16.620951,148.65323
2515500000,-16.597605,8.4403248,-34.60112,-1.8302809,-29.177496,-13.017681,-31.930899,3.8533909,-34.618309,-2.0760045,-12.265649,-179.62848,-41.658104,27.731153,-39.879086,-170.44067,-29.160347,-13.041318,-41.529087,27.815588,-14.234503,13.522311,-40.656994,-50.361729,-31.979891,3.5591278,-39.880997,-170.23976,-40.738537,-50.541092,-16.636225,148.22472
2516000000,-16.650013,8.2603531,-34.666187,-2.5714021,-29.180233,-14.26031,-31.891615,2.3940747,-34.685913,-2.825671,-12.238779,-179.74637,-41.749432,27.010578,-40.15773,-172.27985,-29.162186,-14.28065,-41.619652,26.979094,-14.192774,13.078518,-40.497246,-52.506844,-31.944908,2.0882201,-40.160545,-172.14478,-40.59087,-52.718655,-16.649443,147.77966
2516500000,-16.704248,8.1771288,-34.737564,-3.2237847,-29.188461,-15.483046,-31.864588,0.89481711,-34.760536,-3.490406,-12.211751,-179.87436,-41.870129,26.378904,-40.457203,-173.94855,-29.170219,-15.49758,-41.735935,26.245667,-14.150097,12.638391,-40.355858,-54.76606,-31.923433,0.60180354,-40.467751,-173.87779,-40.45665,-54.969109,-16.658768,147.37941
2517000000,-16.756306,8.1770477,-34.805836,-3.687541,-29.194939,-16.701189,-31.852156,-0.59690768,-34.827518,-3.9579086,-12.185745,179.97862,-42.000912,25.832615,-40.755081,-175.35815,-29.17478,-16.696091,-41.876179,25.595665,-14.108104,12.201572,-40.244148,-57.127136,-31.914885,-0.88851851,-40.773758,-175.32903,-40.348747,-57.337685,-16.666527,146.96658
2517500000,-16.809734,8.2507439,-34.8592,-4.1091313,-29.209326,-17.828747,-31.852116,-2.0938654,-34.879162,-4.37889,-12.157897,179.84247,-42.17902,25.559904,-41.028885,-176.63892,-29.186775,-17.822163,-42.070705,25.231264,-14.066006,11.786935,-40.160759,-59.510094,-31.918242,-2.3645835,-41.068642,-176.57863,-40.277081,-59.693089,-16.671808,146.54601
2518000000,-16.85536,8.4178629,-34.887562,-4.4541397,-29.212612,-18.919676,-31.863489,-3.559083,-34.910233,-4.7416596,-12.130479,179.68964,-42.356323,25.702427,-41.294411,-177.72926,-29.187656,-18.919151,-42.265247,25.273216,-14.024165,11.389607,-40.108578,-61.775257,-31.93346,-3.8055897,-41.345966,-177.69228,-40.227978,-61.944572,-16.673956,146.13536
2518500000,-16.891314,8.663085,-34.898865,-4.8550172,-29.206928,-20.03731,-31.890251,-4.9739037,-34.920971,-5.1470613,-12.103683,179.53015,-42.502922,26.074097,-41.540741,-178.76181,-29.180069,-20.045671,-42.433395,25.622791,-13.980157,11.007483,-40.06469,-63.943619,-31.96158,-5.202786,-41.604099,-178.72368,-40.189064,-64.089775,-16.672714,145.69533
2519000000,-16.916502,8.9424877,-34.898819,-5.2935629,-29.197264,-21.226311,-31.923779,-6.2995696,-34.919346,-5.593122,-12.076461,179.37502,-42.647564,26.550161,-41.772823,-179.73433,-29.170389,-21.232,-42.601925,26.16407,-13.933708,10.635067,-40.022755,-66.110901,-31.996794,-6.5006151,-41.845512,-179.67757,-40.152809,-66.214104,-16.669069,145.24132
2519500000,-16.927271,9.2485828,-34.88818,-5.7974176,-29.193975,-22.446421,-31.956369,-7.5221848,-34.913067,-6.1375871,-12.050316,179.21255,-42.77718,27.376305,-41.990002,179.31795,-29.163628,-22.461784,-42.748363,27.082319,-13.883715,10.26552,-39.987835,-68.308884,-32.029682,-7.7079086,-42.074612,179.46582,-40.118435,-68.377937,-16.66371,144.77953
2520000000,-16.928144,9.5522556,-34.877712,-6.4006691,-29.195238,-23.708952,-31.979855,-8.6924601,-34.905254,-6.7236586,-12.024922,179.03952,-42.871563,28.418406,-42.207699,178.44975,-29.164539,-23.711637,-42.844933,28.176826,-13.832393,9.8972588,-39.961994,-70.570427,-32.055214,-8.8501053,-42.294868,178.65611,-40.092125,-70.561371,-16.65753,144.29391
2520500000,-16.918352,9.8494434,-34.871658,-7.0015268,-29.201685,-24.949375,-31.992577,-9.8710489,-34.897942,-7.3182735,-11.997656,178.8777,-42.922077,29.592062,-42.403748,177.71184,-29.168758,-24.970793,-42.89959,29.414139,-13.778582,9.5183115,-39.957672,-72.84095,-32.070736,-10.006877,-42.49522,177.98537,-40.081837,-72.815285,-16.651178,143.78444
2521000000,-16.901489,10.127648,-34.862366,-7.5448594,-29.21129,-26.196796,-32.001747,-11.080727,-34.888809,-7.8635139,-11.973589,178.68428,-42.927105,30.83378,-42.570198,177.07318,-29.177101,-26.227999,-42.901588,30.768654,-13.72313,9.1233854,-39.962109,-75.102135,-32.079983,-11.180136,-42.659843,177.42873,-40.083988,-75.067757,-16.645765,143.25735
2521500000,-16.873596,10.390257,-34.843945,-8.0849533,-29.221579,-27.430222,-32.008904,-12.339856,-34.872475,-8.4332905,-11.947985,178.48833,-42.890053,32.002853,-42.704502,176.48555,-29.186996,-27.471842,-42.857258,32.047279,-13.667307,8.7028942,-39.97131,-77.363174,-32.085552,-12.400673,-42.789452,176.92079,-40.090878,-77.288101,-16.644974,142.70859
2522000000,-16.837898,10.63246,-34.813313,-8.6002808,-29.231966,-28.687475,-32.019478,-13.661242,-34.843071,-8.9505758,-11.922747,178.28146,-42.815357,33.248699,-42.792564,175.80411,-29.195461,-28.73333,-42.7752,33.330631,-13.611143,8.2668943,-39.997768,-79.757805,-32.093468,-13.718957,-42.866951,176.2941,-40.108101,-79.685059,-16.648119,142.14563
2522500000,-16.794313,10.852484,-34.760502,-9.1846085,-29.244686,-29.955833,-32.038509,-15.059091,-34.794014,-9.5408134,-11.900027,178.05681,-42.691231,34.312923,-42.846062,174.93896,-29.209972,-30.02124,-42.634331,34.429111,-13.558043,7.8107576,-40.057533,-82.141403,-32.109215,-15.094768,-42.910553,175.48969,-40.159756,-82.078812,-16.655298,141.58369
2523000000,-16.741343,11.045812,-34.70253,-9.9345198,-29.256477,-31.223042,-32.071106,-16.510103,-34.736904,-10.283628,-11.879521,177.81841,-42.537579,35.10952,-42.875195,173.75563,-29.222641,-31.309677,-42.476643,35.249851,-13.505692,7.347898,-40.133099,-84.497101,-32.1376,-16.542059,-42.92889,174.35535,-40.229588,-84.44912,-16.665359,141.03583
2523500000,-16.679777,11.208007,-34.647175,-10.78138,-29.269766,-32.525352,-32.126373,-17.982403,-34.68523,-11.137776,-11.860088,177.58612,-42.374538,35.752544,-42.902008,172.27521,-29.238029,-32.639965,-42.305447,35.869652,-13.45593,6.8741484,-40.23447,-86.840561,-32.187271,-18.022966,-42.944187,172.92276,-40.323681,-86.795082,-16.678247,140.51675
2524000000,-16.614256,11.339312,-34.596302,-11.675642,-29.288475,-33.86565,-32.201176,-19.401188,-34.6395,-12.03058,-11.845409,177.34077,-42.195091,36.209167,-42.950195,170.53777,-29.260923,-33.977791,-42.114025,36.262775,-13.410165,6.3941483,-40.356174,-89.090942,-32.258415,-19.453365,-42.97847,171.20177,-40.445976,-89.094406,-16.693039,139.99669
2524500000,-16.54509,11.426783,-34.547554,-12.597962,-29.310696,-35.222889,-32.292118,-20.740168,-34.593067,-12.951171,-11.831014,177.10031,-42.007557,36.415138,-43.019371,168.66858,-29.284563,-35.348476,-41.921055,36.419003,-13.363886,5.9184041,-40.510147,-91.196014,-32.345863,-20.787098,-43.031925,169.33008,-40.596577,-91.249207,-16.710701,139.5114
2525000000,-16.463795,11.49723,-34.498512,-13.616046,-29.337904,-36.625465,-32.39566,-21.9874,-34.546036,-13.961291,-11.818565,176.8587,-41.841564,36.334057,-43.103912,166.63824,-29.315216,-36.744198,-41.757706,36.308304,-13.319139,5.4436684,-40.667633,-93.131012,-32.443951,-22.052534,-43.104973,167.25566,-40.750713,-93.207253,-16.72971,139.04834
2525500000,-16.378382,11.497713,-34.464027,-14.680674,-29.368608,-38.016422,-32.510448,-23.15169,-34.513981,-15.035915,-11.808441,176.62469,-41.686481,36.478107,-43.221607,164.45605,-29.349209,-38.139446,-41.611504,36.395699,-13.273725,4.9517522,-40.816467,-95.011749,-32.558044,-23.229187,-43.212742,165.04803,-40.913097,-95.123055,-16.748081,138.61061
2526000000,-16.287861,11.420733,-34.430027,-15.721517,-29.408434,-39.502655,-32.640209,-24.150915,-34.483402,-16.069761,-11.800748,176.37674,-41.516094,36.332115,-43.378307,162.35083,-29.39048,-39.613655,-41.44252,36.254532,-13.235849,4.451323,-40.993183,-96.875359,-32.684177,-24.263451,-43.360851,162.85576,-41.094891,-96.961578,-16.766008,138.20155
2526500000,-16.190422,11.268044,-34.395267,-16.816208,-29.460709,-40.98468,-32.777332,-25.005146,-34.451839,-17.175156,-11.794956,176.13219,-41.374458,36.03928,-43.54813,160.33762,-29.445646,-41.109039,-41.29446,35.985882,-13.201749,3.9712701,-41.178761,-98.500465,-32.820793,-25.15402,-43.527931,160.72301,-41.286755,-98.588478,-16.783098,137.79306
2527000000,-16.091852,11.019049,-34.36953,-17.980589,-29.529917,-42.477959,-32.919376,-25.64139,-34.433353,-18.338234,-11.791883,175.8902,-41.259876,35.789146,-43.721046,158.41185,-29.516645,-42.603653,-41.176109,35.619625,-13.170115,3.5122399,-41.369984,-100.01359,-32.96072,-25.836561,-43.707481,158.66592,-41.476089,-100.06973,-16.797983,137.41325
