!CSV A.01.01
!Keysight Technologies,N5222B,MY58422327,A.13.60.06
!Date: Monday, March 28, 2022 15:48:39
!Source: Standard

BEGIN CH1_DATA
Freq(Hz),S11(DB),S11(DEG),S12(DB),S12(DEG),S13(DB),S13(DEG),S14(DB),S14(DEG),S21(DB),S21(DEG),S22(DB),S22(DEG),S23(DB),S23(DEG),S24(DB),S24(DEG),S31(DB),S31(DEG),S32(DB),S32(DEG),S33(DB),S33(DEG),S34(DB),S34(DEG),S41(DB),S41(DEG),S42(DB),S42(DEG),S43(DB),S43(DEG),S44(DB),S44(DEG)
2500000000,-16.700617,21.242884,-31.999653,24.760605,-30.785097,11.641026,-32.038452,28.689264,-32.083511,24.540268,-13.074222,-174.90131,-37.976902,37.695553,-37.862263,-97.71991,-30.771793,11.799961,-37.914913,37.817551,-15.681873,28.37676,-41.93364,-54.069443,-32.097607,28.470478,-37.82225,-97.291222,-42.066097,-53.754776,-16.63533,163.82283
2500500000,-16.693277,20.845377,-32.085537,23.323992,-30.779068,10.990327,-32.109558,27.516228,-32.168892,23.105494,-13.035162,-175.07231,-38.078743,36.573101,-37.817669,-99.411713,-30.762245,11.185858,-38.010983,36.715614,-15.635113,27.77681,-42.184647,-54.372772,-32.170589,27.321409,-37.771454,-98.999367,-42.314281,-54.027855,-16.628765,163.48273
2501000000,-16.683704,20.455605,-32.186028,21.922817,-30.772377,10.363546,-32.187706,26.448944,-32.267147,21.706366,-12.994532,-175.22803,-38.199291,35.474861,-37.770493,-101.16564,-30.753199,10.583354,-38.128628,35.591125,-15.588136,27.189856,-42.394798,-54.828026,-32.249683,26.237122,-37.724464,-100.80618,-42.523502,-54.441864,-16.621449,163.13142
2501500000,-16.670757,20.083036,-32.284336,20.640682,-30.762747,9.8160696,-32.267769,25.487679,-32.364365,20.426252,-12.956776,-175.39482,-38.334549,34.470367,-37.732338,-102.96449,-30.741833,10.048546,-38.257832,34.626671,-15.543397,26.609556,-42.609783,-55.329006,-32.330921,25.272249,-37.686192,-102.62173,-42.730488,-54.921062,-16.611427,162.7843
2502000000,-16.658413,19.688017,-32.379288,19.403515,-30.748144,9.3145561,-32.347,24.593637,-32.4603,19.19302,-12.919925,-175.55905,-38.464218,33.662731,-37.689671,-104.72787,-30.725349,9.5491085,-38.38945,33.780926,-15.500129,26.049706,-42.811245,-55.942036,-32.412552,24.361216,-37.645943,-104.40658,-42.938831,-55.559776,-16.599957,162.42529
2502500000,-16.642128,19.299025,-32.47271,18.218199,-30.729206,8.8110523,-32.425587,23.795694,-32.554607,17.997362,-12.882232,-175.7207,-38.588852,32.89011,-37.641304,-106.49036,-30.70298,9.0539961,-38.51091,33.021358,-15.458719,25.509912,-43.043373,-56.718636,-32.489414,23.559404,-37.602226,-106.18775,-43.165966,-56.288418,-16.586815,162.04137
2503000000,-16.622412,18.902262,-32.55835,17.0891,-30.7103,8.3541851,-32.494526,23.077448,-32.64468,16.894915,-12.847944,-175.90346,-38.707817,32.197609,-37.589615,-108.28986,-30.680948,8.6088982,-38.622711,32.301144,-15.417071,24.993145,-43.318817,-57.475838,-32.561901,22.827173,-37.54641,-108.02621,-43.439854,-57.027454,-16.571651,161.65034
2503500000,-16.604149,18.481699,-32.632885,15.95985,-30.68479,7.9915862,-32.558975,22.425806,-32.719307,15.787871,-12.813777,-176.08862,-38.807854,31.423227,-37.520451,-110.11557,-30.650633,8.2223692,-38.720108,31.566351,-15.376204,24.496737,-43.64727,-57.999706,-32.625374,22.191193,-37.479816,-109.85107,-43.767513,-57.48521,-16.556223,161.243
2504000000,-16.581621,18.054001,-32.702904,14.822901,-30.642595,7.6783624,-32.608517,21.835798,-32.789474,14.685235,-12.780039,-176.27029,-38.905045,30.624096,-37.440411,-111.99046,-30.605757,7.9182467,-38.811871,30.719387,-15.333117,24.023767,-44.006287,-58.157101,-32.682198,21.602173,-37.397141,-111.78234,-44.114098,-57.631901,-16.540194,160.79741
2504500000,-16.556969,17.614763,-32.772182,13.662868,-30.579311,7.3881302,-32.650566,21.301823,-32.855106,13.555499,-12.748893,-176.47046,-39.014622,29.659264,-37.344513,-114.05231,-30.538826,7.6163917,-38.917618,29.758884,-15.287519,23.569117,-44.389175,-57.78508,-32.728626,21.081371,-37.303322,-113.84457,-44.482079,-57.310677,-16.5215,160.34157
2505000000,-16.528149,17.167078,-32.836788,12.474389,-30.498425,7.0674438,-32.676304,20.806473,-32.912697,12.370344,-12.721044,-176.68192,-39.147266,28.729498,-37.242905,-116.26932,-30.453671,7.2712216,-39.045883,28.755087,-15.240278,23.113289,-44.788979,-56.861286,-32.757946,20.597212,-37.203571,-116.10645,-44.859913,-56.39077,-16.505503,159.83968
2505500000,-16.497742,16.684086,-32.902546,11.274916,-30.39525,6.6572967,-32.692085,20.30899,-32.973293,11.165933,-12.694304,-176.88318,-39.300934,27.788782,-37.138378,-118.71971,-30.348019,6.8517942,-39.198513,27.802387,-15.189915,22.655552,-45.121174,-55.280586,-32.777164,20.12294,-37.106262,-118.59349,-45.180511,-54.7957,-16.489775,159.32166
2506000000,-16.467941,16.174742,-32.96944,10.001639,-30.281567,6.1398234,-32.699615,19.803648,-33.034462,9.8676729,-12.671265,-177.09135,-39.473904,26.89134,-37.048065,-121.39294,-30.231234,6.3068562,-39.369144,26.863497,-15.138762,22.203318,-45.381748,-53.12875,-32.785442,19.636129,-37.019989,-121.31572,-45.434345,-52.72768,-16.475176,158.76979
2506500000,-16.439087,15.645989,-33.049488,8.6666708,-30.160631,5.513752,-32.695904,19.336,-33.111519,8.4924803,-12.651188,-177.30243,-39.682285,26.090851,-36.975735,-124.31422,-30.109356,5.6437464,-39.569359,25.999702,-15.086253,21.744118,-45.54282,-50.688744,-32.782772,19.199274,-36.956306,-124.24724,-45.578697,-50.359936,-16.462456,158.19969
2507000000,-16.417068,15.096748,-33.14698,7.3652935,-30.032528,4.7361569,-32.672501,18.822809,-33.204941,7.158443,-12.632174,-177.48619,-39.917488,25.497211,-36.940132,-127.4166,-29.981207,4.8607783,-39.810219,25.392492,-15.031927,21.284687,-45.603382,-48.139839,-32.759357,18.730001,-36.929062,-127.36218,-45.632751,-47.969894,-16.453255,157.59914
2507500000,-16.393457,14.564285,-33.249901,6.1477056,-29.90617,3.8279181,-32.640453,18.237434,-33.308952,5.8750315,-12.616121,-177.66896,-40.171154,25.236723,-36.944275,-130.63016,-29.856544,3.938617,-40.062279,25.1185,-14.976782,20.824345,-45.544582,-45.617523,-32.724636,18.170479,-36.938374,-130.56227,-45.580677,-45.609001,-16.446539,156.98642
2508000000,-16.377056,14.010949,-33.365395,4.9917693,-29.786774,2.8121321,-32.60902,17.580181,-33.426151,4.6310396,-12.600019,-177.82964,-40.414742,25.388811,-36.989292,-133.88147,-29.738729,2.9120734,-40.31567,25.227217,-14.922156,20.362282,-45.39521,-43.470703,-32.68943,17.541889,-36.985264,-133.78232,-45.444664,-43.528912,-16.443619,156.36395
2508500000,-16.364571,13.459473,-33.481541,3.9023378,-29.677568,1.7114549,-32.5779,16.908792,-33.551292,3.4979837,-12.582719,-177.96295,-40.647224,25.841385,-37.066746,-137.09709,-29.627989,1.8156273,-40.544514,25.629009,-14.86438,19.912205,-45.187279,-41.748867,-32.653339,16.884975,-37.07056,-136.98863,-45.245247,-41.843025,-16.444262,155.72987
2509000000,-16.361965,12.892319,-33.600204,2.8877726,-29.575558,0.52753991,-32.54258,16.254845,-33.680584,2.4356272,-12.567311,-178.10481,-40.837646,26.601112,-37.177769,-140.25502,-29.526237,0.62698215,-40.739071,26.34552,-14.806146,19.454494,-44.949123,-40.414261,-32.613155,16.235548,-37.188438,-140.13745,-45.032654,-40.489311,-16.446894,155.10255
2509500000,-16.365133,12.344067,-33.718391,1.9482301,-29.483305,-0.71266365,-32.498249,15.606375,-33.812702,1.4838988,-12.548038,-178.22832,-40.970608,27.569967,-37.313377,-143.3271,-29.433798,-0.61139059,-40.881622,27.283014,-14.745242,18.992317,-44.679779,-39.256248,-32.563534,15.576654,-37.329559,-143.18416,-44.782455,-39.337273,-16.451803,154.47516
2510000000,-16.379131,11.820986,-33.839382,1.0738323,-29.40098,-2.0138104,-32.442265,14.909919,-33.946857,0.62425888,-12.526257,-178.33694,-41.051521,28.608028,-37.472321,-146.30373,-29.350143,-1.9169438,-40.96629,28.326645,-14.682555,18.519585,-44.379539,-38.508152,-32.502502,14.873633,-37.489391,-146.12982,-44.493763,-38.493206,-16.46064,153.83418
2510500000,-16.403851,11.315585,-33.956806,0.29882663,-29.328209,-3.3589561,-32.376438,14.162795,-34.076637,-0.099860035,-12.50489,-178.46237,-41.079956,29.682913,-37.643761,-149.20387,-29.276567,-3.275646,-41.001408,29.36965,-14.621061,18.027302,-44.053188,-37.969276,-32.435974,14.096043,-37.665874,-148.99739,-44.166924,-37.97934,-16.470181,153.22864
2511000000,-16.431477,10.869303,-34.065231,-0.35815203,-29.271206,-4.7430258,-32.306099,13.310244,-34.195499,-0.69388884,-12.482431,-178.57826,-41.049999,30.647663,-37.832325,-152.03137,-29.215408,-4.6581583,-40.974335,30.317677,-14.559595,17.516987,-43.695984,-37.86779,-32.364548,13.249106,-37.856373,-151.77841,-43.822021,-37.819099,-16.483568,152.61581
2511500000,-16.460503,10.47299,-34.157841,-0.92828619,-29.226578,-6.1252623,-32.236828,12.396382,-34.294037,-1.1760019,-12.457993,-178.68617,-40.968842,31.356937,-38.039387,-154.81601,-29.170067,-6.0594196,-40.895958,31.054329,-14.500308,16.987175,-43.334007,-38.229195,-32.294159,12.320942,-38.064209,-154.52783,-43.459793,-38.136932,-16.500204,152.01866
2512000000,-16.491653,10.109428,-34.230965,-1.4864779,-29.188055,-7.4938703,-32.166714,11.431131,-34.369274,-1.6477649,-12.432497,-178.81197,-40.863853,31.717216,-38.267155,-157.47359,-29.130379,-7.441669,-40.788696,31.400671,-14.449028,16.432802,-42.992393,-39.069759,-32.225327,11.357808,-38.291302,-157.1313,-43.111507,-38.893185,-16.520084,151.44275
2512500000,-16.519564,9.7659178,-34.289536,-2.1037102,-29.165318,-8.8791771,-32.09623,10.443135,-34.426872,-2.1763673,-12.407618,-178.94406,-40.74118,31.875025,-38.509666,-160.00963,-29.110231,-8.8313389,-40.673508,31.523684,-14.400078,15.900294,-42.67852,-40.105721,-32.154205,10.354978,-38.53022,-159.64107,-42.788177,-39.844131,-16.539591,150.90105
2513000000,-16.547052,9.4356852,-34.339848,-2.7476804,-29.150778,-10.216887,-32.019623,9.374567,-34.475998,-2.7467542,-12.382442,-179.0706,-40.606628,31.639259,-38.766102,-162.40065,-29.095779,-10.157406,-40.549145,31.328163,-14.354906,15.369375,-42.37569,-41.372356,-32.077202,9.294486,-38.781109,-161.99823,-42.47736,-41.111168,-16.559866,150.37317
2513500000,-16.575695,9.1099157,-34.385857,-3.4714308,-29.139278,-11.513385,-31.942526,8.2021341,-34.516308,-3.3969941,-12.357841,-179.20255,-40.490261,31.025526,-39.021946,-164.60002,-29.0875,-11.460653,-40.438099,30.751087,-14.313635,14.860299,-42.09584,-42.864376,-32.000355,8.1294584,-39.037586,-164.18033,-42.190613,-42.596424,-16.579969,149.86845
2514000000,-16.609385,8.7820559,-34.431927,-4.220479,-29.131351,-12.78514,-31.870037,6.952601,-34.55735,-4.1007843,-12.332936,-179.33664,-40.412201,30.199688,-39.280109,-166.692,-29.080278,-12.724975,-40.35997,29.949711,-14.272448,14.369998,-41.831982,-44.512039,-31.92922,6.8783722,-39.287109,-166.24745,-41.921169,-44.277309,-16.601105,149.36842
2514500000,-16.64493,8.4942369,-34.485825,-5.0226226,-29.12635,-14.033376,-31.806429,5.6207762,-34.6031,-4.8558283,-12.308968,-179.47321,-40.37635,29.183065,-39.535782,-168.75108,-29.075975,-13.979808,-40.325836,28.947933,-14.233105,13.89045,-41.594975,-46.361343,-31.864635,5.5423388,-39.538628,-168.31558,-41.674973,-46.168129,-16.620737,148.90656
2515000000,-16.683468,8.2386703,-34.547333,-5.7725983,-29.12504,-15.288226,-31.752693,4.2269769,-34.657402,-5.5707679,-12.285423,-179.60991,-40.389851,28.207039,-39.800636,-170.70972,-29.075071,-15.201718,-40.34248,27.991524,-14.192262,13.428411,-41.388336,-48.369724,-31.808331,4.1524253,-39.804077,-170.27203,-41.469643,-48.247292,-16.637997,148.46312
2515500000,-16.729435,8.0250816,-34.602886,-6.5124607,-29.126421,-16.540815,-31.708092,2.7925696,-34.706013,-6.2579794,-12.263195,-179.74315,-40.421818,27.297173,-40.058071,-172.55034,-29.078829,-16.426638,-40.375427,27.111483,-14.151435,12.979348,-41.218971,-50.440845,-31.761337,2.7218342,-40.056767,-172.1487,-41.291821,-50.366692,-16.651731,148.03911
2516000000,-16.780172,7.8696332,-34.660454,-7.2840962,-29.137335,-17.766537,-31.673367,1.3116096,-34.757355,-6.9761262,-12.239116,-179.85878,-40.485092,26.44895,-40.323566,-174.41368,-29.0865,-17.625957,-40.433475,26.221151,-14.109316,12.535421,-41.054802,-52.541801,-31.724541,1.2275753,-40.31287,-174.03189,-41.131016,-52.481613,-16.663652,147.59315
2516500000,-16.832273,7.8075519,-34.731609,-8.0004416,-29.150639,-18.932381,-31.652609,-0.20700338,-34.819855,-7.6681938,-12.213928,-179.97957,-40.575031,25.649069,-40.606178,-176.11766,-29.0987,-18.768963,-40.522179,25.431425,-14.066201,12.090566,-40.905865,-54.789459,-31.703836,-0.29115579,-40.594208,-175.79178,-40.989162,-54.793926,-16.672422,147.19048
2517000000,-16.882744,7.8216476,-34.800209,-8.5684729,-29.162338,-20.080326,-31.644163,-1.7108569,-34.8825,-8.2052536,-12.189537,179.88629,-40.680241,24.951708,-40.881519,-177.59305,-29.10701,-19.90118,-40.632057,24.717649,-14.024211,11.646448,-40.795063,-57.181263,-31.696623,-1.8068173,-40.86908,-177.31418,-40.879883,-57.232162,-16.679142,146.77173
2517500000,-16.934082,7.9032369,-34.859623,-9.0809727,-29.182077,-21.138264,-31.649384,-3.2118187,-34.932537,-8.7162132,-12.162436,179.76401,-40.831856,24.520994,-41.14978,-178.97089,-29.122669,-20.951494,-40.786285,24.215788,-13.982824,11.218321,-40.723427,-59.545288,-31.699604,-3.3087409,-41.135021,-178.74159,-40.817539,-59.627571,-16.683435,146.3461
2518000000,-16.978809,8.0764275,-34.903057,-9.5330505,-29.185905,-22.137066,-31.663795,-4.6881142,-34.965656,-9.163332,-12.135298,179.62354,-40.987545,24.44866,-41.402145,179.79648,-29.124149,-21.973257,-40.945026,24.148136,-13.941684,10.808604,-40.675568,-61.806156,-31.713531,-4.7952676,-41.392509,179.94376,-40.77055,-61.89753,-16.685715,145.92239
2518500000,-17.014969,8.3258238,-34.935925,-10.003824,-29.178131,-23.161564,-31.690409,-6.1211891,-34.987503,-9.6633816,-12.108679,179.47499,-41.117466,24.619024,-41.641666,178.5735,-29.116795,-22.995274,-41.083496,24.300255,-13.89924,10.414775,-40.639645,-63.999889,-31.736685,-6.2332654,-41.636349,178.72427,-40.736778,-64.088608,-16.68539,145.47078
2519000000,-17.040014,8.6124735,-34.95985,-10.485465,-29.164585,-24.259327,-31.723591,-7.4825191,-35.004753,-10.156651,-12.080749,179.32834,-41.240211,24.923969,-41.863876,177.40106,-29.101986,-24.106115,-41.212883,24.644352,-13.855433,10.031915,-40.606289,-66.221748,-31.772345,-7.610394,-41.870667,177.50223,-40.710079,-66.284813,-16.683222,145.0024
2519500000,-17.051514,8.9280081,-34.976727,-10.984793,-29.153915,-25.410103,-31.757536,-8.7447596,-35.016022,-10.696432,-12.053812,179.17207,-41.353271,25.503033,-42.083752,176.27066,-29.090052,-25.268564,-41.325905,25.232716,-13.808073,9.6524515,-40.58588,-68.407555,-31.809877,-8.886055,-42.097519,176.36421,-40.685894,-68.448723,-16.679976,144.53256
2520000000,-17.052017,9.2406168,-34.991486,-11.497995,-29.147844,-26.59757,-31.78595,-9.9656315,-35.026142,-11.261224,-12.027972,179.00513,-41.427029,26.243238,-42.303524,175.25832,-29.084555,-26.458624,-41.400814,26.039871,-13.759792,9.2729568,-40.575279,-70.605095,-31.838938,-10.125645,-42.330677,175.33919,-40.672787,-70.686226,-16.676403,144.04021
2520500000,-17.042624,9.5443497,-35.002632,-11.995052,-29.14604,-27.787966,-31.809175,-11.194966,-35.035683,-11.792542,-12.00005,178.84587,-41.462368,27.117777,-42.510601,174.38536,-29.083723,-27.648312,-41.438141,26.896889,-13.709952,8.8903456,-40.579525,-72.842705,-31.863365,-11.36671,-42.540939,174.47827,-40.677895,-72.920906,-16.67305,143.53168
2521000000,-17.026682,9.8312817,-35.005215,-12.430496,-29.147177,-28.967913,-31.832041,-12.445993,-35.036892,-12.290307,-11.975161,178.65761,-41.459396,28.014111,-42.688316,173.6232,-29.08662,-28.823877,-41.427139,27.804783,-13.658468,8.4965057,-40.59581,-75.029228,-31.885061,-12.638353,-42.716198,173.71802,-40.698326,-75.18306,-16.670494,143.0079
2521500000,-16.999517,10.103152,-34.993919,-12.871669,-29.147598,-30.144169,-31.85257,-13.711942,-35.028366,-12.790942,-11.948897,178.46619,-41.420715,28.847786,-42.82803,172.90508,-29.086809,-29.986437,-41.385155,28.703369,-13.605927,8.0801954,-40.612328,-77.228973,-31.907148,-13.906152,-42.857918,173.09532,-40.715466,-77.345657,-16.672298,142.46486
2522000000,-16.964064,10.353728,-34.96513,-13.299085,-29.146151,-31.356237,-31.875517,-15.030458,-35.001614,-13.263724,-11.922769,178.25974,-41.351704,29.671606,-42.933651,172.04558,-29.082689,-31.193365,-41.31218,29.574152,-13.553517,7.6507607,-40.6376,-79.51841,-31.935814,-15.237038,-42.954105,172.30714,-40.74511,-79.687737,-16.67771,141.91209
2522500000,-16.920898,10.585758,-34.913567,-13.81673,-29.147673,-32.583378,-31.905909,-16.391521,-34.956154,-13.829319,-11.89894,178.03763,-41.238613,30.360666,-43.003845,171.08681,-29.0811,-32.406334,-41.194622,30.241251,-13.504489,7.2051511,-40.686596,-81.842392,-31.969482,-16.579973,-43.016266,171.34166,-40.802475,-81.999611,-16.686764,141.36371
2523000000,-16.867517,10.789414,-34.857204,-14.510496,-29.148729,-33.822395,-31.944839,-17.793791,-34.904922,-14.542377,-11.8771,177.7999,-41.112137,30.795881,-43.044865,169.84366,-29.077108,-33.647732,-41.070278,30.673174,-13.455949,6.7567821,-40.747868,-84.133774,-32.012066,-17.986628,-43.050434,170.07149,-40.864719,-84.335342,-16.698008,140.82851
2523500000,-16.806601,10.9685,-34.806854,-15.33086,-29.148979,-35.109665,-32.003826,-19.211853,-34.858479,-15.349845,-11.856607,177.56732,-40.975536,31.138607,-43.090923,168.32422,-29.075741,-34.949532,-40.939068,30.998917,-13.409385,6.3030982,-40.832355,-86.494232,-32.071602,-19.389664,-43.083111,168.49309,-40.956844,-86.725182,-16.712053,140.3235
2524000000,-16.740808,11.107059,-34.763481,-16.178112,-29.15493,-36.431637,-32.081253,-20.583052,-34.819916,-16.222866,-11.840232,177.31818,-40.83403,31.339409,-43.146561,166.60948,-29.076731,-36.297123,-40.790745,31.1975,-13.365956,5.8467011,-40.945786,-88.87822,-32.149982,-20.759483,-43.145195,166.63937,-41.075825,-89.092239,-16.727449,139.81752
2524500000,-16.672306,11.202629,-34.718998,-17.05369,-29.163979,-37.785572,-32.172253,-21.891279,-34.783104,-17.098894,-11.824777,177.07021,-40.684971,31.290964,-43.217987,164.74939,-29.085754,-37.68161,-40.642258,31.138145,-13.321884,5.3990169,-41.093529,-91.176949,-32.241005,-22.051237,-43.230766,164.68275,-41.229847,-91.355148,-16.74556,139.34659
2525000000,-16.591286,11.275259,-34.67598,-18.003798,-29.181992,-39.176052,-32.274712,-23.114361,-34.745274,-18.022657,-11.811005,176.81691,-40.557732,31.033495,-43.297939,162.70311,-29.10178,-39.116718,-40.516289,30.893633,-13.277877,4.9538054,-41.26144,-93.322372,-32.341354,-23.282278,-43.330704,162.60945,-41.40443,-93.478676,-16.765219,138.89494
2525500000,-16.507925,11.279548,-34.644485,-19.012808,-29.202896,-40.579296,-32.390984,-24.256014,-34.717194,-19.015099,-11.800259,176.56882,-40.453495,30.922691,-43.406071,160.46548,-29.123442,-40.556252,-40.41531,30.808401,-13.232159,4.4929891,-41.444332,-95.345612,-32.458744,-24.427771,-43.457672,160.42311,-41.592327,-95.494766,-16.783867,138.46915
2526000000,-16.420397,11.215253,-34.612396,-19.976938,-29.231571,-42.046803,-32.518616,-25.267921,-34.686752,-19.976288,-11.792137,176.3082,-40.322735,30.674974,-43.555214,158.28265,-29.155497,-42.081005,-40.289757,30.560671,-13.192363,4.0205746,-41.660076,-97.26915,-32.585346,-25.443773,-43.623577,158.24245,-41.81208,-97.349892,-16.801882,138.07518
2526500000,-16.326612,11.077043,-34.575504,-21.040714,-29.271452,-43.534084,-32.654366,-26.130522,-34.653343,-21.012941,-11.786925,176.05199,-40.218132,30.314194,-43.724842,156.13689,-29.202728,-43.587521,-40.182457,30.21517,-13.155547,3.5614264,-41.889065,-98.904907,-32.72234,-26.294861,-43.80196,156.1666,-42.037025,-98.913116,-16.819159,137.68228
2527000000,-16.231218,10.852153,-34.54538,-22.198936,-29.326336,-45.020966,-32.794659,-26.797527,-34.629448,-22.139105,-11.784413,175.79837,-40.140545,29.933239,-43.901669,154.11034,-29.260542,-45.095638,-40.097118,29.828344,-13.120893,3.1162865,-42.109711,-100.42968,-32.864628,-26.962147,-43.994781,154.17252,-42.260967,-100.33911,-16.83386,137.3132
