!CSV A.01.01
!Keysight Technologies,N5222B,MY58422327,A.13.60.06
!Date: Monday, March 28, 2022 15:49:32
!Source: Standard

BEGIN CH1_DATA
Freq(Hz),S11(DB),S11(DEG),S12(DB),S12(DEG),S13(DB),S13(DEG),S14(DB),S14(DEG),S21(DB),S21(DEG),S22(DB),S22(DEG),S23(DB),S23(DEG),S24(DB),S24(DEG),S31(DB),S31(DEG),S32(DB),S32(DEG),S33(DB),S33(DEG),S34(DB),S34(DEG),S41(DB),S41(DEG),S42(DB),S42(DEG),S43(DB),S43(DEG),S44(DB),S44(DEG)
2500000000,-16.638762,21.494968,-32.112934,24.899937,-30.704405,11.358978,-31.925144,28.053293,-32.122047,24.689413,-13.071647,-175.05875,-37.929676,37.591393,-37.650166,-100.18209,-30.697287,11.275902,-37.855419,37.407928,-15.689928,28.35483,-42.84063,-56.959709,-32.000763,27.576405,-37.67136,-100.04726,-42.848297,-57.173157,-16.656267,163.80263
2500500000,-16.633698,21.063728,-32.194603,23.516123,-30.699413,10.69294,-31.997412,26.880495,-32.199577,23.311838,-13.033845,-175.2347,-38.003868,36.592655,-37.617214,-101.84393,-30.687176,10.630307,-37.935154,36.432133,-15.645062,27.767839,-43.141087,-56.782845,-32.079643,26.447147,-37.623734,-101.61968,-43.168522,-57.166538,-16.650372,163.45253
2501000000,-16.627382,20.656927,-32.288479,22.141918,-30.69364,10.0681,-32.078033,25.774786,-32.291962,21.952991,-12.994624,-175.39461,-38.091873,35.567112,-37.579609,-103.548,-30.675282,9.9832125,-38.025051,35.438244,-15.60019,27.195827,-43.383087,-56.694321,-32.165398,25.378292,-37.56715,-103.32912,-43.442665,-57.209023,-16.643604,163.09283
2501500000,-16.61739,20.271965,-32.380383,20.874409,-30.686155,9.5111237,-32.159729,24.784094,-32.381191,20.678747,-12.95845,-175.56648,-38.192013,34.62402,-37.548378,-105.27464,-30.666437,9.4041624,-38.127018,34.541313,-15.556673,26.63401,-43.61591,-56.672749,-32.24987,24.453768,-37.519466,-105.08251,-43.700825,-57.26796,-16.63452,162.7336
2502000000,-16.607925,19.872839,-32.473621,19.627373,-30.672291,8.9922409,-32.24255,23.855597,-32.469036,19.432659,-12.923417,-175.73245,-38.294537,33.767536,-37.507355,-106.93385,-30.650434,8.8451519,-38.23349,33.716866,-15.5142,26.09548,-43.84201,-56.903133,-32.332794,23.572533,-37.469513,-106.82278,-43.959003,-57.517941,-16.624344,162.36333
2502500000,-16.593321,19.488989,-32.570881,18.420467,-30.656105,8.4741392,-32.321739,23.027466,-32.561832,18.214806,-12.887635,-175.89644,-38.391178,32.975151,-37.455406,-108.58958,-30.634598,8.2963219,-38.328247,32.937859,-15.473106,25.573111,-44.100372,-57.252575,-32.412201,22.796183,-37.415909,-108.55437,-44.238377,-57.820839,-16.613535,161.9707
2503000000,-16.573652,19.09617,-32.665695,17.294189,-30.638798,8.0181799,-32.395775,22.270138,-32.650867,17.074526,-12.85505,-176.08263,-38.486988,32.223686,-37.398548,-110.29452,-30.618855,7.8045945,-38.425999,32.199436,-15.431159,25.075821,-44.400288,-57.634933,-32.48753,22.061268,-37.354183,-110.33713,-44.563644,-58.029423,-16.601488,161.5712
2503500000,-16.555094,18.679789,-32.751331,16.189646,-30.616953,7.6497359,-32.466427,21.586157,-32.732128,15.942513,-12.823256,-176.26892,-38.575756,31.434378,-37.321964,-112.03067,-30.599575,7.3927388,-38.511799,31.406389,-15.388824,24.593136,-44.749477,-57.643669,-32.558464,21.426004,-37.283329,-112.10627,-44.940464,-57.865665,-16.589304,161.15845
2504000000,-16.530745,18.248529,-32.83564,15.099494,-30.578188,7.3611946,-32.533192,20.976482,-32.812511,14.821789,-12.791787,-176.45035,-38.659363,30.614405,-37.231632,-113.87656,-30.565714,7.0768008,-38.596195,30.586803,-15.345169,24.131298,-45.120804,-57.247925,-32.622478,20.860384,-37.195934,-113.97269,-45.312126,-57.224026,-16.576836,160.71532
2504500000,-16.504671,17.801264,-32.915398,14.031808,-30.514999,7.1069088,-32.591652,20.448061,-32.88966,13.713218,-12.763229,-176.64485,-38.75341,29.634003,-37.122498,-115.85385,-30.507927,6.7851596,-38.692848,29.609068,-15.299233,23.68927,-45.49873,-56.326683,-32.674679,20.379185,-37.093887,-115.98531,-45.700294,-56.043053,-16.561584,160.26974
2505000000,-16.474045,17.342232,-32.990685,12.938789,-30.430363,6.8089466,-32.633011,19.994415,-32.960419,12.59106,-12.737913,-176.84694,-38.866127,28.691002,-37.008144,-118.02452,-30.428988,6.4601789,-38.808891,28.671751,-15.251195,23.240211,-45.87862,-54.806213,-32.709263,19.943913,-36.985432,-118.17906,-46.053658,-54.366756,-16.548267,159.78001
2505500000,-16.443163,16.846441,-33.067142,11.877215,-30.32103,6.4178872,-32.663006,19.554899,-33.032532,11.475255,-12.713098,-177.03754,-39.000702,27.714985,-36.89529,-120.45296,-30.328815,6.0765204,-38.947742,27.724865,-15.200776,22.795025,-46.181068,-52.583401,-32.731667,19.541382,-36.878681,-120.58675,-46.328972,-52.009762,-16.534683,159.27562
2506000000,-16.412762,16.325008,-33.136131,10.759204,-30.198065,5.8999577,-32.679699,19.135292,-33.103153,10.307015,-12.691356,-177.23276,-39.153759,26.742826,-36.78878,-123.11218,-30.215528,5.5395546,-39.104118,26.821074,-15.149081,22.356358,-46.400105,-49.84697,-32.740009,19.101955,-36.773586,-123.24097,-46.520699,-49.279545,-16.521517,158.73584
2506500000,-16.384012,15.784286,-33.214314,9.5951385,-30.068146,5.2359576,-32.680733,18.764217,-33.18272,9.0756359,-12.672696,-177.43257,-39.339458,25.872643,-36.705845,-126.02032,-30.092093,4.9147811,-39.291061,26.000353,-15.096016,21.913027,-46.50333,-46.875484,-32.733891,18.711931,-36.691784,-126.12862,-46.602364,-46.357121,-16.509655,158.17633
2507000000,-16.361444,15.224926,-33.304726,8.4708052,-29.933405,4.4213638,-32.6604,18.354506,-33.276764,7.8987818,-12.654672,-177.60619,-39.562767,25.242464,-36.652905,-129.16389,-29.962473,4.1129842,-39.514332,25.411467,-15.040616,21.468689,-46.473637,-43.866535,-32.708218,18.238956,-36.645557,-129.23953,-46.5592,-43.421467,-16.50173,157.58681
2507500000,-16.337278,14.684094,-33.400017,7.3921556,-29.803823,3.4381664,-32.627926,17.854366,-33.377705,6.7586517,-12.639834,-177.77776,-39.796551,24.919849,-36.64489,-132.42374,-29.838423,3.184623,-39.747837,25.142729,-14.982756,21.02276,-46.322674,-41.077957,-32.674862,17.696558,-36.634689,-132.47179,-46.403996,-40.712185,-16.497034,156.98608
2508000000,-16.319149,14.118271,-33.499737,6.3478961,-29.683355,2.3423924,-32.592232,17.273687,-33.484039,5.6747189,-12.624619,-177.92442,-40.023445,24.963396,-36.676041,-135.71892,-29.724392,2.1365666,-39.969173,25.231413,-14.926331,20.574322,-46.074207,-38.798656,-32.639069,17.092487,-36.666222,-135.74008,-46.159035,-38.483444,-16.495401,156.37361
2508500000,-16.305372,13.550239,-33.601196,5.3940487,-29.577415,1.1519831,-32.555805,16.66556,-33.596966,4.7010102,-12.608289,-178.04555,-40.232601,25.288525,-36.745701,-138.98347,-29.61924,1.0139067,-40.167328,25.667873,-14.865733,20.125212,-45.781654,-37.137894,-32.602108,16.460127,-36.731491,-139.01958,-45.863239,-36.829796,-16.49711,155.75014
2509000000,-16.301224,12.964802,-33.702568,4.4895835,-29.480873,-0.085042559,-32.512539,16.055624,-33.706455,3.7945945,-12.593436,-178.17311,-40.401882,25.910585,-36.850197,-142.19284,-29.524153,-0.16770433,-40.325443,26.341173,-14.804702,19.67366,-45.480999,-35.913345,-32.561096,15.84258,-36.832874,-142.19539,-45.544224,-35.601536,-16.501066,155.13474
2509500000,-16.303717,12.398299,-33.800911,3.6625555,-29.39962,-1.3632574,-32.46048,15.424157,-33.816452,2.9935424,-12.574752,-178.28482,-40.529083,26.644087,-36.985958,-145.31175,-29.43841,-1.3999041,-40.43103,27.167997,-14.741796,19.212399,-45.162132,-34.962257,-32.509068,15.204071,-36.962151,-145.29008,-45.217003,-34.700027,-16.507874,154.51872
2510000000,-16.318647,11.84678,-33.895786,2.8923724,-29.328075,-2.676836,-32.396637,14.72755,-33.921875,2.2387447,-12.553467,-178.38176,-40.61623,27.497465,-37.138344,-148.33008,-29.358477,-2.68362,-40.484398,28.047321,-14.677803,18.739056,-44.817875,-34.370686,-32.445568,14.507919,-37.108681,-148.27048,-44.869713,-34.176128,-16.518106,153.8981
2510500000,-16.344671,11.319671,-33.988213,2.1713681,-29.265148,-4.0125985,-32.326466,13.935603,-34.024719,1.6120415,-12.532116,-178.49005,-40.651806,28.345074,-37.305943,-151.22031,-29.290518,-4.0006042,-40.494038,28.844191,-14.614601,18.246529,-44.464462,-34.08025,-32.375931,13.708561,-37.272423,-151.2059,-44.50919,-34.047329,-16.529099,153.31416
2511000000,-16.373394,10.852563,-34.074444,1.5366619,-29.214401,-5.3618913,-32.257542,13.039496,-34.107697,1.0973742,-12.508921,-178.59314,-40.634506,29.189449,-37.482822,-154.03676,-29.234655,-5.3304119,-40.459362,29.540483,-14.551114,17.734337,-44.089706,-34.155418,-32.306137,12.80775,-37.443111,-154.05931,-44.142803,-34.245502,-16.542496,152.72151
2511500000,-16.405128,10.434487,-34.142506,0.98050165,-29.173481,-6.6901631,-32.193077,12.1078,-34.166801,0.64335674,-12.484083,-178.6881,-40.570999,29.842121,-37.682537,-156.82863,-29.190861,-6.6760755,-40.379044,30.009109,-14.490214,17.201468,-43.724903,-34.650692,-32.243019,11.857563,-37.634796,-156.91907,-43.77673,-34.866169,-16.559504,152.14757
2512000000,-16.439123,10.057514,-34.191273,0.4244515,-29.133757,-8.0024071,-32.131664,11.165356,-34.202526,0.16184913,-12.458378,-178.8031,-40.470337,30.247623,-37.899929,-159.53772,-29.148544,-8.0121975,-40.283955,30.207527,-14.436483,16.640293,-43.381828,-35.514664,-32.184162,10.887219,-37.849903,-159.6796,-43.4468,-35.926147,-16.579161,151.59435
2512500000,-16.470995,9.7095404,-34.228077,-0.18231365,-29.110649,-9.3519869,-32.065067,10.209099,-34.217926,-0.43514803,-12.433074,-178.92067,-40.357445,30.427315,-38.13409,-162.16833,-29.125917,-9.3652887,-40.177982,30.184765,-14.385706,16.100534,-43.07135,-36.51395,-32.125523,9.9099159,-38.085312,-162.40019,-43.155212,-37.04044,-16.59841,151.07828
2513000000,-16.500893,9.3814182,-34.25708,-0.82359952,-29.090677,-10.655301,-31.99519,9.212781,-34.228176,-1.1279559,-12.406797,-179.03406,-40.22366,30.22633,-38.385986,-164.63463,-29.108503,-10.66856,-40.055882,29.858189,-14.339993,15.562566,-42.770657,-37.763107,-32.059772,8.9249907,-38.337505,-164.97722,-42.882839,-38.383621,-16.617064,150.5723
2513500000,-16.530771,9.0664864,-34.273945,-1.5715709,-29.076292,-11.944744,-31.919563,8.1303988,-34.237583,-1.9646425,-12.381485,-179.15125,-40.096535,29.736591,-38.645184,-166.95592,-29.094975,-11.946314,-39.945152,29.232414,-14.29792,15.038916,-42.490101,-39.211441,-31.989685,7.8595166,-38.604759,-167.37784,-42.626263,-39.845234,-16.63595,150.08295
2514000000,-16.564079,8.7487736,-34.295517,-2.3837459,-29.063805,-13.224765,-31.845253,6.9651976,-34.25341,-2.8668921,-12.355381,-179.26904,-39.995895,28.875937,-38.9002,-169.13841,-29.083576,-13.19823,-39.866077,28.35796,-14.255849,14.541791,-42.220646,-40.821846,-31.91643,6.7131023,-38.876804,-169.62257,-42.394909,-41.412685,-16.655621,149.59903
2514500000,-16.597221,8.4588041,-34.324711,-3.2651281,-29.054113,-14.506451,-31.77306,5.7096739,-34.282654,-3.8390014,-12.329834,-179.39099,-39.936253,27.830307,-39.16573,-171.25719,-29.077675,-14.455424,-39.824459,27.299011,-14.216226,14.054711,-41.969135,-42.622868,-31.845438,5.4860573,-39.153778,-171.79958,-42.174393,-43.06778,-16.673597,149.1523
2515000000,-16.63352,8.1910391,-34.36425,-4.1381168,-29.0515,-15.782456,-31.7068,4.3602424,-34.329041,-4.7744002,-12.304392,-179.50998,-39.918392,26.804052,-39.434387,-173.21104,-29.076107,-15.694959,-39.817276,26.281246,-14.176767,13.58645,-41.754116,-44.618839,-31.780365,4.1672997,-39.442493,-173.7948,-41.98333,-44.880543,-16.689272,148.72189
2515500000,-16.676577,7.9495883,-34.403736,-5.0002503,-29.055059,-17.051542,-31.650183,2.9563963,-34.372787,-5.6743069,-12.278931,-179.63206,-39.924236,25.813887,-39.694675,-175.07837,-29.080055,-16.917196,-39.834755,25.262409,-14.13613,13.132955,-41.577099,-46.641781,-31.723772,2.7802813,-39.720734,-175.67323,-41.814251,-46.686859,-16.701742,148.31142
2516000000,-16.726912,7.7536521,-34.452156,-5.8714762,-29.06608,-18.289017,-31.604893,1.4654161,-34.423141,-6.5890055,-12.251637,-179.74336,-39.952503,24.814505,-39.96254,-176.94803,-29.08777,-18.096306,-39.876064,24.230526,-14.094382,12.689238,-41.409275,-48.678898,-31.674711,1.2986872,-40.005913,-177.4922,-41.651329,-48.519188,-16.712139,147.88261
2516500000,-16.780373,7.6512003,-34.512691,-6.6870685,-29.081108,-19.476471,-31.574789,-0.085174017,-34.487576,-7.4232607,-12.224013,-179.86182,-40.011589,23.836933,-40.243916,-178.65115,-29.097115,-19.240475,-39.944977,23.250526,-14.051969,12.242168,-41.260536,-50.826672,-31.641605,-0.23095164,-40.304443,-179.11935,-41.490688,-50.42881,-16.718031,147.49422
2517000000,-16.834808,7.6303697,-34.573162,-7.3372188,-29.095055,-20.636042,-31.560783,-1.6426204,-34.549992,-8.1101913,-12.196752,-179.99771,-40.089554,22.870369,-40.521599,179.8439,-29.101286,-20.355722,-40.040665,22.306019,-14.011007,11.802526,-41.139187,-53.065163,-31.628229,-1.7810668,-40.592464,179.46883,-41.357548,-52.506153,-16.72233,147.08807
2517500000,-16.891676,7.6912642,-34.624645,-7.9597464,-29.11307,-21.711582,-31.563189,-3.1976297,-34.604034,-8.7512455,-12.167027,179.87585,-40.218777,22.087397,-40.787689,178.43388,-29.110121,-21.428534,-40.188213,21.543741,-13.969668,11.383245,-41.049488,-55.277233,-31.62652,-3.3391435,-40.867668,178.14899,-41.246067,-54.586441,-16.723742,146.67044
2518000000,-16.941706,7.8508272,-34.660519,-8.5260534,-29.12204,-22.74436,-31.581589,-4.7325296,-34.643101,-9.3446302,-12.137465,179.72789,-40.355083,21.580734,-41.0415,177.13623,-29.108475,-22.459415,-40.345863,21.142958,-13.928233,10.977761,-40.975899,-57.40453,-31.644749,-4.8669033,-41.128456,177.02194,-41.148533,-56.628811,-16.723045,146.24989
2518500000,-16.98328,8.0930529,-34.687366,-9.1113367,-29.11792,-23.766478,-31.616377,-6.1977868,-34.675053,-9.9567633,-12.108316,179.57047,-40.483269,21.266636,-41.280483,175.89284,-29.096952,-23.517212,-40.488911,21.027765,-13.885642,10.593067,-40.914345,-59.472454,-31.673832,-6.3267932,-41.370403,175.96013,-41.05891,-58.679913,-16.72039,145.79523
2519000000,-17.012951,8.3858032,-34.706635,-9.6650972,-29.110756,-24.840666,-31.660196,-7.5626564,-34.697067,-10.590305,-12.078505,179.41521,-40.619141,21.101732,-41.511616,174.68291,-29.083261,-24.633871,-40.629177,20.996893,-13.840962,10.219145,-40.846344,-61.549778,-31.716726,-7.6986361,-41.592243,174.87808,-40.964966,-60.831394,-16.716171,145.32536
2519500000,-17.028259,8.7082748,-34.715618,-10.262189,-29.101307,-25.947191,-31.704031,-8.8277464,-34.71381,-11.227512,-12.049844,179.24626,-40.757561,21.256863,-41.739326,173.59451,-29.069017,-25.798437,-40.765511,21.270111,-13.792337,9.8472977,-40.793186,-63.708897,-31.758791,-8.9658222,-41.808662,173.85199,-40.893204,-63.04932,-16.711481,144.84891
2520000000,-17.032314,9.02596,-34.721836,-10.888086,-29.095098,-27.102919,-31.741673,-10.006188,-34.730667,-11.887954,-12.023031,179.06496,-40.875664,21.591541,-41.968414,172.53706,-29.060705,-27.000847,-40.874714,21.804667,-13.741867,9.4752131,-40.749767,-65.9375,-31.795135,-10.159739,-42.022446,172.94473,-40.832264,-65.344643,-16.707951,144.35471
2520500000,-17.026693,9.3366823,-34.728664,-11.501217,-29.089405,-28.245617,-31.771656,-11.186292,-34.749878,-12.526519,-11.994152,178.89178,-40.958027,22.153862,-42.18293,171.70142,-29.055391,-28.20396,-40.948154,22.465904,-13.690063,9.0911636,-40.725197,-68.200493,-31.824348,-11.354444,-42.21846,172.14063,-40.801266,-67.743256,-16.70528,143.84976
2521000000,-17.01379,9.6354895,-34.725262,-12.098285,-29.083153,-29.4053,-31.798504,-12.370853,-34.762695,-13.146232,-11.968689,178.68692,-40.998508,22.810984,-42.371704,170.99677,-29.054304,-29.422991,-40.977791,23.190042,-13.636044,8.6940107,-40.720676,-70.426353,-31.851591,-12.548746,-42.394024,171.41545,-40.791031,-70.080795,-16.702986,143.34021
2521500000,-16.990189,9.9193068,-34.714443,-12.701123,-29.075005,-30.577633,-31.820715,-13.550904,-34.77084,-13.750938,-11.942449,178.47876,-41.011425,23.418596,-42.520634,170.35631,-29.053339,-30.63788,-40.969547,23.864054,-13.582178,8.2704515,-40.719063,-72.629364,-31.874004,-13.74877,-42.528385,170.75792,-40.79274,-72.408089,-16.703812,142.81587
2522000000,-16.958261,10.187525,-34.695766,-13.329871,-29.065496,-31.790556,-31.842659,-14.793854,-34.771671,-14.310875,-11.916684,178.25748,-40.99984,24.030434,-42.617077,169.57794,-29.05048,-31.875193,-40.93359,24.501678,-13.528359,7.8375978,-40.731434,-74.953995,-31.898699,-15.004045,-42.618286,170.00952,-40.810822,-74.769585,-16.708164,142.28494
2522500000,-16.919136,10.442361,-34.664055,-13.98607,-29.057938,-33.034809,-31.868011,-16.082146,-34.755531,-14.867481,-11.893758,178.0188,-40.946514,24.591358,-42.684395,168.67271,-29.049891,-33.15675,-40.855335,25.032564,-13.478438,7.3885016,-40.769344,-77.282501,-31.925968,-16.293978,-42.673416,169.08093,-40.865444,-77.143745,-16.714436,141.75583
2523000000,-16.86784,10.676658,-34.629112,-14.753316,-29.048206,-34.327423,-31.90464,-17.410503,-34.726231,-15.536237,-11.87378,177.76984,-40.874649,24.937084,-42.731236,167.47679,-29.051802,-34.441189,-40.769909,25.304594,-13.428226,6.9375448,-40.823105,-79.610527,-31.961416,-17.635288,-42.710453,167.86978,-40.920952,-79.462479,-16.722425,141.23996
2523500000,-16.80755,10.885542,-34.594276,-15.593496,-29.043306,-35.694256,-31.957661,-18.768578,-34.699314,-16.269487,-11.854853,177.52969,-40.800911,25.1917,-42.785389,166.02736,-29.055861,-35.77779,-40.683102,25.450001,-13.380085,6.4811668,-40.90242,-81.926994,-32.015114,-19.000338,-42.745995,166.40118,-41.001167,-81.799545,-16.731318,140.74637
2524000000,-16.741423,11.061805,-34.563862,-16.449286,-29.047539,-37.093929,-32.028786,-20.082808,-34.669334,-17.031775,-11.840296,177.27731,-40.719997,25.322992,-42.854019,164.35172,-29.067696,-37.138969,-40.595646,25.485668,-13.33494,6.0184875,-41.013474,-84.197411,-32.086555,-20.320883,-42.791325,164.6839,-41.115467,-84.057877,-16.742018,140.24628
2524500000,-16.671289,11.190338,-34.531548,-17.333256,-29.058336,-38.535439,-32.11367,-21.311106,-34.638763,-17.811905,-11.826584,177.02618,-40.636074,25.32164,-42.937958,162.62593,-29.083261,-38.523853,-40.507645,25.394672,-13.289186,5.5603189,-41.155998,-86.311516,-32.173233,-21.560448,-42.865253,162.85309,-41.251465,-86.154213,-16.754801,139.77139
2525000000,-16.58684,11.29457,-34.498924,-18.279331,-29.076008,-39.996719,-32.205704,-22.463772,-34.59626,-18.652235,-11.814804,176.77412,-40.570019,25.131592,-43.027332,160.78766,-29.106501,-39.937519,-40.443916,25.085968,-13.243756,5.1049685,-41.309689,-88.210434,-32.268448,-22.730665,-42.948578,160.92123,-41.402134,-88.071777,-16.769691,139.30774
2525500000,-16.498377,11.320223,-34.47654,-19.281864,-29.10235,-41.469173,-32.311165,-23.534849,-34.562523,-19.613987,-11.805532,176.53026,-40.536255,25.145407,-43.143116,158.80798,-29.130024,-41.348217,-40.403576,25.022465,-13.197069,4.6321082,-41.454948,-90.017471,-32.376236,-23.805714,-43.066322,158.84163,-41.549,-89.856026,-16.784126,138.86703
2526000000,-16.404356,11.263865,-34.453247,-20.262291,-29.134306,-43.005318,-32.424953,-24.465973,-34.527439,-20.546457,-11.798513,176.27303,-40.470364,25.101959,-43.28896,156.85568,-29.161232,-42.821327,-40.347694,24.870768,-13.156551,4.1488171,-41.623486,-91.709183,-32.493256,-24.735529,-43.212914,156.8667,-41.713112,-91.598145,-16.798958,138.4509
2526500000,-16.304581,11.12171,-34.42873,-21.309673,-29.181149,-44.549778,-32.545383,-25.250828,-34.491039,-21.595638,-11.794043,176.02043,-40.421646,24.966368,-43.436119,155.00795,-29.203074,-44.318718,-40.309101,24.674475,-13.119545,3.6813362,-41.793743,-93.180786,-32.614204,-25.520834,-43.363724,154.90637,-41.874573,-93.150581,-16.814142,138.03572
2527000000,-16.203899,10.876309,-34.413013,-22.41782,-29.243532,-46.093204,-32.669304,-25.845493,-34.466461,-22.743776,-11.792749,175.76967,-40.390186,24.885582,-43.595978,153.17264,-29.257727,-45.829762,-40.288944,24.520605,-13.083657,3.2299893,-41.958031,-94.559921,-32.737988,-26.104084,-43.522701,153.0488,-42.039894,-94.558502,-16.827765,137.64822
