!CSV A.01.01
!Keysight Technologies,N5222B,MY58422327,A.13.60.06
!Date: Monday, March 28, 2022 16:14:11
!Source: Standard

BEGIN CH1_DATA
Freq(Hz),S11(DB),S11(DEG),S12(DB),S12(DEG),S13(DB),S13(DEG),S14(DB),S14(DEG),S21(DB),S21(DEG),S22(DB),S22(DEG),S23(DB),S23(DEG),S24(DB),S24(DEG),S31(DB),S31(DEG),S32(DB),S32(DEG),S33(DB),S33(DEG),S34(DB),S34(DEG),S41(DB),S41(DEG),S42(DB),S42(DEG),S43(DB),S43(DEG),S44(DB),S44(DEG)
2500000000,-17.292278,24.94953,-37.1959,27.497118,-34.126545,25.458111,-32.100258,6.6086617,-37.244102,27.265121,-13.100677,-174.29288,-38.064754,13.446486,-43.443787,-88.290695,-34.081985,25.430355,-37.971195,13.497744,-15.673529,27.705849,-34.865002,-17.927904,-32.138325,6.3377576,-43.396885,-88.295448,-34.952995,-18.019661,-16.371397,166.54205
2500500000,-17.272791,24.610712,-37.335152,26.421144,-34.025902,24.375242,-32.165142,5.38518,-37.384289,26.165443,-13.06203,-174.47981,-38.125008,11.734764,-43.323879,-91.104271,-33.988045,24.305395,-38.028645,11.795351,-15.613964,27.127604,-34.868271,-18.750282,-32.20945,5.1551247,-43.276169,-91.075691,-34.961758,-18.827188,-16.360495,166.16153
2501000000,-17.249834,24.282928,-37.476318,25.428907,-33.934566,23.295696,-32.241383,4.2631655,-37.531555,25.168755,-13.022793,-174.64949,-38.209137,9.9589224,-43.238766,-94.005875,-33.904587,23.205198,-38.105942,10.016866,-15.554175,26.542076,-34.872112,-19.683983,-32.289268,4.0244265,-43.181774,-93.931046,-34.96899,-19.768534,-16.34828,165.77739
2501500000,-17.221634,23.96233,-37.595905,24.558357,-33.848991,22.283062,-32.323273,3.2769356,-37.654026,24.288912,-12.986232,-174.83076,-38.315174,8.193388,-43.191162,-96.867065,-33.828896,22.198837,-38.210693,8.2580223,-15.497895,25.943802,-34.88755,-20.659222,-32.373192,3.0536499,-43.117329,-96.761116,-34.983879,-20.730419,-16.333477,165.40105
2502000000,-17.194859,23.607122,-37.702759,23.677868,-33.765041,21.297806,-32.397827,2.3493547,-37.765491,23.433067,-12.951656,-175.00864,-38.444775,6.4844217,-43.147591,-99.606842,-33.752861,21.232927,-38.333572,6.5136719,-15.443797,25.348286,-34.908886,-21.704861,-32.450134,2.1216784,-43.055893,-99.541451,-35.008778,-21.747667,-16.3174,165.00911
2502500000,-17.16466,23.241156,-37.80238,22.786413,-33.682262,20.316614,-32.471806,1.482814,-37.869587,22.566191,-12.917383,-175.17882,-38.584846,4.8355808,-43.103447,-102.20051,-33.677879,20.255091,-38.47192,4.8618941,-15.394631,24.758129,-34.949203,-22.747688,-32.521358,1.2796971,-43.005367,-102.19009,-35.048607,-22.770826,-16.300434,164.59897
2503000000,-17.133314,22.862453,-37.885967,21.931503,-33.609123,19.336248,-32.537384,0.68523473,-37.956951,21.747406,-12.886703,-175.3651,-38.732227,3.2540128,-43.046112,-104.74893,-33.610306,19.298281,-38.619644,3.2463343,-15.347504,24.18092,-35.005695,-23.697872,-32.584518,0.47093076,-42.942398,-104.8105,-35.10387,-23.710058,-16.281935,164.1837
2503500000,-17.107382,22.457945,-37.954838,20.94767,-33.540951,18.426453,-32.596046,-0.097114846,-38.027786,20.818506,-12.857038,-175.53938,-38.882397,1.6936229,-42.967583,-107.18121,-33.546741,18.426685,-38.772648,1.6750052,-15.304702,23.622726,-35.062984,-24.497061,-32.642193,-0.30353126,-42.868015,-107.32533,-35.16169,-24.482401,-16.26244,163.76286
2504000000,-17.079088,22.065149,-38.024227,19.914677,-33.46748,17.580141,-32.650307,-0.86701077,-38.097122,19.833508,-12.8268,-175.70447,-39.036076,0.12037078,-42.852364,-109.62184,-33.478302,17.631262,-38.927273,0.04472588,-15.262981,23.095333,-35.109734,-25.228621,-32.693825,-1.0872656,-42.765911,-109.81119,-35.206371,-25.207355,-16.242205,163.30659
2504500000,-17.049465,21.681297,-38.092979,18.82608,-33.384857,16.756863,-32.703629,-1.6014839,-38.160957,18.792866,-12.799247,-175.8744,-39.20208,-1.5646461,-42.69733,-112.21381,-33.391354,16.869064,-39.094425,-1.6068916,-15.220705,22.594278,-35.147625,-25.872416,-32.74691,-1.8346753,-42.61977,-112.4797,-35.245518,-25.845833,-16.218489,162.84822
2505000000,-17.01354,21.302629,-38.161987,17.624741,-33.293663,15.924262,-32.745041,-2.296906,-38.223286,17.631243,-12.773541,-176.05022,-39.386379,-3.2513409,-42.501564,-115.12151,-33.300392,16.069042,-39.280621,-3.3246191,-15.1777,22.100471,-35.17749,-26.453241,-32.791351,-2.5443649,-42.43792,-115.38271,-35.271194,-26.421602,-16.195337,162.34631
2505500000,-16.975065,20.902279,-38.243832,16.410116,-33.193382,15.027193,-32.786301,-2.9908605,-38.297207,16.414049,-12.748013,-176.2061,-39.596794,-5.0453811,-42.310478,-118.46803,-33.193577,15.200072,-39.494389,-5.0922804,-15.132527,21.617527,-35.181255,-26.993385,-32.833599,-3.2479696,-42.258701,-118.72944,-35.27409,-27.001812,-16.170465,161.82018
2506000000,-16.935326,20.482698,-38.335972,15.099085,-33.087555,14.041663,-32.823345,-3.6573563,-38.381241,15.134377,-12.724111,-176.36124,-39.834126,-6.8177671,-42.127308,-122.16261,-33.085541,14.242196,-39.735439,-6.8651996,-15.087267,21.142166,-35.167282,-27.580133,-32.874519,-3.9376085,-42.078415,-122.36713,-35.261116,-27.593992,-16.145611,161.24892
2506500000,-16.894686,20.053448,-38.445503,13.736655,-32.988766,12.996817,-32.850018,-4.2486835,-38.483871,13.735607,-12.700999,-176.52104,-40.112579,-8.5928507,-41.972435,-126.23756,-32.979721,13.223441,-40.013603,-8.6220121,-15.041352,20.675453,-35.139057,-28.223024,-32.908905,-4.549654,-41.922844,-126.37012,-35.2341,-28.270506,-16.122738,160.64268
2507000000,-16.857491,19.606335,-38.580204,12.433761,-32.884724,11.876421,-32.866734,-4.8521547,-38.613068,12.402389,-12.676841,-176.65454,-40.444382,-10.277368,-41.851997,-130.53377,-32.87344,12.112761,-40.35043,-10.327349,-14.994148,20.214607,-35.10297,-28.966267,-32.928207,-5.1525836,-41.805088,-130.64319,-35.198612,-29.024097,-16.103842,159.99901
2507500000,-16.815723,19.166828,-38.726658,11.210289,-32.792027,10.670361,-32.872307,-5.5278401,-38.753777,11.167152,-12.653513,-176.7961,-40.821491,-11.741224,-41.773197,-135.04424,-32.774513,10.912015,-40.727898,-11.770139,-14.945744,19.765993,-35.062767,-29.830896,-32.935566,-5.8085246,-41.722767,-135.12634,-35.158081,-29.874203,-16.089434,159.33269
2508000000,-16.779106,18.69993,-38.884052,10.075037,-32.712765,9.4003391,-32.881546,-6.2599449,-38.904827,9.9916515,-12.628315,-176.92659,-41.239433,-12.862622,-41.732166,-139.6754,-32.689022,9.6508226,-41.140091,-12.913709,-14.897209,19.32692,-35.025826,-30.812315,-32.942635,-6.548151,-41.690773,-139.74396,-35.122704,-30.851385,-16.079987,158.65401
2508500000,-16.745096,18.223669,-39.045082,9.0218668,-32.646187,8.1230097,-32.889259,-7.0184846,-39.062691,8.9577599,-12.601831,-177.04544,-41.686909,-13.671453,-41.739548,-144.33073,-32.618504,8.3708706,-41.589241,-13.703711,-14.844646,18.898207,-35.000481,-31.854053,-32.950714,-7.3016438,-41.69574,-144.39296,-35.097942,-31.900898,-16.075884,157.96611
2509000000,-16.719019,17.726816,-39.20892,8.0186024,-32.588127,6.8630724,-32.901752,-7.7714233,-39.226463,7.9529171,-12.576744,-177.18433,-42.163715,-14.011458,-41.78915,-149.02303,-32.55603,7.105895,-42.066261,-14.018517,-14.790887,18.471958,-34.990837,-32.906548,-32.966526,-8.0437794,-41.741783,-149.04599,-35.088341,-32.976563,-16.074072,157.28711
2509500000,-16.697725,17.245874,-39.387749,7.0540314,-32.536991,5.6024113,-32.920467,-8.4801455,-39.400883,7.0005159,-12.548695,-177.32254,-42.637783,-13.755039,-41.864323,-153.67412,-32.500462,5.8536468,-42.533005,-13.815539,-14.732961,18.041248,-34.990414,-33.915031,-32.984268,-8.7438259,-41.813885,-153.70505,-35.091976,-34.002293,-16.076017,156.60928
2510000000,-16.685097,16.773607,-39.583126,6.2021446,-32.490887,4.3744483,-32.934315,-9.1249237,-39.593315,6.0911741,-12.519227,-177.4557,-43.086952,-13.035411,-41.962631,-158.27788,-32.451122,4.5889668,-42.989918,-13.10765,-14.674111,17.603474,-34.994846,-34.867607,-32.999565,-9.3820372,-41.911804,-158.28223,-35.099537,-34.970631,-16.082026,155.92633
2510500000,-16.683735,16.300005,-39.799282,5.5268068,-32.451385,3.0901134,-32.940456,-9.704977,-39.810089,5.4039049,-12.491679,-177.60883,-43.518242,-11.820855,-42.081421,-162.84213,-32.409153,3.3060257,-43.418251,-11.875217,-14.614676,17.145018,-34.995869,-35.732864,-33.007603,-9.9604053,-42.022438,-162.90565,-35.103352,-35.841682,-16.08952,155.28065
2511000000,-16.684986,15.868629,-40.021011,5.1779213,-32.423161,1.8526056,-32.934036,-10.270429,-40.028683,4.9956465,-12.464747,-177.75697,-43.882847,-9.9835987,-42.214401,-167.51451,-32.379562,2.0413351,-43.781372,-10.030406,-14.554557,16.672466,-34.987232,-36.583591,-33.004093,-10.506956,-42.161022,-167.51759,-35.100517,-36.675423,-16.101187,154.63927
2511500000,-16.688728,15.466411,-40.216129,5.1559038,-32.403004,0.66770887,-32.919037,-10.811505,-40.220982,4.9386406,-12.437254,-177.89275,-44.158104,-7.8125072,-42.378353,-172.19057,-32.357265,0.81983858,-44.051315,-7.8889394,-14.495774,16.182371,-34.965553,-37.437641,-32.989143,-11.050352,-42.325302,-172.18103,-35.080963,-37.500481,-16.115259,154.01944
2512000000,-16.696108,15.092647,-40.38028,5.3068933,-32.37719,-0.47476223,-32.888725,-11.366437,-40.383789,5.0865045,-12.409552,-178.04016,-44.321045,-5.5140581,-42.574066,-176.79576,-32.332504,-0.33568814,-44.222866,-5.5483098,-14.442756,15.673761,-34.941975,-38.390438,-32.960262,-11.582035,-42.521664,-176.75459,-35.06171,-38.420563,-16.131397,153.42555
2512500000,-16.70158,14.738754,-40.500622,5.5070353,-32.360443,-1.6205384,-32.846817,-11.936415,-40.499386,5.2924676,-12.382214,-178.18979,-44.405396,-3.0484102,-42.78812,178.6627,-32.316483,-1.4754435,-44.30743,-3.079191,-14.390285,15.176317,-34.92094,-39.273773,-32.915886,-12.13024,-42.734306,178.75356,-35.040054,-39.303307,-16.146002,152.86264
2513000000,-16.705521,14.384998,-40.573853,5.75984,-32.336395,-2.7019601,-32.781952,-12.538497,-40.567326,5.548068,-12.354271,-178.33017,-44.34901,-0.74889076,-43.023445,174.25044,-32.293964,-2.562722,-44.24361,-0.78084564,-14.340586,14.673973,-34.89402,-40.190784,-32.851376,-12.733783,-42.969753,174.37865,-35.016312,-40.189468,-16.161283,152.30942
2513500000,-16.710342,14.035131,-40.606667,5.8722968,-32.306,-3.7867196,-32.701401,-13.248849,-40.599079,5.6097302,-12.326802,-178.47475,-44.180431,0.87587762,-43.275394,170.00449,-32.261578,-3.6358447,-44.071289,0.86334342,-14.293959,14.173607,-34.864544,-41.121418,-32.769714,-13.439511,-43.218861,170.11258,-34.984062,-41.088287,-16.176243,151.77472
2514000000,-16.720726,13.678547,-40.610592,5.8469777,-32.269508,-4.9289966,-32.61319,-14.133057,-40.609196,5.5058141,-12.298184,-178.62273,-43.960423,1.682315,-43.5257,165.92149,-32.225765,-4.7796407,-43.848305,1.6772654,-14.247438,13.682033,-34.830315,-42.047031,-32.679741,-14.315261,-43.463505,166.06044,-34.947266,-42.005955,-16.19245,151.24414
2514500000,-16.732265,13.344297,-40.599812,5.5129442,-32.237587,-6.1569247,-32.524326,-15.147024,-40.611423,5.1500936,-12.269916,-178.7782,-43.754986,1.7033757,-43.763096,161.93536,-32.19281,-5.9988737,-43.643009,1.6426877,-14.202913,13.189697,-34.78648,-43.001835,-32.589958,-15.344369,-43.702702,162.01245,-34.902233,-42.941174,-16.207581,150.74617
2515000000,-16.747086,13.030925,-40.605865,5.0071464,-32.218899,-7.4093337,-32.44157,-16.314672,-40.619343,4.616467,-12.242857,-178.93733,-43.592587,1.1913246,-44.003624,157.99271,-32.169724,-7.2554855,-43.484329,1.1298769,-14.159293,12.704091,-34.736576,-44.02029,-32.508869,-16.496929,-43.946697,158.10481,-34.850346,-43.935371,-16.220858,150.26999
2515500000,-16.768499,12.737106,-40.614437,4.3207555,-32.210663,-8.6717672,-32.372749,-17.566822,-40.631561,3.9478097,-12.216619,-179.099,-43.470058,0.34413308,-44.213753,154.17776,-32.157078,-8.5160904,-43.362579,0.19404571,-14.116387,12.225544,-34.68512,-45.066116,-32.438492,-17.754034,-44.163948,154.27235,-34.795494,-44.998043,-16.230751,149.81792
2516000000,-16.797386,12.477096,-40.648788,3.427362,-32.211189,-9.8856287,-32.313465,-18.903191,-40.677814,3.0463445,-12.189185,-179.25189,-43.410614,-0.9469682,-44.407463,150.13583,-32.154385,-9.7528496,-43.301929,-1.1046572,-14.073378,11.748962,-34.626495,-46.183891,-32.380161,-19.083063,-44.358376,150.30017,-34.733093,-46.092087,-16.238735,149.3476
2516500000,-16.831156,12.292719,-40.738228,2.5716991,-32.215614,-11.059288,-32.269409,-20.287287,-40.763325,2.2105522,-12.162327,-179.41142,-43.428646,-2.4271371,-44.62154,146.0443,-32.159649,-10.922944,-43.326656,-2.6179609,-14.031932,11.264221,-34.570309,-47.404591,-32.335323,-20.461124,-44.571426,146.21651,-34.674282,-47.298264,-16.242863,148.92055
2517000000,-16.866863,12.183261,-40.844418,2.0240543,-32.220215,-12.204648,-32.239239,-21.681507,-40.871952,1.6761456,-12.136817,-179.58614,-43.507317,-3.9416225,-44.837936,142.00578,-32.164116,-12.088662,-43.409542,-4.0955763,-13.99351,10.788442,-34.523705,-48.666237,-32.305656,-21.845007,-44.790066,142.2505,-34.622955,-48.561108,-16.244925,148.47841
2517500000,-16.908373,12.153431,-40.945671,1.5705899,-32.234692,-13.258328,-32.214714,-23.103682,-40.978809,1.2163101,-12.11017,-179.74507,-43.69545,-5.3923912,-45.055759,137.96898,-32.174892,-13.157575,-43.59058,-5.5844717,-13.955777,10.339415,-34.479702,-49.97567,-32.280136,-23.256159,-45.012451,138.22858,-34.57618,-49.864208,-16.243994,148.02931
2518000000,-16.945065,12.210528,-41.030094,1.2715133,-32.230995,-14.26751,-32.205265,-24.537346,-41.066093,0.92911512,-12.083854,-179.91537,-43.931473,-6.4382043,-45.275173,134.04912,-32.174698,-14.179954,-43.82692,-6.6449919,-13.918912,9.9102554,-34.43581,-51.287628,-32.269939,-24.687651,-45.232178,134.34033,-34.533722,-51.192883,-16.241436,147.58836
2518500000,-16.977331,12.355359,-41.106781,0.91890228,-32.220036,-15.288101,-32.207722,-25.928144,-41.140583,0.59826589,-12.057384,179.90952,-44.183331,-7.0381451,-45.466938,130.12506,-32.163902,-15.225926,-44.090103,-7.3234921,-13.881927,9.5032988,-34.40086,-52.61631,-32.273392,-26.095545,-45.430897,130.46396,-34.49173,-52.519348,-16.234756,147.12144
2519000000,-17.000166,12.56454,-41.174042,0.61666924,-32.204861,-16.388042,-32.218777,-27.284422,-41.21048,0.2879526,-12.029906,179.7347,-44.457787,-7.5097642,-45.650387,126.11143,-32.154499,-16.310658,-44.370914,-7.7544675,-13.843527,9.1148357,-34.359207,-53.976665,-32.284645,-27.451109,-45.610695,126.48729,-34.448711,-53.888596,-16.224754,146.64288
2519500000,-17.009115,12.824328,-41.237644,0.22905341,-32.195835,-17.503975,-32.231331,-28.5613,-41.273758,-0.090463303,-12.003798,179.5475,-44.76469,-7.6225877,-45.830605,121.95512,-32.145473,-17.430277,-44.682972,-7.8985238,-13.801152,8.7416582,-34.319939,-55.422722,-32.298233,-28.733068,-45.792175,122.33961,-34.404995,-55.337421,-16.212696,146.15057
2520000000,-17.007418,13.098667,-41.308697,-0.15675175,-32.190392,-18.653704,-32.238613,-29.819674,-41.353477,-0.4478237,-11.979319,179.34616,-45.076149,-7.3310752,-46.043892,117.64993,-32.142483,-18.57478,-44.989864,-7.5383363,-13.756816,8.3739901,-34.284569,-56.946362,-32.305016,-29.976725,-45.992687,118.03179,-34.367699,-56.876839,-16.199934,145.63565
2520500000,-16.992756,13.380172,-41.396797,-0.49159157,-32.186459,-19.761269,-32.241924,-31.106174,-41.438667,-0.73729199,-11.953753,179.1528,-45.354256,-6.6483335,-46.286121,113.46783,-32.140221,-19.680288,-45.277355,-6.8707261,-13.709988,8.0033178,-34.267345,-58.532173,-32.307831,-31.256128,-46.235737,113.85795,-34.349148,-58.478764,-16.186501,145.10037
2521000000,-16.969681,13.640727,-41.487209,-0.73208225,-32.182896,-20.875156,-32.249325,-32.430801,-41.527447,-0.93394095,-11.932397,178.93033,-45.618923,-5.7494841,-46.538567,109.46183,-32.136433,-20.782434,-45.549595,-5.9474063,-13.659879,7.6209102,-34.264149,-60.09428,-32.314991,-32.59042,-46.492287,109.90052,-34.345543,-60.06472,-16.172789,144.54678
2521500000,-16.93417,13.88223,-41.584373,-0.85826701,-32.173172,-21.981829,-32.260319,-33.759396,-41.627598,-1.0582067,-11.91134,178.71158,-45.867336,-4.6376271,-46.814751,105.76313,-32.128208,-21.881355,-45.794201,-4.8050675,-13.608962,7.2107043,-34.265331,-61.621326,-32.326004,-33.912155,-46.764454,106.20118,-34.343132,-61.610836,-16.160727,143.96434
2522000000,-16.88936,14.103127,-41.677742,-0.68514132,-32.158051,-23.134909,-32.272678,-35.112881,-41.724716,-0.90842128,-11.891078,178.49174,-46.104992,-3.1842563,-47.057724,102.37002,-32.114113,-23.021816,-46.022129,-3.3033495,-13.558141,6.7886367,-34.273388,-63.168549,-32.341354,-35.278778,-47.004269,102.76026,-34.350391,-63.173985,-16.152458,143.3573
2522500000,-16.835871,14.290309,-41.723568,-0.42076465,-32.143677,-24.337364,-32.292942,-36.509987,-41.772423,-0.63648701,-11.872988,178.26321,-46.272816,-1.5629362,-47.260414,99.234352,-32.098694,-24.230185,-46.190235,-1.6173488,-13.509288,6.3458438,-34.288349,-64.677422,-32.360893,-36.675453,-47.21611,99.678726,-34.367657,-64.722824,-16.147202,142.73932
2523000000,-16.772921,14.437091,-41.752316,-0.30780917,-32.127621,-25.565063,-32.321518,-37.9259,-41.802422,-0.50339872,-11.856218,178.0267,-46.411087,0.10164553,-47.404465,96.27372,-32.082836,-25.461103,-46.32077,-0.019364243,-13.461869,5.8962579,-34.305908,-66.210129,-32.391544,-38.106537,-47.363621,96.710907,-34.386215,-66.25222,-16.144531,142.11646
2523500000,-16.703123,14.546496,-41.778324,-0.17995812,-32.108471,-26.880947,-32.363152,-39.360203,-41.833157,-0.32468292,-11.840286,177.80257,-46.519966,1.8964497,-47.495998,93.206139,-32.06414,-26.768913,-46.427189,1.6952226,-13.415966,5.44206,-34.332809,-67.738571,-32.433796,-39.534203,-47.458813,93.626991,-34.41222,-67.793999,-16.146154,141.50195
2524000000,-16.628769,14.624068,-41.801434,0.020883078,-32.095303,-28.271484,-32.416466,-40.768349,-41.853573,-0.069595076,-11.828012,177.5687,-46.584999,3.7660506,-47.551651,89.887604,-32.049877,-28.178041,-46.501762,3.4547884,-13.373311,4.9817595,-34.367714,-69.241257,-32.4902,-40.936863,-47.522331,90.281464,-34.445396,-69.304123,-16.150644,140.87093
2524500000,-16.552046,14.657104,-41.790283,0.31240088,-32.085079,-29.747196,-32.480865,-42.119938,-41.836941,0.28952694,-11.815533,177.34018,-46.590015,5.5630584,-47.620308,86.379272,-32.043423,-29.660509,-46.52084,5.1660261,-13.329498,4.526372,-34.406292,-70.717148,-32.554462,-42.279285,-47.602493,86.854919,-34.483204,-70.812828,-16.159643,140.27289
2525000000,-16.462938,14.660286,-41.743366,0.51145464,-32.087311,-31.301992,-32.548359,-43.44743,-41.781498,0.44042185,-11.803939,177.10728,-46.574093,6.9903202,-47.690376,83.057724,-32.048752,-31.214703,-46.532265,6.6244936,-13.286478,4.0700378,-34.455128,-72.166763,-32.622726,-43.589645,-47.67601,83.562592,-34.530342,-72.293755,-16.172634,139.67876
2525500000,-16.371872,14.588485,-41.69389,0.47662097,-32.100307,-32.935211,-32.627968,-44.761223,-41.729767,0.41791913,-11.79479,176.87982,-46.595135,8.538619,-47.726559,79.639664,-32.064339,-32.834843,-46.564434,8.2653694,-13.241879,3.5977876,-34.510109,-73.565636,-32.701172,-44.890095,-47.72567,80.238945,-34.585915,-73.705238,-16.187292,139.10341
2526000000,-16.276707,14.435946,-41.634251,0.41834795,-32.135563,-34.637012,-32.71949,-46.036133,-41.666088,0.34195951,-11.787561,176.64037,-46.574196,10.031038,-47.789185,76.144302,-32.099812,-34.544857,-46.545109,9.7782698,-13.203024,3.1115215,-34.567898,-74.910332,-32.792858,-46.15873,-47.777508,76.84182,-34.649105,-75.059181,-16.204681,138.55673
2526500000,-16.177002,14.208816,-41.577431,0.14631009,-32.18816,-36.347656,-32.824661,-47.234322,-41.603386,0.059331894,-11.782463,176.40651,-46.574062,11.420805,-47.872337,72.759865,-32.155094,-36.253456,-46.543369,11.289733,-13.167129,2.6295781,-34.6287,-76.188965,-32.900318,-47.344028,-47.85865,73.486153,-34.70779,-76.344139,-16.224033,138.01431
2527000000,-16.077242,13.885178,-41.538559,-0.21545239,-32.264645,-38.070614,-32.943874,-48.305157,-41.561733,-0.29192823,-11.779169,176.17116,-46.587624,12.92371,-47.974411,69.723404,-32.232189,-37.957413,-46.559444,12.873442,-13.134214,2.15558,-34.685539,-77.416161,-33.019127,-48.430149,-47.94252,70.547539,-34.7654,-77.579018,-16.24337,137.50847
