!CSV A.01.01
!Keysight Technologies,N5222B,MY58422327,A.13.60.06
!Date: Monday, March 28, 2022 16:10:20
!Source: Standard

BEGIN CH1_DATA
Freq(Hz),S11(DB),S11(DEG),S12(DB),S12(DEG),S13(DB),S13(DEG),S14(DB),S14(DEG),S21(DB),S21(DEG),S22(DB),S22(DEG),S23(DB),S23(DEG),S24(DB),S24(DEG),S31(DB),S31(DEG),S32(DB),S32(DEG),S33(DB),S33(DEG),S34(DB),S34(DEG),S41(DB),S41(DEG),S42(DB),S42(DEG),S43(DB),S43(DEG),S44(DB),S44(DEG)
2500000000,-17.327036,25.264376,-37.377998,23.855541,-34.107323,26.764923,-32.079597,6.8291469,-37.474567,24.020182,-13.128566,-174.24104,-38.218349,15.661161,-44.363628,-85.781662,-34.079063,26.57737,-38.166584,15.978023,-15.733212,27.461979,-34.945625,-18.539755,-32.140179,6.6971192,-44.473534,-85.652664,-35.012157,-18.688324,-16.355213,166.44519
2500500000,-17.303753,24.942032,-37.526344,22.772631,-33.996338,25.681278,-32.152336,5.6626153,-37.617512,23.021397,-13.08874,-174.41893,-38.300346,14.212701,-44.223499,-88.453552,-33.967541,25.547665,-38.234035,14.552589,-15.672753,26.898384,-34.955551,-19.31097,-32.21357,5.5262337,-44.318146,-88.261314,-35.020817,-19.500141,-16.344999,166.05553
2501000000,-17.275404,24.621943,-37.68005,21.784441,-33.89333,24.584867,-32.227962,4.5663199,-37.766438,22.05912,-13.047921,-174.57993,-38.393585,12.743706,-44.098789,-91.199608,-33.862698,24.507277,-38.319729,13.051403,-15.611607,26.330437,-34.95739,-20.219028,-32.290421,4.4198074,-44.176529,-91.046158,-35.028137,-20.449917,-16.334448,165.66119
2501500000,-17.241745,24.303644,-37.817005,20.948538,-33.796787,23.539824,-32.312153,3.5812109,-37.891243,21.219339,-13.009716,-174.75757,-38.504784,11.32121,-43.99271,-93.906776,-33.761513,23.494993,-38.419994,11.615671,-15.553313,25.744663,-34.968761,-21.227638,-32.372627,3.4320865,-44.062527,-93.786171,-35.049332,-21.461161,-16.321629,165.27592
2502000000,-17.20841,23.944975,-37.934467,20.111429,-33.703312,22.493366,-32.388897,2.6509254,-38.002712,20.366926,-12.973675,-174.93166,-38.625015,9.9581842,-43.879593,-96.626518,-33.661457,22.470961,-38.540451,10.194575,-15.497586,25.155756,-34.993454,-22.321758,-32.451202,2.5012138,-43.947918,-96.512558,-35.077755,-22.564215,-16.307522,164.87921
2502500000,-17.172426,23.570517,-38.044312,19.281677,-33.617107,21.421379,-32.466244,1.7780824,-38.103088,19.503347,-12.937764,-175.10368,-38.747101,8.67519,-43.756744,-99.321846,-33.572315,21.403952,-38.659111,8.8785868,-15.446735,24.569887,-35.036301,-23.459511,-32.528851,1.6279321,-43.820961,-99.217278,-35.131786,-23.675945,-16.293293,164.46738
2503000000,-17.135094,23.171204,-38.132645,18.47138,-33.543381,20.382952,-32.537003,0.97139698,-38.188324,18.613707,-12.905522,-175.29279,-38.868122,7.4293914,-43.629356,-102.10088,-33.493999,20.346254,-38.781158,7.5692935,-15.398445,23.992897,-35.108315,-24.491268,-32.599712,0.82241613,-43.687759,-102.01086,-35.207844,-24.666325,-16.276676,164.05684
2503500000,-17.103361,22.742891,-38.205666,17.537321,-33.478306,19.409807,-32.606323,0.20567101,-38.259548,17.638092,-12.874949,-175.47386,-38.980972,6.1621037,-43.480846,-104.90062,-33.421169,19.347702,-38.890831,6.2830019,-15.354063,23.434782,-35.184887,-25.354538,-32.668453,0.063253149,-43.539154,-104.82412,-35.287769,-25.4597,-16.25844,163.64146
2504000000,-17.06954,22.316536,-38.283859,16.528589,-33.409069,18.535852,-32.669224,-0.52103645,-38.336121,16.582472,-12.844101,-175.64513,-39.092018,4.8251362,-43.322285,-107.77724,-33.350563,18.454884,-39.003059,4.8893485,-15.311345,22.902311,-35.255962,-26.099094,-32.732231,-0.66660219,-43.374973,-107.75643,-35.357201,-26.170599,-16.239508,163.19304
2504500000,-17.035807,21.890997,-38.350101,15.461544,-33.327892,17.704296,-32.727642,-1.1943465,-38.408222,15.474764,-12.816315,-175.82513,-39.203865,3.3133705,-43.136154,-110.86848,-33.268501,17.581757,-39.123291,3.3658185,-15.267559,22.399157,-35.315075,-26.733313,-32.792988,-1.3301781,-43.186096,-110.84555,-35.41357,-26.769243,-16.215706,162.73872
2505000000,-16.998537,21.466753,-38.421997,14.241218,-33.241394,16.858932,-32.779621,-1.8211823,-38.484673,14.230268,-12.791289,-176.00705,-39.340847,1.7339157,-42.933128,-114.19604,-33.181454,16.72123,-39.272442,1.7985203,-15.224368,21.900251,-35.364689,-27.261866,-32.843029,-1.9349544,-42.973534,-114.21716,-35.463997,-27.299416,-16.192507,162.23773
2505500000,-16.960354,21.019882,-38.512825,12.997795,-33.143562,15.973424,-32.826031,-2.4241545,-38.580826,12.992368,-12.766578,-176.16986,-39.511078,0.039736241,-42.735935,-117.92213,-33.083912,15.800406,-39.442883,0.14435662,-15.178805,21.414064,-35.390091,-27.736664,-32.887989,-2.5166128,-42.766212,-117.94012,-35.481583,-27.765886,-16.168024,161.70576
2506000000,-16.921951,20.55982,-38.607773,11.671433,-33.04071,15.028821,-32.868382,-2.970623,-38.684296,11.661758,-12.743352,-176.32764,-39.704056,-1.6968924,-42.5555,-121.93366,-32.981564,14.841942,-39.641548,-1.5868058,-15.132933,20.934391,-35.395626,-28.226307,-32.927605,-3.0691152,-42.575558,-121.99617,-35.484859,-28.246462,-16.143837,161.13144
2506500000,-16.883301,20.101786,-38.729233,10.25248,-32.935287,14.02501,-32.895882,-3.4667227,-38.810112,10.263084,-12.72174,-176.48596,-39.947144,-3.4648941,-42.395214,-126.24551,-32.880463,13.830324,-39.883358,-3.2872648,-15.086352,20.464176,-35.38073,-28.803944,-32.956375,-3.5754406,-42.413284,-126.39867,-35.472466,-28.819649,-16.122202,160.524
2507000000,-16.848957,19.625397,-38.874123,8.9173021,-32.830441,12.934232,-32.905682,-3.9535809,-38.958786,8.9872475,-12.698659,-176.61621,-40.245724,-5.1294303,-42.274429,-130.79515,-32.775761,12.74441,-40.178654,-4.88626,-15.038795,20.000513,-35.359646,-29.448286,-32.964382,-4.049098,-42.287071,-131.03894,-35.445908,-29.463961,-16.104507,159.87822
2507500000,-16.810291,19.164927,-39.035233,7.6699815,-32.729919,11.774106,-32.901917,-4.5304813,-39.122265,7.7972646,-12.676085,-176.75107,-40.589901,-6.556325,-42.192921,-135.53133,-32.679684,11.543452,-40.520065,-6.3073831,-14.989649,19.547337,-35.331551,-30.218252,-32.95858,-4.6070514,-42.204357,-135.83888,-35.41729,-30.240421,-16.091429,159.21208
2508000000,-16.777493,18.681515,-39.211437,6.5239334,-32.638695,10.530945,-32.893738,-5.1710391,-39.290897,6.6480851,-12.651561,-176.8741,-40.980106,-7.629673,-42.157413,-140.35995,-32.591583,10.305257,-40.901501,-7.3621421,-14.94101,19.098122,-35.308426,-31.047455,-32.950603,-5.2366743,-42.169617,-140.73416,-35.391193,-31.088829,-16.083672,158.53888
2508500000,-16.74674,18.196712,-39.385773,5.4813962,-32.560776,9.2598057,-32.886948,-5.8396187,-39.467731,5.6085114,-12.625123,-176.98387,-41.394554,-8.2817163,-42.158131,-145.21443,-32.517292,9.0345888,-41.319008,-8.0306253,-14.888438,18.661444,-35.291012,-31.941032,-32.942394,-5.9142919,-42.1735,-145.67491,-35.372971,-32.006271,-16.080564,157.85213
2509000000,-16.724041,17.697931,-39.570755,4.5225534,-32.49041,7.9896154,-32.883881,-6.5264692,-39.653114,4.644681,-12.599895,-177.11342,-41.824039,-8.4775982,-42.194187,-150.09018,-32.452789,7.7734718,-41.745636,-8.1908216,-14.835218,18.224079,-35.281227,-32.861553,-32.937023,-6.5924945,-42.220173,-150.59351,-35.36517,-32.944393,-16.080547,157.17612
2509500000,-16.706005,17.212809,-39.76651,3.6000795,-32.428452,6.7158856,-32.882629,-7.2052598,-39.850121,3.7736692,-12.571572,-177.24141,-42.246876,-8.106657,-42.259392,-154.89963,-32.392963,6.5293989,-42.161732,-7.8614855,-14.778364,17.786907,-35.28297,-33.724895,-32.932732,-7.2677841,-42.288536,-155.43396,-35.366646,-33.851128,-16.083456,156.50417
2510000000,-16.696173,16.741104,-39.978352,2.7834353,-32.370968,5.4231963,-32.877117,-7.8238368,-40.059006,2.9910157,-12.541303,-177.36504,-42.642761,-7.2291455,-42.339054,-159.68028,-32.335079,5.2641969,-42.551434,-7.0191345,-14.720208,17.343039,-35.28212,-34.566566,-32.924839,-7.8955622,-42.373859,-160.23697,-35.369488,-34.715134,-16.091194,155.82787
2510500000,-16.696699,16.274097,-40.210011,2.2065389,-32.323921,4.0897822,-32.860897,-8.4235926,-40.288292,2.3801136,-12.512484,-177.51196,-42.996628,-5.8752947,-42.432468,-164.45212,-32.282627,3.9562218,-42.901264,-5.6790051,-14.662096,16.880409,-35.274658,-35.33918,-32.90976,-8.5035763,-42.46978,-165.05585,-35.366615,-35.488892,-16.099863,155.19257
2511000000,-16.699957,15.846663,-40.438503,1.939091,-32.288734,2.7649765,-32.834209,-9.0106993,-40.512337,2.1587296,-12.483754,-177.6555,-43.272156,-4.0179472,-42.543617,-169.28683,-32.242477,2.6578465,-43.171429,-3.8751957,-14.603106,16.404425,-35.255268,-36.090183,-32.881855,-9.1104317,-42.581932,-169.90491,-35.35643,-36.25174,-16.112267,154.56004
2511500000,-16.704988,15.450638,-40.631248,1.9511422,-32.265469,1.5057049,-32.798458,-9.6312304,-40.705391,2.1885402,-12.454841,-177.79071,-43.439293,-1.9492075,-42.676147,-174.21375,-32.212276,1.3905034,-43.341934,-1.8584486,-14.545866,15.91031,-35.226715,-36.946911,-32.843052,-9.741106,-42.716206,-174.85052,-35.330624,-37.055332,-16.127287,153.94893
2512000000,-16.712803,15.08236,-40.791142,2.1015036,-32.241177,0.29989821,-32.750259,-10.277893,-40.861496,2.329633,-12.425942,-177.94261,-43.503777,0.057710297,-42.839787,-179.06909,-32.181309,0.16404419,-43.41893,0.15200382,-14.495173,15.399584,-35.200214,-37.833553,-32.793617,-10.408221,-42.883965,-179.73398,-35.307751,-37.909039,-16.143764,153.36357
2512500000,-16.719709,14.731907,-40.910652,2.2706134,-32.222538,-0.88534403,-32.692764,-10.953506,-40.971546,2.48858,-12.398082,-178.09454,-43.498035,2.0311177,-43.029854,176.0831,-32.163219,-1.0348322,-43.407974,2.165581,-14.4447,14.902423,-35.175941,-38.705502,-32.734848,-11.102386,-43.07806,175.38731,-35.283424,-38.74226,-16.15859,152.80875
2513000000,-16.725084,14.38926,-40.999538,2.4167454,-32.199131,-2.0061502,-32.618603,-11.704531,-41.062286,2.6603396,-12.369626,-178.23901,-43.366718,3.6725595,-43.248299,171.34227,-32.135162,-2.181962,-43.279228,3.7861879,-14.396921,14.400126,-35.146858,-39.593193,-32.663742,-11.861272,-43.30217,170.6143,-35.253136,-39.574921,-16.173971,152.26904
2513500000,-16.731699,14.051394,-41.063492,2.4345324,-32.164631,-3.1393793,-32.535378,-12.567947,-41.118862,2.7381899,-12.342056,-178.38889,-43.167728,4.6580749,-43.484432,166.8165,-32.103588,-3.3339777,-43.076916,4.7583499,-14.352462,13.903852,-35.117222,-40.505894,-32.579769,-12.724301,-43.543747,166.02713,-35.215565,-40.427402,-16.188902,151.74789
2514000000,-16.743469,13.705823,-41.110573,2.360322,-32.126442,-4.3444724,-32.452785,-13.568005,-41.149017,2.6719561,-12.313826,-178.54036,-42.943378,4.8602543,-43.720177,162.47037,-32.065746,-4.5420637,-42.856457,4.9117589,-14.308757,13.419603,-35.082191,-41.393982,-32.495121,-13.737185,-43.785683,161.64273,-35.171684,-41.331295,-16.204313,151.22496
2514500000,-16.755714,13.386729,-41.148674,2.0971313,-32.093098,-5.6244192,-32.371307,-14.693256,-41.176437,2.3966451,-12.286341,-178.69684,-42.747551,4.3943124,-43.950241,158.14883,-32.032181,-5.8271461,-42.662289,4.4254365,-14.266361,12.938457,-35.037781,-42.309086,-32.414085,-14.87041,-44.020958,157.3752,-35.121807,-42.270996,-16.218338,150.7386
2515000000,-16.770897,13.088777,-41.194901,1.7763265,-32.073547,-6.960813,-32.298805,-15.915462,-41.210014,2.0726235,-12.259734,-178.8521,-42.601635,3.5146313,-44.175289,153.97514,-32.010574,-7.1563988,-42.516621,3.5454438,-14.223915,12.467553,-34.992725,-43.284279,-32.342239,-16.09897,-44.25082,153.27173,-35.069492,-43.294956,-16.229834,150.26465
2515500000,-16.7925,12.816884,-41.229042,1.375499,-32.066322,-8.291997,-32.239494,-17.202095,-41.235687,1.5847905,-12.233768,-179.0105,-42.487282,2.3439789,-44.377625,149.87758,-32.004562,-8.5014687,-42.4062,2.3529465,-14.181315,12.001954,-34.944206,-44.288979,-32.28215,-17.394093,-44.454124,149.1909,-35.016636,-44.33477,-16.238453,149.80966
2516000000,-16.820313,12.577907,-41.276829,0.79534113,-32.074131,-9.579917,-32.186192,-18.535791,-41.276028,0.91233945,-12.206379,-179.15918,-42.433723,0.84337473,-44.564468,145.66661,-32.010979,-9.8049326,-42.356102,0.85562509,-14.139047,11.535226,-34.883385,-45.359077,-32.229496,-18.75491,-44.633205,144.95677,-34.95871,-45.450157,-16.245541,149.33322
2516500000,-16.852379,12.414353,-41.365398,0.24806674,-32.091637,-10.81642,-32.14769,-19.924084,-41.362415,0.24866877,-12.179475,-179.31271,-42.444782,-0.84264171,-44.763634,141.38319,-32.030159,-11.048162,-42.379631,-0.8017453,-14.097867,11.062465,-34.825909,-46.543118,-32.189926,-20.140873,-44.836208,140.60101,-34.907391,-46.669838,-16.249384,148.89607
2517000000,-16.885521,12.318053,-41.458103,-0.032065824,-32.108212,-11.993402,-32.115337,-21.292374,-41.458275,-0.17730328,-12.153751,-179.48244,-42.514553,-2.5922337,-44.976864,137.24619,-32.05035,-12.237067,-42.45322,-2.5244722,-14.059622,10.594005,-34.78059,-47.780102,-32.162792,-21.536797,-45.049824,136.43027,-34.868385,-47.942856,-16.253206,148.44817
2517500000,-16.923378,12.293298,-41.537575,-0.35642868,-32.133621,-13.044031,-32.087284,-22.69998,-41.560925,-0.59099919,-12.126457,-179.63774,-42.683174,-4.301065,-45.188213,133.11769,-32.080135,-13.287884,-42.61795,-4.1988659,-14.022349,10.151589,-34.737591,-49.036854,-32.137772,-22.944149,-45.266811,132.30232,-34.82959,-49.217045,-16.254356,147.99806
2518000000,-16.95644,12.352201,-41.598335,-0.61896491,-32.146996,-14.020703,-32.071842,-24.132151,-41.646187,-0.86664474,-12.099887,-179.80695,-42.905785,-5.6305408,-45.396748,129.18488,-32.096581,-14.257019,-42.842533,-5.5155745,-13.986757,9.7301378,-34.70076,-50.294266,-32.123081,-24.372387,-45.471046,128.32449,-34.79826,-50.504551,-16.252905,147.55708
2518500000,-16.985947,12.489079,-41.660099,-1.0067028,-32.146851,-14.986779,-32.066845,-25.556887,-41.731434,-1.2256155,-12.073547,-179.97795,-43.147015,-6.6141968,-45.56871,125.31783,-32.099392,-15.211549,-43.086941,-6.4740486,-13.95023,9.3332548,-34.66367,-51.54995,-32.120068,-25.809128,-45.648735,124.43277,-34.766987,-51.771271,-16.248524,147.09892
2519000000,-17.007401,12.691525,-41.730461,-1.3867756,-32.142559,-15.972936,-32.068527,-26.953255,-41.813522,-1.5356462,-12.046185,179.85201,-43.410133,-7.4548154,-45.716282,121.34245,-32.095005,-16.192728,-43.350315,-7.3080087,-13.912912,8.9563141,-34.622936,-52.840549,-32.127499,-27.205503,-45.79805,120.47273,-34.732601,-53.066143,-16.240206,146.62787
2519500000,-17.015532,12.940488,-41.810787,-1.8308142,-32.13232,-16.975798,-32.075802,-28.310743,-41.908943,-1.8977333,-12.019811,179.6723,-43.709015,-7.992094,-45.850918,117.24248,-32.087109,-17.204611,-43.657925,-7.7869768,-13.871202,8.5921402,-34.582535,-54.212582,-32.138088,-28.566542,-45.93491,116.32461,-34.697872,-54.418972,-16.228647,146.14731
2520000000,-17.012533,13.207339,-41.913235,-2.2101052,-32.1217,-18.023439,-32.079453,-29.631887,-42.01474,-2.1900582,-11.994576,179.4792,-44.014374,-8.0930405,-45.997063,112.91805,-32.078938,-18.234146,-43.959499,-7.9093308,-13.82761,8.2382555,-34.544937,-55.682705,-32.145931,-29.89307,-46.096233,111.99393,-34.668102,-55.875134,-16.216606,145.64592
2520500000,-16.997255,13.481591,-42.038559,-2.4428265,-32.109528,-19.038397,-32.08308,-30.988033,-42.136082,-2.3110733,-11.967884,179.29453,-44.308395,-7.9072537,-46.190262,108.62202,-32.070103,-19.237673,-44.248653,-7.7027349,-13.781466,7.8784509,-34.527161,-57.189159,-32.15266,-31.247826,-46.282612,107.68124,-34.653599,-57.358925,-16.203573,145.12242
2521000000,-16.973772,13.733196,-42.160431,-2.445637,-32.089939,-20.072699,-32.092808,-32.390667,-42.255989,-2.2622263,-11.945376,179.08133,-44.601879,-7.531158,-46.393822,104.4662,-32.052414,-20.256144,-44.544022,-7.2448306,-13.732118,7.5096846,-34.520149,-58.667023,-32.163937,-32.628223,-46.502289,103.67746,-34.648022,-58.811749,-16.189924,144.58253
2521500000,-16.938494,13.971987,-42.286106,-2.2109694,-32.068596,-21.128345,-32.105618,-33.769688,-42.375168,-2.0292385,-11.922663,178.87117,-44.879147,-6.8944211,-46.618782,100.58265,-32.02747,-21.29146,-44.821095,-6.4928589,-13.681985,7.1153831,-34.513401,-60.148846,-32.180733,-33.994926,-46.731045,99.845192,-34.644104,-60.222694,-16.178196,144.01393
2522000000,-16.894478,14.189125,-42.392227,-1.6580108,-32.036167,-22.249994,-32.121605,-35.164349,-42.480915,-1.4716047,-11.900026,178.65317,-45.160645,-5.9784384,-46.833534,97.025108,-31.992611,-22.389059,-45.081055,-5.4449053,-13.63133,6.7090597,-34.515263,-61.641262,-32.196827,-35.387539,-46.941956,96.338654,-34.64674,-61.681629,-16.169134,143.41721
2522500000,-16.841078,14.380159,-42.421181,-0.98088169,-32.004848,-23.43932,-32.138359,-36.600018,-42.516735,-0.80329585,-11.879871,178.42252,-45.403057,-4.7846923,-47.019035,93.786232,-31.958618,-23.590883,-45.29636,-4.2225909,-13.583363,6.2850084,-34.524048,-63.128197,-32.218651,-36.811169,-47.141254,93.126709,-34.651222,-63.131855,-16.163185,142.811
2523000000,-16.778166,14.532151,-42.423191,-0.47914195,-31.972822,-24.674202,-32.164181,-38.085175,-42.513893,-0.27384451,-11.861359,178.18108,-45.60762,-3.4077306,-47.14978,90.749458,-31.92506,-24.840172,-45.481186,-2.9408798,-13.535131,5.8585167,-34.534714,-64.643219,-32.246788,-38.266552,-47.275604,90.196045,-34.660385,-64.591354,-16.160198,142.19826
2523500000,-16.707678,14.651975,-42.404282,-0.050956856,-31.939911,-26.005501,-32.201801,-39.590271,-42.497654,0.26629603,-11.844121,177.95079,-45.793121,-1.8736889,-47.230991,87.69487,-31.891613,-26.18881,-45.657112,-1.4901948,-13.48801,5.4240184,-34.558186,-66.164528,-32.286598,-39.761303,-47.356358,87.23391,-34.677773,-66.095215,-16.161169,141.59506
2524000000,-16.633148,14.734081,-42.371605,0.39776456,-31.909273,-27.424562,-32.255821,-41.090084,-42.458691,0.79053468,-11.83089,177.70773,-45.939808,-0.26477346,-47.286514,84.436905,-31.863386,-27.611349,-45.793392,0.011909852,-13.443113,4.9802675,-34.591862,-67.654404,-32.339619,-41.249737,-47.400677,84.154755,-34.706223,-67.571449,-16.165813,140.98083
2524500000,-16.555321,14.775062,-42.299461,0.79445785,-31.886168,-28.932976,-32.320549,-42.565014,-42.370956,1.2762741,-11.817792,177.46968,-46.051102,1.4737478,-47.347862,81.142693,-31.842262,-29.1325,-45.907711,1.630762,-13.397877,4.5347729,-34.635376,-69.127296,-32.40514,-42.69178,-47.445049,80.940887,-34.740677,-69.014709,-16.173784,140.39607
2525000000,-16.464806,14.783767,-42.189362,0.94503278,-31.875307,-30.536085,-32.392487,-44.025547,-42.246872,1.4419906,-11.806516,177.2296,-46.13887,3.0193245,-47.390728,78.049072,-31.834349,-30.751141,-45.994545,3.0591557,-13.352651,4.0871358,-34.686714,-70.538712,-32.478729,-44.135578,-47.482513,77.844727,-34.787613,-70.438591,-16.185354,139.815
2525500000,-16.372513,14.717382,-42.08572,0.76399589,-31.878216,-32.22229,-32.479897,-45.47039,-42.131775,1.2675843,-11.79754,176.99847,-46.25259,4.8808541,-47.410435,74.906372,-31.83651,-32.421329,-46.116573,4.8354111,-13.307082,3.6212437,-34.744019,-71.887619,-32.564648,-45.568951,-47.489597,74.713593,-34.835766,-71.803085,-16.199438,139.25107
2526000000,-16.275621,14.572021,-41.984043,0.47437382,-31.901333,-33.998928,-32.585274,-46.888241,-42.024784,0.94541633,-11.790542,176.75706,-46.288399,6.8298564,-47.43858,71.585045,-31.862961,-34.200058,-46.161182,6.7665663,-13.266649,3.139308,-34.806141,-73.151604,-32.668625,-46.964207,-47.507763,71.479034,-34.893841,-73.09214,-16.215363,138.72374
2526500000,-16.173599,14.347162,-41.900497,-0.068582684,-31.947012,-35.790863,-32.710499,-48.220924,-41.936695,0.39319944,-11.78537,176.52403,-46.317284,8.7324133,-47.50185,68.458916,-31.912189,-35.960041,-46.202145,8.5289812,-13.229963,2.6611621,-34.865856,-74.335602,-32.790863,-48.260925,-47.549171,68.386482,-34.947376,-74.317924,-16.232571,138.19765
2527000000,-16.071018,14.025323,-41.853779,-0.67012376,-32.015575,-37.543602,-32.852142,-49.391438,-41.883579,-0.23554145,-11.781959,176.28937,-46.350113,10.716471,-47.555702,65.634254,-31.977192,-37.710629,-46.237312,10.52362,-13.196357,2.1944666,-34.916393,-75.474197,-32.931095,-49.426277,-47.591801,65.563019,-34.998024,-75.489265,-16.24979,137.71248
