!CSV A.01.01
!Keysight Technologies,N5222B,MY58422327,A.13.60.06
!Date: Monday, March 28, 2022 16:11:47
!Source: Standard

BEGIN CH1_DATA
Freq(Hz),S11(DB),S11(DEG),S12(DB),S12(DEG),S13(DB),S13(DEG),S14(DB),S14(DEG),S21(DB),S21(DEG),S22(DB),S22(DEG),S23(DB),S23(DEG),S24(DB),S24(DEG),S31(DB),S31(DEG),S32(DB),S32(DEG),S33(DB),S33(DEG),S34(DB),S34(DEG),S41(DB),S41(DEG),S42(DB),S42(DEG),S43(DB),S43(DEG),S44(DB),S44(DEG)
2500000000,-17.318466,25.261915,-37.389034,26.360634,-34.094524,26.814615,-32.14793,6.5365725,-37.502789,25.956667,-13.099698,-174.36879,-38.192211,14.053795,-43.931618,-86.090424,-34.005337,26.690285,-38.118393,13.776389,-15.704442,27.549864,-34.844624,-18.590057,-32.19862,6.3437133,-43.8218,-86.214706,-34.94606,-18.603168,-16.38302,166.26639
2500500000,-17.294809,24.923403,-37.525562,25.38092,-33.993961,25.689434,-32.210178,5.3915281,-37.638996,25.005909,-13.061449,-174.55556,-38.270367,12.36554,-43.863049,-88.841545,-33.899979,25.53351,-38.193069,12.110658,-15.64559,26.979408,-34.856403,-19.421865,-32.261459,5.2020903,-43.721455,-88.988998,-34.953056,-19.378817,-16.371557,165.89499
2501000000,-17.266565,24.590385,-37.661018,24.468199,-33.893047,24.577093,-32.280087,4.3189955,-37.773098,24.096737,-13.02311,-174.72511,-38.365696,10.645707,-43.804325,-91.64119,-33.803837,24.368544,-38.287514,10.398278,-15.585578,26.403996,-34.862755,-20.345484,-32.332085,4.1304789,-43.642681,-91.82711,-34.95488,-20.272779,-16.359102,165.51703
2501500000,-17.233074,24.263969,-37.772606,23.653831,-33.801979,23.524122,-32.350239,3.3570776,-37.886253,23.265692,-12.987762,-174.90277,-38.487278,9.0048389,-43.776253,-94.297836,-33.715706,23.281679,-38.404922,8.717742,-15.528751,25.813316,-34.877388,-21.308929,-32.405437,3.1684783,-43.602158,-94.650894,-34.965073,-21.231367,-16.343718,165.14111
2502000000,-17.200102,23.898565,-37.867886,22.805977,-33.71162,22.494923,-32.416615,2.4753115,-37.987053,22.439869,-12.953998,-175.07204,-38.617508,7.3752837,-43.754917,-96.814003,-33.629444,22.215122,-38.539635,7.0820022,-15.473996,25.224852,-34.897968,-22.344524,-32.470924,2.2823615,-43.558914,-97.28907,-34.982964,-22.246552,-16.327047,164.75787
2502500000,-17.164518,23.509514,-37.959457,21.932983,-33.626236,21.427252,-32.477737,1.6124688,-38.082279,21.584179,-12.919897,-175.23299,-38.761806,5.8362341,-43.721577,-99.216064,-33.549332,21.123762,-38.683254,5.5508966,-15.423824,24.633308,-34.935299,-23.413408,-32.533115,1.4309012,-43.508526,-99.824051,-35.011211,-23.317471,-16.309658,164.35167
2503000000,-17.128714,23.101662,-38.041477,21.066523,-33.550507,20.372471,-32.531319,0.81825238,-38.166145,20.749151,-12.889478,-175.40739,-38.90921,4.3413773,-43.664162,-101.55315,-33.478867,20.071875,-38.827911,4.0496464,-15.376369,24.055859,-34.991833,-24.376089,-32.587452,0.6227228,-43.444271,-102.34602,-35.06287,-24.302475,-16.290361,163.94257
2503500000,-17.099485,22.662697,-38.10498,20.111973,-33.483559,19.380661,-32.579105,0.021562453,-38.241211,19.80752,-12.859024,-175.56984,-39.049564,2.8451953,-43.573685,-103.82977,-33.413681,19.114494,-38.966957,2.5283554,-15.332864,23.496851,-35.051571,-25.178782,-32.638157,-0.14611381,-43.349148,-104.79345,-35.119118,-25.132439,-16.270193,163.52371
2504000000,-17.06822,22.228731,-38.171604,19.091362,-33.412716,18.472435,-32.624596,-0.77029413,-38.315521,18.841785,-12.827562,-175.72249,-39.197472,1.3116174,-43.438679,-106.11887,-33.340267,18.209618,-39.108337,0.95196754,-15.291287,22.96245,-35.098747,-25.915798,-32.683205,-0.93038243,-43.219662,-107.27875,-35.163887,-25.909073,-16.248453,163.06697
2504500000,-17.037266,21.806709,-38.232929,18.030027,-33.329956,17.59757,-32.668629,-1.5492094,-38.379757,17.874897,-12.798046,-175.88412,-39.350151,-0.37666088,-43.25782,-108.75056,-33.256916,17.332157,-39.268177,-0.79106945,-15.249368,22.456184,-35.138615,-26.580652,-32.727764,-1.7025462,-43.049961,-110.04111,-35.200829,-26.603817,-16.223412,162.6059
2505000000,-17.002417,21.391262,-38.297298,16.818251,-33.244789,16.718597,-32.707375,-2.2831142,-38.442741,16.75802,-12.770141,-176.0565,-39.529778,-2.1159782,-43.037968,-111.71471,-33.168831,16.459707,-39.448822,-2.5821142,-15.207172,21.960903,-35.16787,-27.174049,-32.764843,-2.419214,-42.855991,-113.14413,-35.232742,-27.240797,-16.199293,162.09714
2505500000,-16.966627,20.9615,-38.373142,15.590943,-33.147278,15.789666,-32.745106,-3.0479124,-38.514622,15.645928,-12.741955,-176.21587,-39.742359,-3.97102,-42.828762,-115.22823,-33.068184,15.526224,-39.671082,-4.4339342,-15.163473,21.478456,-35.174519,-27.746115,-32.801373,-3.1590407,-42.661663,-116.68444,-35.240166,-27.84026,-16.173309,161.56213
2506000000,-16.929043,20.52071,-38.457588,14.295501,-33.044998,14.804458,-32.783348,-3.7773306,-38.585812,14.430351,-12.7158,-176.37994,-39.984512,-5.8579559,-42.629345,-119.13503,-32.963699,14.512548,-39.921234,-6.3094192,-15.119025,21.00935,-35.164097,-28.349356,-32.833885,-3.8806353,-42.477524,-120.6177,-35.234909,-28.466515,-16.148462,160.97736
2506500000,-16.89052,20.075373,-38.564732,12.932307,-32.94762,13.751903,-32.817417,-4.4409723,-38.678123,13.089813,-12.691084,-176.5515,-40.278458,-7.7341895,-42.468056,-123.45432,-32.863262,13.421941,-40.218117,-8.2081671,-15.073527,20.549726,-35.139881,-29.036306,-32.865528,-4.5664716,-42.330757,-124.94337,-35.217628,-29.159243,-16.125767,160.36194
2507000000,-16.85557,19.617636,-38.695965,11.630774,-32.846214,12.623271,-32.837521,-5.0737667,-38.793041,11.82531,-12.666059,-176.70071,-40.629135,-9.5701828,-42.35247,-128.06879,-32.762726,12.248665,-40.575939,-9.9603844,-15.026834,20.099409,-35.108646,-29.81781,-32.88192,-5.2167425,-42.237637,-129.57875,-35.191597,-29.931129,-16.107742,159.7065
2507500000,-16.816547,19.174242,-38.838631,10.423749,-32.754574,11.407854,-32.848072,-5.7708378,-38.917477,10.633885,-12.643107,-176.85477,-41.043442,-11.13625,-42.291485,-132.90167,-32.674416,10.977783,-40.986771,-11.454383,-14.977446,19.658476,-35.073505,-30.693111,-32.889462,-5.9252653,-42.197678,-134.35271,-35.161274,-30.796844,-16.094425,159.03377
2508000000,-16.781893,18.70829,-38.984024,9.279562,-32.674854,10.132037,-32.857208,-6.5177522,-39.050503,9.455121,-12.618752,-176.9949,-41.509811,-12.348343,-42.278389,-137.80537,-32.596535,9.6779833,-41.448578,-12.664728,-14.928507,19.223087,-35.044437,-31.680698,-32.898666,-6.693716,-42.205578,-139.24559,-35.134785,-31.771379,-16.086424,158.34715
2508500000,-16.748846,18.234594,-39.135529,8.220583,-32.610466,8.8524351,-32.871109,-7.2912669,-39.187885,8.3238649,-12.593102,-177.12088,-42.025787,-13.139684,-42.317715,-142.76585,-32.537746,8.3548861,-41.956326,-13.416131,-14.875071,18.797493,-35.025906,-32.726902,-32.912895,-7.5006304,-42.268215,-144.17592,-35.121494,-32.807323,-16.084146,157.65462
2509000000,-16.724165,17.74234,-39.289192,7.1626053,-32.553673,7.5928278,-32.890141,-8.0385084,-39.338657,7.2000227,-12.5687,-177.26735,-42.565815,-13.29563,-42.39761,-147.69618,-32.487122,7.0652566,-42.49361,-13.609527,-14.820694,18.368059,-35.023937,-33.805031,-32.933498,-8.2751265,-42.375153,-148.9641,-35.120777,-33.850128,-16.084045,156.9745
2509500000,-16.702787,17.259357,-39.454548,6.1669922,-32.501671,6.3426323,-32.910042,-8.7388163,-39.499546,6.0738268,-12.541674,-177.40918,-43.117702,-12.792255,-42.504299,-152.55835,-32.439442,5.8240809,-43.037727,-13.127335,-14.762777,17.937672,-35.031784,-34.815136,-32.958527,-9.0051031,-42.505508,-153.6561,-35.131889,-34.830093,-16.087139,156.29736
2510000000,-16.690842,16.787655,-39.641151,5.1471958,-32.450417,5.116128,-32.928883,-9.3732414,-39.684135,5.0049958,-12.513459,-177.54323,-43.643883,-11.607853,-42.635242,-157.38033,-32.394436,4.5837727,-43.556278,-11.994443,-14.704262,17.502287,-35.049438,-35.747044,-32.978958,-9.6357937,-42.648785,-158.25291,-35.145451,-35.721745,-16.095156,155.61491
2510500000,-16.689373,16.316034,-39.852684,4.3502793,-32.404163,3.8307505,-32.935799,-9.9441748,-39.893372,4.1161728,-12.486475,-177.69321,-44.137993,-9.7185287,-42.77882,-162.18811,-32.353565,3.3134744,-44.045296,-10.22336,-14.645303,17.049713,-35.05891,-36.588379,-32.989952,-10.208232,-42.797024,-162.83206,-35.156227,-36.537186,-16.104013,154.97293
2511000000,-16.691217,15.884577,-40.082279,3.8351052,-32.371449,2.5424325,-32.931499,-10.501646,-40.123096,3.5167279,-12.459446,-177.83661,-44.53397,-7.0803757,-42.941059,-167.03574,-32.3256,2.0350208,-44.454044,-7.6300068,-14.58499,16.581907,-35.05761,-37.352501,-32.98848,-10.757475,-42.956345,-167.5119,-35.148888,-37.291241,-16.116276,154.33186
2511500000,-16.695444,15.491525,-40.290386,3.6044283,-32.348808,1.2928007,-32.912094,-11.048323,-40.337261,3.2131994,-12.431537,-177.97141,-44.80365,-3.9832127,-43.138805,-171.9157,-32.308075,0.81140393,-44.727776,-4.5965438,-14.526399,16.098467,-35.037422,-38.131817,-32.975594,-11.296921,-43.139717,-172.26999,-35.126667,-38.059555,-16.131037,153.71193
2512000000,-16.702562,15.126659,-40.471489,3.5989821,-32.323109,0.088236891,-32.879501,-11.604547,-40.524567,3.1471369,-12.403313,-178.11919,-44.937065,-0.67964548,-43.367088,-176.77124,-32.287762,-0.34198228,-44.852715,-1.3877968,-14.472827,15.595747,-35.014477,-38.998386,-32.945461,-11.839797,-43.355038,-176.95726,-35.09721,-38.916519,-16.14868,153.11797
2512500000,-16.707029,14.781796,-40.607807,3.6949377,-32.31398,-1.0807317,-32.834984,-12.188631,-40.672718,3.1243627,-12.375802,-178.26915,-44.924454,2.6111681,-43.615833,178.44017,-32.278057,-1.4758167,-44.849415,1.8167776,-14.419527,15.101055,-34.987709,-39.819145,-32.904209,-12.411142,-43.591919,178.38857,-35.070679,-39.753746,-16.164896,152.55714
2513000000,-16.709425,14.442447,-40.716171,3.8204944,-32.296188,-2.1539605,-32.77182,-12.821127,-40.795612,3.2156761,-12.347316,-178.41467,-44.751465,5.417552,-43.889313,173.7159,-32.259438,-2.5254884,-44.685162,4.5987315,-14.368411,14.599907,-34.955456,-40.690357,-32.840935,-13.017125,-43.841728,173.83401,-35.034775,-40.641407,-16.181511,152.00835
2513500000,-16.711706,14.101124,-40.787914,3.9303291,-32.269459,-3.2273862,-32.694279,-13.570919,-40.887215,3.2639031,-12.319818,-178.56442,-44.473743,7.2545991,-44.177834,169.10963,-32.231186,-3.5487001,-44.419228,6.4049826,-14.320453,14.096903,-34.917542,-41.589912,-32.764141,-13.747207,-44.116405,169.34712,-34.995354,-41.544979,-16.198421,151.47826
2514000000,-16.719351,13.740011,-40.830368,3.8768995,-32.232891,-4.3356142,-32.611431,-14.472379,-40.95813,3.2496877,-12.291595,-178.71803,-44.149963,8.1835728,-44.469162,164.64091,-32.19352,-4.6193762,-44.116196,7.2896452,-14.273234,13.597508,-34.873924,-42.536507,-32.681377,-14.618958,-44.399509,164.99014,-34.950672,-42.484619,-16.216028,150.95496
2514500000,-16.727949,13.403264,-40.868984,3.6518712,-32.193352,-5.5202212,-32.528633,-15.51437,-41.020203,3.1281419,-12.264113,-178.87871,-43.85379,8.1513433,-44.761074,160.23373,-32.153858,-5.777215,-43.843658,7.3653421,-14.228904,13.100124,-34.823746,-43.515789,-32.597481,-15.641924,-44.671822,160.6864,-34.897835,-43.478699,-16.231915,150.46445
2515000000,-16.739414,13.072535,-40.906902,3.3513725,-32.162579,-6.7514629,-32.454891,-16.674719,-41.076878,2.9537816,-12.237471,-179.03836,-43.627178,7.5989604,-45.048683,155.91391,-32.121075,-6.9889264,-43.626495,6.8328671,-14.18534,12.609269,-34.769169,-44.584698,-32.522224,-16.784485,-44.956684,156.50682,-34.845512,-44.563026,-16.246231,149.99797
2515500000,-16.75853,12.758997,-40.936985,2.9317296,-32.142735,-8.0294733,-32.393337,-17.913521,-41.121662,2.700305,-12.211359,-179.20126,-43.443401,6.6333351,-45.333481,151.64401,-32.098827,-8.2258673,-43.451126,5.9557114,-14.142612,12.126977,-34.722122,-45.690502,-32.457813,-18.013388,-45.226597,152.39223,-34.795265,-45.677589,-16.257223,149.55498
2516000000,-16.786499,12.475865,-40.98632,2.32234,-32.130817,-9.2914629,-32.341496,-19.219067,-41.171989,2.2326829,-12.184047,-179.3549,-43.333004,5.2969308,-45.611019,147.26831,-32.08445,-9.4477386,-43.340046,4.6838861,-14.099978,11.648049,-34.669376,-46.849297,-32.403149,-19.313982,-45.481152,148.14885,-34.743446,-46.838238,-16.265753,149.0943
2516500000,-16.819939,12.269377,-41.077461,1.7737803,-32.128235,-10.538419,-32.302284,-20.569914,-41.261532,1.8067598,-12.157147,-179.51747,-43.29882,3.8210294,-45.905972,142.83818,-32.077858,-10.662237,-43.307579,3.229888,-14.058809,11.163384,-34.6189,-48.075829,-32.361519,-20.656824,-45.751484,143.88464,-34.693134,-48.072685,-16.270073,148.67728
2517000000,-16.856878,12.137947,-41.166656,1.4860964,-32.126774,-11.776266,-32.27713,-21.91777,-41.345196,1.6951324,-12.132202,-179.69394,-43.33181,2.2766135,-46.220486,138.69466,-32.07238,-11.881207,-43.33342,1.7304388,-14.02033,10.686461,-34.58165,-49.358437,-32.334747,-21.988846,-46.029476,139.82674,-34.654984,-49.37236,-16.272476,148.24905
2517500000,-16.89904,12.080348,-41.252453,1.2445464,-32.138889,-12.923833,-32.253403,-23.281013,-41.419514,1.5288862,-12.105669,-179.85474,-43.469444,0.86052936,-46.514534,134.5826,-32.078922,-13.01403,-43.478046,0.27048072,-13.983781,10.232254,-34.546616,-50.630432,-32.309418,-23.366882,-46.298779,135.7426,-34.615582,-50.64957,-16.271439,147.81058
2518000000,-16.937016,12.122657,-41.309666,1.0865561,-32.140049,-14.028895,-32.241627,-24.673494,-41.46434,1.4345162,-12.079515,179.97104,-43.660408,-0.17798898,-46.790794,130.66525,-32.075138,-14.109923,-43.67321,-0.73597229,-13.94794,9.8027935,-34.512939,-51.925747,-32.297386,-24.761496,-46.559532,131.80956,-34.579601,-51.943787,-16.267931,147.37807
2518500000,-16.970661,12.250107,-41.358707,0.81146348,-32.139915,-15.126737,-32.244785,-26.058039,-41.502464,1.207057,-12.053217,179.79218,-43.853039,-0.78918618,-47.031765,126.80431,-32.070633,-15.22958,-43.878807,-1.3521581,-13.911913,9.3974352,-34.479939,-53.197716,-32.298801,-26.146515,-46.786461,127.9658,-34.545506,-53.244728,-16.260468,146.91974
2519000000,-16.995365,12.447787,-41.403816,0.51827109,-32.13731,-16.254354,-32.256786,-27.397987,-41.545799,0.94880688,-12.026288,179.61311,-44.05917,-1.2131453,-47.233528,122.82967,-32.061317,-16.362791,-44.099693,-1.8007896,-13.875095,9.0147276,-34.443371,-54.511574,-32.309917,-27.489164,-46.976414,123.97135,-34.50663,-54.613167,-16.249693,146.4454
2519500000,-17.006985,12.6933,-41.448959,0.17502116,-32.135406,-17.40012,-32.274811,-28.666319,-41.588493,0.63335109,-12.000423,179.42101,-44.28989,-1.3353891,-47.416412,118.60793,-32.057491,-17.515215,-44.35062,-1.8466138,-13.834431,8.6496754,-34.405434,-55.90007,-32.324692,-28.766397,-47.164722,119.77608,-34.469452,-56.043594,-16.236097,145.95782
2520000000,-17.007584,12.95558,-41.507759,-0.29117882,-32.139267,-18.548677,-32.286789,-29.888494,-41.641529,0.24022542,-11.976706,179.21432,-44.508671,-1.0951606,-47.613838,114.16794,-32.05862,-18.685825,-44.586094,-1.5454816,-13.790869,8.2926989,-34.371967,-57.385521,-32.334431,-29.996334,-47.369835,115.34265,-34.438591,-57.573364,-16.222345,145.4433
2520500000,-16.995367,13.225654,-41.576866,-0.60992253,-32.14212,-19.658667,-32.294254,-31.135824,-41.712482,-0.069235682,-11.952023,179.01601,-44.709312,-0.65638953,-47.841099,109.70313,-32.061478,-19.813808,-44.78212,-0.93602693,-13.744201,7.9341102,-34.356464,-58.928905,-32.342052,-31.239544,-47.613857,110.98445,-34.427647,-59.160191,-16.20756,144.90747
2521000000,-16.975365,13.47867,-41.663109,-0.87393934,-32.143993,-20.748089,-32.307247,-32.387802,-41.795609,-0.26024687,-11.931777,178.78989,-44.889114,0.055768918,-48.084526,105.46757,-32.060326,-20.909273,-44.96067,-0.23464689,-13.694185,7.5615907,-34.356853,-60.440815,-32.356415,-32.513275,-47.86216,106.90619,-34.431236,-60.711887,-16.193584,144.3562
2521500000,-16.943235,13.713217,-41.753651,-1.0564926,-32.137238,-21.820395,-32.321716,-33.631428,-41.875393,-0.28879127,-11.911192,178.56927,-45.037804,0.7172007,-48.343311,101.47375,-32.051098,-22.015793,-45.116241,0.49495623,-13.643108,7.1601162,-34.359215,-61.902866,-32.370266,-33.752827,-48.137718,103.06414,-34.441467,-62.209263,-16.180851,143.77234
2522000000,-16.903131,13.929465,-41.839577,-0.94322461,-32.12582,-22.945139,-32.33522,-34.878006,-41.948433,-0.057533365,-11.891582,178.34241,-45.19022,1.5733254,-48.581367,97.737022,-32.037094,-23.15666,-45.268574,1.4018666,-13.59135,6.7457457,-34.366081,-63.367504,-32.382164,-35.014957,-48.357052,99.509056,-34.456791,-63.705345,-16.171236,143.15965
2522500000,-16.855057,14.121436,-41.879536,-0.72123444,-32.110947,-24.096163,-32.345005,-36.15242,-41.964935,0.18722877,-11.874574,178.11134,-45.310406,2.5081856,-48.792187,94.350739,-32.023773,-24.35162,-45.379341,2.4236131,-13.542702,6.309938,-34.378429,-64.827827,-32.393085,-36.305206,-48.550922,96.32373,-34.479454,-65.136711,-16.165129,142.53261
2523000000,-16.796593,14.281528,-41.905796,-0.71478808,-32.091484,-25.30694,-32.35804,-37.482182,-41.968582,0.266289,-11.859412,177.87415,-45.412743,3.424355,-48.922352,91.216354,-32.007801,-25.572828,-45.494198,3.3470824,-13.494098,5.8681393,-34.391357,-66.276558,-32.409035,-37.666325,-48.64793,93.207306,-34.501949,-66.564888,-16.161823,141.89734
2523500000,-16.731302,14.417638,-41.938572,-0.65322435,-32.070133,-26.577389,-32.383003,-38.862976,-41.979595,0.36601329,-11.844773,177.65152,-45.508858,4.4667401,-48.978786,87.980675,-31.989386,-26.883791,-45.601128,4.5218549,-13.446836,5.4185362,-34.406212,-67.744164,-32.433773,-39.044506,-48.67654,89.960655,-34.525036,-67.999359,-16.162901,141.27158
2524000000,-16.661142,14.52914,-41.968048,-0.46897414,-32.051048,-27.948017,-32.419804,-40.256145,-41.984352,0.52436155,-11.833662,177.41943,-45.586365,5.5302768,-48.996281,84.411369,-31.973585,-28.273827,-45.671417,5.766264,-13.402702,4.9603801,-34.428349,-69.218636,-32.471039,-40.449348,-48.677197,86.380806,-34.552322,-69.420975,-16.168495,140.63304
2524500000,-16.586473,14.59969,-41.964348,-0.17184922,-32.038471,-29.403042,-32.466679,-41.634121,-41.95686,0.74414033,-11.822073,177.19212,-45.639908,6.6736679,-49.03006,80.61113,-31.965525,-29.766966,-45.715034,7.0387263,-13.358262,4.5016165,-34.45789,-70.685547,-32.519257,-41.828976,-48.700878,82.559715,-34.581589,-70.821297,-16.178703,140.01981
2525000000,-16.498859,14.645226,-41.92857,-0.0026423882,-32.034054,-30.954437,-32.52409,-43.004486,-41.898891,0.81770849,-11.811725,176.96248,-45.686054,7.70748,-49.058105,76.978004,-31.967299,-31.332476,-45.743652,8.0838156,-13.314396,4.0407348,-34.494675,-72.14782,-32.575771,-43.211166,-48.713444,78.862083,-34.618145,-72.215569,-16.192663,139.41756
2525500000,-16.406448,14.61397,-41.894505,0.0062303697,-32.042709,-32.571587,-32.591805,-44.378418,-41.856533,0.73201448,-11.803537,176.73961,-45.74958,8.9227047,-49.068302,73.28476,-31.979269,-32.950832,-45.801243,9.3771791,-13.270215,3.5662291,-34.540676,-73.563354,-32.64777,-44.57877,-48.71907,75.021873,-34.660877,-73.598602,-16.209566,138.83592
2526000000,-16.309687,14.495999,-41.845631,-0.0029756206,-32.069633,-34.284492,-32.683434,-45.688187,-41.795902,0.61693501,-11.797497,176.5054,-45.768887,10.233841,-49.101326,69.526993,-32.011173,-34.672466,-45.810963,10.592876,-13.231339,3.0762811,-34.593582,-74.940094,-32.73613,-45.884644,-48.748756,71.094604,-34.708096,-74.933182,-16.228802,138.28667
2526500000,-16.206778,14.300133,-41.800049,-0.15107128,-32.119785,-36.016979,-32.787121,-46.895912,-41.743309,0.31471032,-11.792713,176.27557,-45.799122,11.405544,-49.156918,65.979889,-32.063679,-36.40543,-45.833447,11.890912,-13.196131,2.5918257,-34.645416,-76.245277,-32.839462,-47.121212,-48.808567,67.29467,-34.755531,-76.232941,-16.249943,137.74294
2527000000,-16.103533,14.002143,-41.763397,-0.35733634,-32.190723,-37.727524,-32.904247,-47.968594,-41.708298,0.013541677,-11.790275,176.04504,-45.841358,12.758923,-49.237236,62.777798,-32.137135,-38.134918,-45.870995,13.177548,-13.163593,2.1185677,-34.69603,-77.517044,-32.956154,-48.201836,-48.888145,63.912678,-34.802505,-77.493607,-16.271055,137.23724
