!CSV A.01.01
!Keysight Technologies,N5222B,MY58422327,A.13.60.06
!Date: Monday, March 28, 2022 16:12:13
!Source: Standard

BEGIN CH1_DATA
Freq(Hz),S11(DB),S11(DEG),S12(DB),S12(DEG),S13(DB),S13(DEG),S14(DB),S14(DEG),S21(DB),S21(DEG),S22(DB),S22(DEG),S23(DB),S23(DEG),S24(DB),S24(DEG),S31(DB),S31(DEG),S32(DB),S32(DEG),S33(DB),S33(DEG),S34(DB),S34(DEG),S41(DB),S41(DEG),S42(DB),S42(DEG),S43(DB),S43(DEG),S44(DB),S44(DEG)
2500000000,-17.325983,24.728468,-37.137203,25.80862,-34.40477,25.856657,-32.125641,7.017282,-37.168949,25.433771,-13.117685,-174.57533,-38.480892,16.083714,-44.284428,-83.578331,-34.319321,25.984213,-38.398487,15.995284,-15.704179,27.683865,-34.854496,-18.843498,-32.17207,6.6866765,-44.284607,-84.612091,-34.931171,-18.801111,-16.272024,165.93723
2500500000,-17.304514,24.39142,-37.27145,24.745811,-34.294056,24.703646,-32.186043,5.8152637,-37.31628,24.244417,-13.079258,-174.75313,-38.579498,14.673391,-44.163616,-86.578331,-34.206707,24.795826,-38.502392,14.570663,-15.643729,27.087402,-34.869305,-19.67606,-32.241676,5.4658942,-44.164505,-87.559059,-34.949387,-19.637466,-16.261618,165.57227
2501000000,-17.279549,24.060408,-37.406094,23.732582,-34.189537,23.523363,-32.256233,4.6670823,-37.47065,23.154104,-13.039737,-174.91422,-38.698017,13.210891,-44.072189,-89.651047,-34.104916,23.581818,-38.621559,13.115315,-15.583563,26.484495,-34.880302,-20.646976,-32.321259,4.3158121,-44.066517,-90.599777,-34.9617,-20.612017,-16.249998,165.2011
2501500000,-17.249954,23.736814,-37.51815,22.810488,-34.097607,22.401459,-32.334503,3.6460593,-37.604736,22.220282,-13.002675,-175.0872,-38.8293,11.810446,-44.014816,-92.653473,-34.016048,22.455275,-38.758858,11.737984,-15.526767,25.86808,-34.904388,-21.681601,-32.406521,3.3222697,-44.016476,-93.580093,-34.984062,-21.642715,-16.234509,164.8358
2502000000,-17.221447,23.382561,-37.61446,21.879484,-34.013805,21.295277,-32.408279,2.7009978,-37.726707,21.311216,-12.967288,-175.25558,-38.976273,10.465328,-43.961487,-95.511047,-33.931908,21.321407,-38.911682,10.424306,-15.47288,25.254734,-34.937241,-22.802423,-32.487774,2.3898625,-43.961628,-96.428795,-35.016853,-22.758039,-16.216694,164.45735
2502500000,-17.189596,23.019266,-37.713654,20.914732,-33.939304,20.179401,-32.478786,1.8392122,-37.83717,20.388107,-12.931305,-175.41922,-39.126339,9.2163134,-43.909191,-98.1987,-33.86002,20.193037,-39.064796,9.2418022,-15.42425,24.648117,-34.990776,-23.939606,-32.56599,1.5253904,-43.906101,-99.163399,-35.067997,-23.89518,-16.196745,164.05644
2503000000,-17.156654,22.638384,-37.792862,19.957705,-33.879341,19.130272,-32.545876,1.0331448,-37.931206,19.497309,-12.898477,-175.60287,-39.277248,8.0211182,-43.842209,-100.97706,-33.80035,19.111483,-39.221069,8.1035824,-15.379334,24.055603,-35.069675,-24.969227,-32.638554,0.74372941,-43.844433,-101.89528,-35.141701,-24.941778,-16.174541,163.64395
2503500000,-17.128038,22.230078,-37.862297,18.884136,-33.825726,18.200367,-32.605858,0.25476521,-38.014034,18.511757,-12.866375,-175.78117,-39.417,6.8314376,-43.758892,-103.634,-33.746933,18.133955,-39.357437,6.9705825,-15.33858,23.487202,-35.154766,-25.837749,-32.702782,0.021466035,-43.764542,-104.57251,-35.226749,-25.816875,-16.150867,163.21677
2504000000,-17.096838,21.827436,-37.936848,17.763102,-33.765339,17.391541,-32.663067,-0.5033201,-38.101242,17.479816,-12.83449,-175.95624,-39.559116,5.6030345,-43.646355,-106.32919,-33.690292,17.26779,-39.497009,5.806962,-15.299663,22.952259,-35.229511,-26.566242,-32.760201,-0.69186968,-43.662022,-107.27965,-35.299984,-26.595366,-16.126356,162.74409
2504500000,-17.06411,21.428404,-38.010216,16.578978,-33.690884,16.613844,-32.717773,-1.2109935,-38.174671,16.389515,-12.805136,-176.14258,-39.71027,4.1882634,-43.508331,-109.24561,-33.618793,16.487213,-39.641376,4.450202,-15.260328,22.45031,-35.297935,-27.164534,-32.816387,-1.3424301,-43.527218,-110.07902,-35.36869,-27.226751,-16.098366,162.26088
2505000000,-17.026026,21.030651,-38.086315,15.272224,-33.607124,15.840005,-32.764412,-1.8744123,-38.246601,15.179893,-12.778814,-176.33807,-39.889565,2.7807033,-43.342075,-112.40636,-33.537121,15.711542,-39.817322,3.0615025,-15.220729,21.962694,-35.354473,-27.650188,-32.86034,-1.9363149,-43.352421,-113.12461,-35.429802,-27.794796,-16.072042,161.72243
2505500000,-16.985907,20.604065,-38.182034,13.963389,-33.507729,14.988256,-32.808384,-2.5103738,-38.336956,13.935061,-12.75312,-176.51704,-40.098759,1.2744533,-43.176521,-115.94935,-33.440132,14.867611,-40.024616,1.6211567,-15.178323,21.491732,-35.379871,-28.114019,-32.89682,-2.5339248,-43.184803,-116.60141,-35.460285,-28.261459,-16.045362,161.15384
2506000000,-16.946117,20.158415,-38.283363,12.590894,-33.404007,14.098433,-32.84557,-3.108217,-38.43235,12.581032,-12.729944,-176.69662,-40.341469,-0.19314516,-43.015617,-119.81863,-33.336803,13.940847,-40.266296,0.19129065,-15.135312,21.039774,-35.385483,-28.569502,-32.927475,-3.1173079,-43.020252,-120.41036,-35.475563,-28.748196,-16.020348,160.53897
2506500000,-16.906212,19.697802,-38.406216,11.148502,-33.302177,13.158181,-32.876595,-3.6611347,-38.552979,11.16993,-12.708817,-176.87823,-40.634468,-1.5882757,-42.8867,-124.09055,-33.23753,12.949884,-40.547066,-1.181002,-15.090357,20.596769,-35.373417,-29.091589,-32.946571,-3.6425767,-42.882381,-124.62977,-35.467106,-29.297718,-15.998699,159.89331
2507000000,-16.87093,19.221899,-38.548439,9.7887163,-33.197903,12.123937,-32.886578,-4.1924472,-38.695816,9.8412552,-12.687091,-177.03157,-40.980747,-2.7774372,-42.805107,-128.61343,-33.136101,11.912976,-40.880737,-2.3500245,-15.042828,20.159309,-35.345829,-29.703739,-32.946144,-4.1776605,-42.794201,-129.1219,-35.447632,-29.907145,-15.981795,159.21014
2507500000,-16.832848,18.758709,-38.709808,8.5366316,-33.094833,10.99291,-32.883762,-4.7831154,-38.858456,8.5822878,-12.6666,-177.18909,-41.365234,-3.5755253,-42.769615,-133.30841,-33.038525,10.776443,-41.249382,-3.1734729,-14.99225,19.733454,-35.309505,-30.431911,-32.93705,-4.8131242,-42.743763,-133.79099,-35.421753,-30.609701,-15.970603,158.51222
2508000000,-16.800825,18.273737,-38.883938,7.4169374,-33.001221,9.803772,-32.880608,-5.4637909,-39.035137,7.4092169,-12.64557,-177.33121,-41.774483,-3.9747219,-42.785698,-138.09485,-32.948521,9.5945988,-41.646633,-3.5778785,-14.940886,19.308189,-35.275784,-31.276249,-32.928726,-5.5368352,-42.747868,-138.58954,-35.391281,-31.424994,-15.964878,157.80688
2508500000,-16.771307,17.793238,-39.05862,6.3829007,-32.920097,8.5913391,-32.879456,-6.1642971,-39.213993,6.3866353,-12.622961,-177.45702,-42.185932,-3.8901334,-42.840698,-142.8886,-32.870171,8.3884678,-42.057198,-3.5617006,-14.884863,18.887615,-35.247517,-32.199196,-32.924538,-6.2842317,-42.804306,-143.33548,-35.366776,-32.324318,-15.964224,157.09814
2509000000,-16.749846,17.296434,-39.234001,5.379446,-32.841366,7.3540006,-32.87849,-6.8617601,-39.401913,5.388648,-12.601431,-177.59927,-42.58857,-3.2669349,-42.938309,-147.5899,-32.795204,7.1539431,-42.459293,-2.9121327,-14.828032,18.463158,-35.230881,-33.18222,-32.925968,-7.0227585,-42.896244,-148.03331,-35.35582,-33.2514,-15.965645,156.40509
2509500000,-16.732847,16.817513,-39.414837,4.4287987,-32.770828,6.0801287,-32.877411,-7.5536056,-39.600002,4.5444169,-12.57708,-177.73528,-42.948524,-2.0839689,-43.063416,-152.16626,-32.726208,5.9114823,-42.813152,-1.8033975,-14.767775,18.029633,-35.222771,-34.113926,-32.927876,-7.7356486,-43.01292,-152.5986,-35.34922,-34.142811,-15.970305,155.71582
2510000000,-16.723902,16.350042,-39.609276,3.5545523,-32.704926,4.7674084,-32.873016,-8.1972275,-39.806923,3.8103764,-12.551005,-177.86526,-43.253738,-0.56307411,-43.195549,-156.68149,-32.660378,4.6130643,-43.118099,-0.28936464,-14.706002,17.587051,-35.217796,-35.013584,-32.928204,-8.4054947,-43.150127,-157.13313,-35.343472,-35.015434,-15.978609,155.02303
2510500000,-16.724972,15.88745,-39.823174,2.821166,-32.656338,3.4205055,-32.858734,-8.8070002,-40.025558,3.2830405,-12.526306,-178.01181,-43.499146,1.2494568,-43.337547,-161.18893,-32.605091,3.2707922,-43.351563,1.5767084,-14.644686,17.118992,-35.20929,-35.857685,-32.918968,-9.0462437,-43.286663,-161.6947,-35.333153,-35.848103,-15.987197,154.37062
2511000000,-16.728161,15.461928,-40.043716,2.3474364,-32.617596,2.070864,-32.835972,-9.4480095,-40.237209,3.0097332,-12.501412,-178.15373,-43.648613,3.4600835,-43.494312,-165.7428,-32.563438,1.9194802,-43.484085,3.6853237,-14.583078,16.634579,-35.190327,-36.690075,-32.900764,-9.6776161,-43.442223,-166.33723,-35.314468,-36.656864,-15.99899,153.71255
2511500000,-16.734249,15.071367,-40.236607,2.137171,-32.589016,0.74116266,-32.804333,-10.078734,-40.420319,2.9762285,-12.475789,-178.28633,-43.678703,5.6418424,-43.669968,-170.36478,-32.538277,0.59517837,-43.512173,5.6966667,-14.523228,16.133572,-35.162094,-37.565804,-32.875233,-10.324157,-43.619381,-170.98232,-35.284149,-37.49942,-16.013538,153.07175
2512000000,-16.743519,14.702425,-40.408611,2.0476284,-32.56525,-0.50774407,-32.765224,-10.743863,-40.567707,3.0609832,-12.450693,-178.43188,-43.624607,7.5101304,-43.88139,-174.95972,-32.512794,-0.64983433,-43.463333,7.5914965,-14.470559,15.606312,-35.134583,-38.555916,-32.839874,-10.966143,-43.826015,-175.48827,-35.256001,-38.478657,-16.030888,152.45134
2512500000,-16.752117,14.360524,-40.553078,2.002835,-32.552418,-1.7509291,-32.716938,-11.405772,-40.676033,3.1435273,-12.426184,-178.5791,-43.503757,9.2453613,-44.12289,-179.51173,-32.50095,-1.8997579,-43.350681,9.2380457,-14.418508,15.096208,-35.112968,-39.512672,-32.794136,-11.636798,-44.05711,-179.95313,-35.236115,-39.408318,-16.047791,151.86186
2513000000,-16.75897,14.022135,-40.67157,1.9939816,-32.534203,-2.9063075,-32.649666,-12.124843,-40.754562,3.247978,-12.401284,-178.7157,-43.292915,10.432969,-44.386059,176.0631,-32.486137,-3.0486612,-43.144283,10.379181,-14.36919,14.582526,-35.091232,-40.492485,-32.73341,-12.312943,-44.307426,175.66508,-35.208851,-40.348206,-16.065653,151.28059
2513500000,-16.766567,13.691373,-40.760662,1.9109318,-32.511131,-4.0544624,-32.574028,-12.940269,-40.808529,3.1537361,-12.377052,-178.85373,-43.034115,10.883746,-44.657646,171.86621,-32.463959,-4.1914272,-42.885822,10.800892,-14.32378,14.072976,-35.070232,-41.447823,-32.659523,-13.102854,-44.565212,171.44298,-35.178806,-41.285145,-16.083864,150.7197
2514000000,-16.778978,13.352901,-40.837772,1.7614765,-32.481762,-5.2461843,-32.49324,-13.892614,-40.847008,2.9446352,-12.351852,-178.99246,-42.787754,10.598956,-44.91597,167.84769,-32.439548,-5.3808312,-42.640114,10.485583,-14.278522,13.57667,-35.042545,-42.409046,-32.579239,-14.017956,-44.82243,167.36858,-35.14061,-42.242161,-16.103376,150.16043
2514500000,-16.792101,13.044566,-40.90781,1.5537709,-32.459953,-6.4977674,-32.413109,-14.955224,-40.878914,2.5442805,-12.326946,-179.14001,-42.589607,9.7641497,-45.164951,163.85179,-32.417389,-6.6000671,-42.435192,9.5869608,-14.235906,13.081056,-35.004787,-43.374702,-32.497967,-15.042652,-45.068375,163.29987,-35.097332,-43.237442,-16.122311,149.63803
2515000000,-16.807922,12.754851,-40.983025,1.2311028,-32.446072,-7.7692513,-32.338177,-16.129978,-40.924374,2.0620625,-12.30342,-179.28459,-42.449146,8.5551672,-45.411114,159.98892,-32.404102,-7.8389125,-42.295174,8.3483934,-14.193355,12.594346,-34.965492,-44.424129,-32.420036,-16.182482,-45.314037,159.37392,-35.055679,-44.316349,-16.1399,149.13718
2515500000,-16.83007,12.489648,-41.049366,0.88931578,-32.44347,-9.0735998,-32.272331,-17.389336,-40.9669,1.4575478,-12.280285,-179.43126,-42.341312,7.1583114,-45.621452,156.17909,-32.401356,-9.0728617,-42.202145,6.9134684,-14.150929,12.116336,-34.925411,-45.451405,-32.350697,-17.410572,-45.536999,155.42572,-35.013184,-45.402103,-16.154623,148.65927
2516000000,-16.859404,12.261363,-41.126083,0.35556525,-32.45364,-10.330517,-32.218025,-18.727234,-41.041416,0.70864326,-12.256161,-179.56599,-42.303528,5.4975791,-45.815037,152.214,-32.406776,-10.286416,-42.173004,5.2045403,-14.10878,11.636272,-34.87571,-46.581272,-32.290066,-18.740793,-45.739906,151.37479,-34.962265,-46.553295,-16.167894,148.16791
2516500000,-16.892302,12.113297,-41.248222,-0.069255017,-32.469215,-11.529018,-32.1749,-20.093657,-41.167572,-0.026074467,-12.232485,-179.70561,-42.330997,3.7500079,-46.019554,148.10976,-32.417358,-11.439607,-42.203442,3.4467938,-14.068146,11.153565,-34.828697,-47.793243,-32.241932,-20.121607,-45.94923,147.27136,-34.917622,-47.781086,-16.178362,147.7211
2517000000,-16.925896,12.03485,-41.362263,-0.20479462,-32.486282,-12.685231,-32.146992,-21.478077,-41.301548,-0.37923932,-12.210025,-179.85838,-42.415009,1.9682351,-46.239796,144.12726,-32.424423,-12.570168,-42.289665,1.6949049,-14.030241,10.676299,-34.791164,-49.059029,-32.208305,-21.509815,-46.181,143.26144,-34.884346,-49.070427,-16.187042,147.2695
2517500000,-16.96273,12.030346,-41.459179,-0.25961253,-32.513264,-13.717915,-32.124004,-22.8638,-41.430897,-0.60053402,-12.186112,-179.99153,-42.590553,0.26451501,-46.441139,140.1718,-32.442066,-13.604025,-42.466934,-0.031512074,-13.993478,10.224163,-34.760143,-50.341717,-32.183014,-22.910194,-46.412117,139.26855,-34.853127,-50.354774,-16.193783,146.81583
2518000000,-16.993271,12.101427,-41.529179,-0.23532058,-32.525715,-14.701438,-32.1092,-24.259176,-41.533867,-0.6925596,-12.162361,179.86572,-42.813213,-1.0964743,-46.638992,136.27037,-32.446079,-14.602038,-42.691803,-1.38007,-13.958455,9.7933083,-34.730618,-51.630882,-32.167816,-24.329094,-46.615532,135.45041,-34.824036,-51.664776,-16.196995,146.37544
2518500000,-17.019632,12.248485,-41.591999,-0.38314611,-32.529552,-15.685511,-32.106537,-25.638866,-41.636463,-0.80491155,-12.137802,179.72218,-43.058815,-2.1337702,-46.781689,132.34862,-32.44212,-15.615774,-42.940414,-2.4213417,-13.923254,9.3881168,-34.704128,-52.920399,-32.165462,-25.705187,-46.789803,131.63156,-34.796055,-52.948563,-16.19672,145.91348
2519000000,-17.037169,12.446181,-41.661751,-0.49031192,-32.52953,-16.701618,-32.111053,-26.970343,-41.728069,-0.91906857,-12.111462,179.58092,-43.344059,-3.0012586,-46.903358,128.24269,-32.438519,-16.661777,-43.233353,-3.3524914,-13.886682,9.0069675,-34.671799,-54.256329,-32.16856,-27.051897,-46.941456,127.66154,-34.766895,-54.301521,-16.192125,145.44078
2519500000,-17.042219,12.681674,-41.728607,-0.68201274,-32.528782,-17.720665,-32.112789,-28.231619,-41.822853,-0.97038603,-12.085889,179.42918,-43.670994,-3.5141091,-47.032059,123.89544,-32.433922,-17.743164,-43.578041,-3.8154759,-13.846302,8.6450987,-34.639198,-55.652042,-32.173191,-28.323988,-47.06789,123.47016,-34.739464,-55.69828,-16.185051,144.95599
2520000000,-17.037977,12.927395,-41.808681,-0.86172915,-32.531445,-18.762167,-32.108814,-29.489206,-41.91946,-1.0116322,-12.061233,179.26289,-44.008255,-3.4732277,-47.201847,119.27,-32.435326,-18.82021,-43.922825,-3.730181,-13.80374,8.2902384,-34.61274,-57.111141,-32.167751,-29.592175,-47.230907,119.03299,-34.714325,-57.179359,-16.177794,144.45264
2520500000,-17.021788,13.172691,-41.906376,-0.87407273,-32.53437,-19.763186,-32.098003,-30.802435,-42.03146,-0.85233372,-12.034739,179.10512,-44.327709,-3.0131605,-47.408703,114.76881,-32.437176,-19.867767,-44.250675,-3.2055552,-13.757525,7.9346094,-34.603104,-58.661434,-32.157703,-30.89175,-47.433029,114.73001,-34.705208,-58.71418,-16.168856,143.9259
2521000000,-16.999895,13.399411,-41.991184,-0.62984544,-32.532089,-20.758215,-32.092495,-32.158806,-42.124844,-0.51793319,-12.011662,178.91547,-44.645004,-2.1725824,-47.644787,110.54615,-32.434326,-20.904398,-44.558193,-2.2764425,-13.707632,7.5679545,-34.607067,-60.165813,-32.15089,-32.258213,-47.670971,110.58819,-34.709145,-60.213837,-16.159542,143.38426
2521500000,-16.967018,13.610483,-42.0639,-0.29975784,-32.520412,-21.710001,-32.089481,-33.530483,-42.204712,-0.033582665,-11.987744,178.72592,-44.930557,-0.90340286,-47.884731,106.66042,-32.424755,-21.909723,-44.827606,-1.0604194,-13.657233,7.1740494,-34.609932,-61.670361,-32.146358,-33.631012,-47.897007,106.79601,-34.714367,-61.709953,-16.153032,142.81607
2522000000,-16.927601,13.802809,-42.115784,0.28813234,-32.49765,-22.730801,-32.087418,-34.961472,-42.254898,0.73305106,-11.96415,178.52721,-45.173492,0.78260988,-48.097198,103.05688,-32.405392,-22.977936,-45.057053,0.56194311,-13.60594,6.7650743,-34.621738,-63.189816,-32.144482,-35.072559,-48.096367,103.30083,-34.726162,-63.222347,-16.148844,142.22766
2522500000,-16.880219,13.977714,-42.09948,0.848517,-32.469158,-23.813904,-32.091408,-36.445175,-42.226158,1.4945657,-11.942674,178.3183,-45.334347,2.6709998,-48.274406,99.803047,-32.382832,-24.112053,-45.210846,2.3841479,-13.556796,6.3370075,-34.641937,-64.722359,-32.149502,-36.563969,-48.274071,100.12637,-34.746071,-64.715103,-16.147585,141.62663
2523000000,-16.822977,14.128664,-42.060585,1.2161539,-32.437122,-24.971245,-32.105911,-37.991665,-42.169014,2.030241,-11.923018,178.09665,-45.425541,4.4700046,-48.373573,96.668541,-32.35788,-25.292969,-45.308315,4.0808396,-13.50799,5.9017653,-34.666611,-66.242928,-32.164768,-38.118298,-48.366482,97.119614,-34.769405,-66.223724,-16.148846,141.02408
2523500000,-16.758284,14.258621,-42.012745,1.4896432,-32.403004,-26.23707,-32.136944,-39.571579,-42.095207,2.4221988,-11.904226,177.88397,-45.480591,6.2002206,-48.424114,93.385284,-32.333328,-26.555761,-45.375523,5.8005013,-13.460321,5.4594879,-34.702953,-67.764046,-32.195358,-39.701935,-48.402203,93.915184,-34.798386,-67.762154,-16.153778,140.43773
2524000000,-16.688354,14.363762,-41.95322,1.7505157,-32.37241,-27.581924,-32.180775,-41.134533,-42.006721,2.7825782,-11.889009,177.65869,-45.490704,7.9146285,-48.447651,89.927826,-32.310646,-27.916765,-45.398647,7.5308967,-13.41563,5.0075197,-34.750286,-69.291618,-32.242332,-41.290455,-48.401474,90.460693,-34.842003,-69.287376,-16.161671,139.84286
2524500000,-16.613747,14.428183,-41.860279,1.9608376,-32.350365,-29.037542,-32.239391,-42.691635,-41.872864,2.9767551,-11.873471,177.43504,-45.454285,9.5280733,-48.476089,86.407684,-32.291901,-29.343002,-45.377583,9.185421,-13.369695,4.5562954,-34.807426,-70.791428,-32.302475,-42.85585,-48.420368,86.891449,-34.897923,-70.786728,-16.172119,139.27156
2525000000,-16.525158,14.459913,-41.737156,1.9010184,-32.338863,-30.592216,-32.30814,-44.23233,-41.718307,2.8544972,-11.859651,177.2041,-45.403381,10.688004,-48.489334,83.012901,-32.283943,-30.898134,-45.326771,10.435229,-13.32472,4.0991387,-34.877228,-72.222351,-32.373722,-44.396633,-48.424118,83.497879,-34.965145,-72.24427,-16.185165,138.70859
2525500000,-16.433756,14.412339,-41.64196,1.580856,-32.338043,-32.213196,-32.393898,-45.780273,-41.586246,2.4166048,-11.848495,176.97955,-45.391884,11.955338,-48.475822,79.600143,-32.290154,-32.499634,-45.31308,11.818332,-13.27924,3.6241381,-34.954998,-73.564728,-32.460487,-45.921638,-48.394878,79.980644,-35.040638,-73.602905,-16.199949,138.16101
2526000000,-16.338326,14.278493,-41.540665,1.1541289,-32.360092,-33.920811,-32.50082,-47.273285,-41.464066,1.8739753,-11.83976,176.74144,-45.341129,13.163317,-48.45644,76.08239,-32.314121,-34.222195,-45.249092,13.020958,-13.239282,3.1308138,-35.036987,-74.809563,-32.565781,-47.405514,-48.382008,76.363678,-35.125553,-74.883286,-16.216122,137.64084
2526500000,-16.238194,14.067031,-41.458111,0.593427,-32.399323,-35.666683,-32.62899,-48.670162,-41.363342,1.1050327,-11.832665,176.5067,-45.299881,14.28473,-48.469696,72.619682,-32.360962,-35.950661,-45.20871,14.125359,-13.202938,2.6443977,-35.114983,-75.939667,-32.690426,-48.79948,-48.403873,72.778122,-35.202545,-76.032593,-16.234026,137.12033
2527000000,-16.137863,13.757365,-41.391273,-0.012712134,-32.462341,-37.427074,-32.774635,-49.921566,-41.296104,0.28291982,-11.828238,176.27097,-45.283997,15.41326,-48.497646,69.385864,-32.427689,-37.691536,-45.18364,15.308102,-13.1698,2.168149,-35.186615,-77.037094,-32.834263,-50.049614,-48.44162,69.591545,-35.273979,-77.13269,-16.250719,136.62622
