!CSV A.01.01
!Keysight Technologies,N5222B,MY58422327,A.13.60.06
!Date: Monday, March 28, 2022 16:13:13
!Source: Standard

BEGIN CH1_DATA
Freq(Hz),S11(DB),S11(DEG),S12(DB),S12(DEG),S13(DB),S13(DEG),S14(DB),S14(DEG),S21(DB),S21(DEG),S22(DB),S22(DEG),S23(DB),S23(DEG),S24(DB),S24(DEG),S31(DB),S31(DEG),S32(DB),S32(DEG),S33(DB),S33(DEG),S34(DB),S34(DEG),S41(DB),S41(DEG),S42(DB),S42(DEG),S43(DB),S43(DEG),S44(DB),S44(DEG)
2500000000,-17.30164,24.844118,-37.213955,23.868746,-34.462696,26.043648,-32.021595,6.0962849,-37.289299,23.289593,-13.13217,-174.35213,-38.365368,16.987122,-44.611115,-85.657028,-34.357632,26.458965,-38.120235,16.802176,-15.690738,27.735147,-34.948994,-19.047043,-32.090332,5.9371309,-44.366787,-85.313896,-35.024307,-18.9769,-16.327259,166.1176
2500500000,-17.280657,24.481586,-37.358994,22.975218,-34.346054,24.972223,-32.093861,4.8836107,-37.437012,22.236778,-13.092374,-174.52859,-38.441143,15.669711,-44.47456,-88.303673,-34.239113,25.37681,-38.198696,15.397828,-15.628142,27.154167,-34.954887,-19.875576,-32.165623,4.7388797,-44.226986,-87.930603,-35.031139,-19.819311,-16.318312,165.73573
2501000000,-17.256681,24.137442,-37.506985,22.118845,-34.240448,23.901545,-32.172161,3.725852,-37.587299,21.223335,-13.051905,-174.69006,-38.527397,14.266425,-44.350506,-91.058121,-34.128544,24.234301,-38.287903,13.947945,-15.565228,26.559021,-34.959942,-20.84103,-32.247875,3.5980623,-44.10841,-90.663986,-35.037281,-20.797068,-16.308599,165.34821
2501500000,-17.227753,23.809994,-37.627296,21.397308,-34.142067,22.862358,-32.261463,2.6833174,-37.714096,20.382059,-13.01411,-174.8654,-38.626011,12.91848,-44.255394,-93.850266,-34.029556,23.166643,-38.394783,12.54155,-15.50636,25.947332,-34.973743,-21.881399,-32.336769,2.5736816,-44.01334,-93.408463,-35.053352,-21.817152,-16.295927,164.96994
2502000000,-17.199699,23.446596,-37.725586,20.671261,-34.047386,21.849199,-32.343441,1.7334862,-37.828018,19.484262,-12.97817,-175.03828,-38.731598,11.577476,-44.162525,-96.456421,-33.934315,22.102776,-38.510357,11.180112,-15.450707,25.338032,-34.997944,-22.988041,-32.424458,1.6202759,-43.920277,-96.053612,-35.080051,-22.934116,-16.281645,164.57829
2502500000,-17.167828,23.073805,-37.812077,19.896231,-33.960945,20.781275,-32.423706,0.8666355,-37.938633,18.596653,-12.942275,-175.20857,-38.847145,10.309314,-44.058872,-99.021263,-33.852539,20.997604,-38.628025,9.90098,-15.400672,24.730398,-35.042088,-24.127439,-32.508286,0.75667435,-43.8209,-98.618095,-35.124531,-24.057007,-16.266621,164.16774
2503000000,-17.135166,22.680738,-37.877663,19.119555,-33.890213,19.758259,-32.497643,0.072953604,-38.036968,17.703117,-12.910358,-175.39609,-38.957569,9.048418,-43.949436,-101.6353,-33.783642,19.951244,-38.748222,8.6312723,-15.353556,24.137823,-35.113312,-25.161421,-32.584408,-0.029969716,-43.708199,-101.28024,-35.195328,-25.093712,-16.250568,163.75781
2503500000,-17.107418,22.26079,-37.9277,18.22677,-33.826447,18.84569,-32.568531,-0.70431709,-38.119678,16.742979,-12.879401,-175.57748,-39.063778,7.7743487,-43.817116,-104.24963,-33.717842,18.983908,-38.8545,7.3665709,-15.310435,23.572416,-35.188442,-26.035362,-32.653584,-0.77657759,-43.571659,-103.89117,-35.267464,-25.946812,-16.232256,163.34009
2504000000,-17.077879,21.849842,-37.982773,17.240309,-33.755444,18.024445,-32.633053,-1.4721996,-38.207787,15.720992,-12.848728,-175.75009,-39.170811,6.4514513,-43.65023,-106.97254,-33.64922,18.118757,-38.963448,6.0027461,-15.269277,23.035322,-35.258053,-26.809723,-32.717873,-1.5199382,-43.410149,-106.62166,-35.33186,-26.708551,-16.212997,162.88618
2504500000,-17.047029,21.444229,-38.02557,16.170618,-33.671551,17.227463,-32.697052,-2.1669974,-38.288368,14.681396,-12.821048,-175.92975,-39.288052,4.9258142,-43.461811,-109.95048,-33.568207,17.269081,-39.083702,4.4696121,-15.227309,22.52655,-35.316002,-27.447332,-32.780842,-2.2177966,-43.22617,-109.58187,-35.386936,-27.377533,-16.18968,162.43028
2505000000,-17.011221,21.043221,-38.065765,14.921151,-33.583862,16.39185,-32.752914,-2.8221812,-38.368271,13.501543,-12.795992,-176.11423,-39.431721,3.3449085,-43.248245,-113.24729,-33.4818,16.416489,-39.225929,2.8971062,-15.184829,22.027477,-35.366978,-28.01885,-32.836159,-2.8434708,-43.016621,-112.84359,-35.4361,-27.965973,-16.167156,161.92511
2505500000,-16.972486,20.617126,-38.1227,13.594255,-33.479237,15.517897,-32.806992,-3.4609604,-38.460423,12.313648,-12.771551,-176.27693,-39.609394,1.6867921,-43.048573,-116.90002,-33.380436,15.508904,-39.401958,1.2280449,-15.140255,21.539265,-35.392212,-28.544376,-32.887993,-3.4633536,-42.816273,-116.49537,-35.46027,-28.513792,-16.143019,161.39445
2506000000,-16.933317,20.168665,-38.193302,12.115799,-33.374561,14.562101,-32.855141,-4.0383019,-38.559513,11.040413,-12.749191,-176.4359,-39.814224,0.022553876,-42.864365,-120.86468,-33.28183,14.52844,-39.606537,-0.46651095,-15.095332,21.06123,-35.398994,-29.07588,-32.934814,-4.0471153,-42.63039,-120.46523,-35.467716,-29.089748,-16.119501,160.81784
2506500000,-16.894148,19.705009,-38.290585,10.537913,-33.274605,13.55226,-32.89687,-4.5524526,-38.682648,9.7152119,-12.727803,-176.59525,-40.064651,-1.6297317,-42.700615,-125.17102,-33.186325,13.508217,-39.858372,-2.1544452,-15.049173,20.591566,-35.393696,-29.682972,-32.974243,-4.5422482,-42.472618,-124.75118,-35.463093,-29.708107,-16.098282,160.21036
2507000000,-16.859579,19.222107,-38.424034,8.9702168,-33.173206,12.480046,-32.919395,-5.0388956,-38.829502,8.4533567,-12.704854,-176.72745,-40.372189,-3.1308458,-42.580593,-129.71649,-33.090805,12.405749,-40.165619,-3.7094903,-15.001893,20.130865,-35.374176,-30.367159,-32.992744,-5.0209122,-42.35738,-129.30911,-35.446827,-30.420744,-16.081089,159.56285
2507500000,-16.822294,18.75606,-38.57777,7.495255,-33.077507,11.303914,-32.927555,-5.5717659,-38.986801,7.3256555,-12.683113,-176.86563,-40.723965,-4.3683443,-42.492973,-134.43159,-33.004044,11.247183,-40.517139,-4.9638095,-14.953523,19.680153,-35.349655,-31.12565,-32.997715,-5.5517359,-42.284462,-133.996,-35.428162,-31.205648,-16.068716,158.89519
2508000000,-16.792158,18.269363,-38.756969,6.1151996,-32.994961,10.11025,-32.930584,-6.1655669,-39.152199,6.2785745,-12.659459,-176.99074,-41.102299,-5.2146282,-42.453533,-139.26743,-32.926899,10.07063,-40.903496,-5.8487153,-14.904594,19.23661,-35.325775,-31.995234,-32.996941,-6.1668935,-42.244289,-138.8082,-35.409508,-32.075287,-16.061893,158.21938
2508500000,-16.764704,17.778469,-38.956375,4.9318018,-32.923763,8.887104,-32.932373,-6.7882452,-39.322006,5.3285923,-12.634088,-177.10286,-41.503311,-5.6663508,-42.449486,-144.1514,-32.859997,8.8709478,-41.305363,-6.3055115,-14.851586,18.801182,-35.310364,-32.923462,-32.999203,-6.8022361,-42.254086,-143.70183,-35.397404,-32.989639,-16.059799,157.537
2509000000,-16.745897,17.278675,-39.156372,3.8767633,-32.858105,7.6787548,-32.93605,-7.4023433,-39.490021,4.4427023,-12.610243,-177.23346,-41.90918,-5.6308098,-42.484627,-149.0631,-32.798241,7.7090125,-41.718067,-6.2683315,-14.797222,18.368412,-35.304153,-33.869301,-33.00301,-7.4260173,-42.297276,-148.57274,-35.3965,-33.920788,-16.059608,156.86295
2509500000,-16.732016,16.801168,-39.361835,2.9500475,-32.796059,6.4668984,-32.93483,-7.9876094,-39.662994,3.6374421,-12.583363,-177.35725,-42.294113,-5.0756087,-42.54583,-153.93268,-32.737362,6.5494218,-42.098431,-5.7258143,-14.739559,17.930611,-35.308056,-34.774982,-33.005314,-8.0289335,-42.361786,-153.43254,-35.400547,-34.813953,-16.063019,156.19261
2510000000,-16.726212,16.341656,-39.572376,2.1302972,-32.736607,5.2182384,-32.92804,-8.5315781,-39.838352,2.8709478,-12.554429,-177.47574,-42.641907,-4.1198034,-42.627701,-158.82947,-32.676422,5.3495579,-42.4571,-4.79739,-14.680063,17.483656,-35.310711,-35.635353,-32.998909,-8.5733194,-42.452709,-158.27141,-35.406929,-35.652241,-16.070183,155.51711
2510500000,-16.731237,15.892425,-39.795879,1.4898993,-32.684818,3.9427404,-32.905369,-9.0601673,-40.030571,2.2378948,-12.526623,-177.61594,-42.951454,-2.7102096,-42.72543,-163.688,-32.625538,4.0944285,-42.761375,-3.4298251,-14.621079,17.017809,-35.312222,-36.4184,-32.980488,-9.0912056,-42.554119,-163.14847,-35.406921,-36.435753,-16.077707,154.88121
2511000000,-16.737465,15.491725,-40.017914,1.1246494,-32.649307,2.6400383,-32.86998,-9.637991,-40.22641,1.8673577,-12.498909,-177.75182,-43.169331,-0.94102538,-42.851181,-168.58215,-32.58672,2.8401783,-42.989994,-1.599259,-14.561365,16.537182,-35.293907,-37.196629,-32.94622,-9.6345329,-42.682381,-168.04028,-35.395042,-37.205849,-16.088621,154.24448
2511500000,-16.74485,15.127296,-40.210789,1.0355287,-32.623131,1.3892307,-32.82605,-10.237569,-40.395828,1.7211868,-12.470981,-177.87955,-43.295261,0.89589,-42.999691,-173.57822,-32.558113,1.6219027,-43.124718,0.27115339,-14.502309,16.035419,-35.267918,-38.029362,-32.901146,-10.221259,-42.842144,-172.89157,-35.36721,-38.021309,-16.10194,153.62143
2512000000,-16.753946,14.79112,-40.374825,1.0180392,-32.598991,0.19379495,-32.772202,-10.891623,-40.538082,1.6720234,-12.442592,-178.02129,-43.331535,2.6706114,-43.183399,-178.55507,-32.528088,0.45007095,-43.16428,2.027873,-14.450548,15.514826,-35.241074,-38.97414,-32.842106,-10.849432,-43.032879,-177.78323,-35.342602,-38.946613,-16.118343,153.01904
2512500000,-16.7603,14.468045,-40.503487,1.1002812,-32.58952,-0.97162545,-32.707653,-11.58603,-40.647957,1.619006,-12.414751,-178.16411,-43.309067,4.3885484,-43.396801,176.60291,-32.511333,-0.69268996,-43.138428,3.7405596,-14.399736,15.006767,-35.220188,-39.884624,-32.775005,-11.544188,-43.249306,177.40669,-35.320721,-39.855362,-16.133989,152.44691
2513000000,-16.76429,14.143129,-40.60767,1.2081209,-32.574745,-2.0576053,-32.633808,-12.357162,-40.739414,1.5616881,-12.386284,-178.29825,-43.173092,5.784482,-43.622391,171.80853,-32.48703,-1.7488414,-43.007271,5.1159596,-14.351439,14.49609,-35.198734,-40.832905,-32.695904,-12.29761,-43.486797,172.69429,-35.294605,-40.773258,-16.151413,151.89203
2513500000,-16.769928,13.817308,-40.671047,1.2607253,-32.552212,-3.0937464,-32.547684,-13.226643,-40.803581,1.4235398,-12.358486,-178.43745,-42.978992,6.5077982,-43.877163,167.28769,-32.453529,-2.8022492,-42.815735,5.8310785,-14.306577,13.989253,-35.175503,-41.763283,-32.607254,-13.181074,-43.737202,168.17223,-35.27055,-41.71529,-16.168701,151.35695
2514000000,-16.780996,13.48309,-40.716488,1.1552472,-32.518757,-4.1571851,-32.462208,-14.269875,-40.852081,1.199441,-12.329545,-178.57961,-42.773502,6.5946946,-44.131165,162.93269,-32.411369,-3.885757,-42.608437,5.8953018,-14.261961,13.49528,-35.148338,-42.713531,-32.518646,-14.21769,-43.994541,163.77957,-35.244598,-42.647533,-16.185984,150.82892
2514500000,-16.792303,13.17398,-40.747448,0.89236957,-32.487926,-5.2932019,-32.380466,-15.423228,-40.898705,0.79846263,-12.301064,-178.72813,-42.594341,6.0262117,-44.372612,158.66821,-32.372227,-5.0651579,-42.432137,5.3209319,-14.218896,13.002829,-35.112766,-43.658985,-32.434402,-15.377989,-44.241615,159.50629,-35.209198,-43.58725,-16.202181,150.33363
2515000000,-16.807695,12.882877,-40.77845,0.48254898,-32.459446,-6.4735498,-32.311386,-16.686132,-40.94717,0.3363736,-12.273451,-178.87981,-42.463032,5.1153617,-44.602001,154.52899,-32.339882,-6.2900109,-42.294609,4.3527451,-14.176332,12.519904,-35.077431,-44.66098,-32.361973,-16.641953,-44.488262,155.34427,-35.172352,-44.587399,-16.216026,149.85748
2515500000,-16.829199,12.615973,-40.813286,-0.04702241,-32.443279,-7.6769996,-32.253971,-18.006079,-40.995853,-0.21026611,-12.246552,-179.03391,-42.368412,3.9129949,-44.798141,150.43242,-32.320835,-7.5340571,-42.203392,3.1304862,-14.134082,12.040372,-35.04031,-45.687656,-32.301823,-17.97941,-44.696785,151.2834,-35.134819,-45.607323,-16.226851,149.40108
2516000000,-16.858862,12.386908,-40.860802,-0.75819999,-32.434425,-8.8552389,-32.208862,-19.377356,-41.064129,-0.93856704,-12.218498,-179.1792,-42.33083,2.3763745,-44.972908,146.13159,-32.309856,-8.7397633,-42.164669,1.6114088,-14.091492,11.558739,-34.997063,-46.772881,-32.252972,-19.361427,-44.893101,147.00061,-35.08886,-46.684361,-16.235847,148.92738
2516500000,-16.891722,12.238997,-40.956131,-1.4821079,-32.431137,-9.9951601,-32.173943,-20.783642,-41.175308,-1.591898,-12.190545,-179.33434,-42.360153,0.77315605,-45.167191,141.70897,-32.306252,-9.912138,-42.195366,-0.082843609,-14.051204,11.071968,-34.954708,-47.949528,-32.214973,-20.784424,-45.107407,142.62662,-35.043575,-47.845066,-16.241684,148.49469
2517000000,-16.925331,12.16117,-41.061855,-1.8690504,-32.426594,-11.134204,-32.153137,-22.171141,-41.28952,-1.9507232,-12.164448,-179.50603,-42.437443,-0.91509914,-45.396011,137.39342,-32.301762,-11.079034,-42.277092,-1.7466894,-14.013516,10.592297,-34.925327,-49.156513,-32.192123,-22.184155,-45.332806,138.35789,-35.009327,-49.063072,-16.246389,148.0524
2517500000,-16.962641,12.162401,-41.154575,-2.2649174,-32.434315,-12.182802,-32.13364,-23.576536,-41.401218,-2.283159,-12.136974,-179.66188,-42.614323,-2.5003049,-45.620167,133.07405,-32.306835,-12.146063,-42.451817,-3.3740814,-13.977539,10.136646,-34.898975,-50.362061,-32.172401,-23.617115,-45.558338,134.12192,-34.977383,-50.294567,-16.248198,147.6048
2518000000,-16.993963,12.240034,-41.235195,-2.6212926,-32.426884,-13.197908,-32.127377,-24.995298,-41.487881,-2.4540431,-12.11043,-179.83064,-42.839016,-3.7336893,-45.835133,128.89877,-32.299511,-13.188255,-42.679352,-4.6605678,-13.943743,9.7043571,-34.875183,-51.582405,-32.163288,-25.064411,-45.782631,129.99443,-34.951149,-51.552498,-16.247849,147.16327
2518500000,-17.01997,12.398566,-41.312382,-3.0326898,-32.412792,-14.234844,-32.132687,-26.396837,-41.564339,-2.7216482,-12.083557,179.99852,-43.082241,-4.5769911,-46.027874,124.87123,-32.287064,-14.242324,-42.930294,-5.532527,-13.909632,9.2964096,-34.852898,-52.772884,-32.167923,-26.477627,-45.975117,125.91769,-34.926712,-52.758263,-16.243664,146.70329
2519000000,-17.037252,12.608014,-41.386642,-3.3917098,-32.399227,-15.30417,-32.145256,-27.744453,-41.636196,-2.978894,-12.055898,179.82909,-43.352463,-5.2674093,-46.186073,120.80637,-32.273712,-15.330443,-43.197712,-6.2687745,-13.874048,8.9126997,-34.827579,-53.958836,-32.180035,-27.86422,-46.152515,121.83035,-34.900955,-54.011967,-16.236284,146.2303
2519500000,-17.041422,12.856059,-41.467503,-3.8150988,-32.386646,-16.393263,-32.158821,-29.041491,-41.698643,-3.3335462,-12.028936,179.64568,-43.648788,-5.5982485,-46.353821,116.55484,-32.258923,-16.454,-43.498657,-6.6578131,-13.83506,8.5476856,-34.796143,-55.23856,-32.194145,-29.187864,-46.321945,117.55534,-34.873211,-55.282761,-16.226768,145.74524
2520000000,-17.035257,13.109454,-41.564117,-4.2721047,-32.379105,-17.500189,-32.168011,-30.317495,-41.78392,-3.7409332,-12.003873,179.44948,-43.938843,-5.505167,-46.530941,112.14722,-32.25396,-17.580187,-43.803726,-6.6224074,-13.793412,8.1941357,-34.76757,-56.571571,-32.204441,-30.491785,-46.511322,113.1877,-34.845306,-56.652477,-16.217037,145.23872
2520500000,-17.018198,13.355146,-41.68066,-4.6234932,-32.370155,-18.556683,-32.170811,-31.625788,-41.888309,-4.0396843,-11.977751,179.26056,-44.205299,-5.1248488,-46.742767,107.82657,-32.248848,-18.684381,-44.082218,-6.2885704,-13.748451,7.8402872,-34.750446,-57.974934,-32.21236,-31.816736,-46.727028,108.84515,-34.832737,-58.064503,-16.207003,144.71773
2521000000,-16.995035,13.582555,-41.807194,-4.7630129,-32.357689,-19.603619,-32.181156,-32.969837,-41.994022,-4.1953154,-11.955828,179.04578,-44.462067,-4.5665426,-46.960426,103.70301,-32.240036,-19.755842,-44.34824,-5.7405491,-13.699762,7.4762287,-34.744411,-59.349106,-32.226109,-33.193165,-46.956711,104.71081,-34.829693,-59.45586,-16.19606,144.18518
2521500000,-16.961277,13.795669,-41.932785,-4.7517872,-32.336723,-20.664627,-32.192619,-34.303013,-42.110771,-4.3021383,-11.933589,178.8334,-44.702179,-3.797399,-47.203735,99.821693,-32.227139,-20.829258,-44.599781,-5.0561423,-13.649853,7.0853033,-34.737335,-60.707031,-32.24456,-34.550411,-47.194588,100.8241,-34.828537,-60.809853,-16.186682,143.63031
2522000000,-16.92045,13.999874,-42.059422,-4.4227996,-32.31023,-21.773129,-32.207008,-35.662796,-42.233635,-4.0477896,-11.911757,178.61481,-44.930641,-2.8084497,-47.407436,96.291573,-32.205402,-21.938553,-44.860352,-4.1060348,-13.598851,6.6798582,-34.739574,-62.092335,-32.264446,-35.922077,-47.413605,97.211342,-34.83252,-62.193123,-16.179436,143.04726
2522500000,-16.871649,14.182156,-42.126263,-3.8431046,-32.278839,-22.929951,-32.223965,-37.070206,-42.308395,-3.6176713,-11.891901,178.38702,-45.123669,-1.5532408,-47.598827,93.085472,-32.180538,-23.103107,-45.062992,-2.8451216,-13.550302,6.2555571,-34.741379,-63.466599,-32.287491,-37.306557,-47.614548,93.915024,-34.839897,-63.555267,-16.174051,142.45599
2523000000,-16.811966,14.340732,-42.159061,-3.3651831,-32.245419,-24.169882,-32.251038,-38.502804,-42.345253,-3.2745314,-11.874035,178.15138,-45.286785,-0.31439531,-47.728645,90.082191,-32.152069,-24.311293,-45.239429,-1.5475101,-13.50243,5.8231907,-34.74559,-64.856522,-32.319778,-38.733795,-47.753799,90.827614,-34.845699,-64.924652,-16.170923,141.8567
2523500000,-16.745111,14.470845,-42.17297,-2.8387866,-32.213013,-25.494257,-32.287773,-39.966171,-42.37735,-2.8967435,-11.85728,177.92816,-45.422394,1.1336739,-47.798897,86.907112,-32.122013,-25.615,-45.390209,-0.043829847,-13.455687,5.3835878,-34.757389,-66.258682,-32.3596,-40.168182,-47.842274,87.607216,-34.854446,-66.315453,-16.170998,141.2653
2524000000,-16.672314,14.574526,-42.151882,-2.259455,-32.182659,-26.907366,-32.338219,-41.412556,-42.387287,-2.4365957,-11.843869,177.69313,-45.526985,2.5974417,-47.843475,83.552521,-32.096626,-27.025248,-45.505505,1.5146255,-13.411684,4.9344349,-34.773914,-67.651649,-32.410866,-41.605022,-47.895302,84.21743,-34.870388,-67.706451,-16.175173,140.66006
2524500000,-16.595043,14.634871,-42.086498,-1.7474841,-32.160942,-28.414637,-32.395557,-42.829868,-42.354115,-1.9244013,-11.830424,177.46223,-45.590958,4.1577649,-47.906952,80.163437,-32.075962,-28.526361,-45.580757,3.1446552,-13.366531,4.48418,-34.796524,-69.049019,-32.468639,-43.004562,-47.970211,80.710358,-34.891701,-69.095566,-16.18224,140.0759
2525000000,-16.504622,14.660582,-41.972729,-1.4978983,-32.150738,-30.039455,-32.457874,-44.237976,-42.277821,-1.6301603,-11.818723,177.22824,-45.635254,5.4716954,-47.955502,76.930367,-32.068851,-30.109316,-45.627453,4.5797248,-13.322349,4.0360966,-34.827393,-70.417847,-32.532688,-44.407654,-48.036625,77.47525,-34.921921,-70.471901,-16.193373,139.50099
2525500000,-16.410822,14.604668,-41.858814,-1.6397151,-32.154087,-31.714228,-32.530098,-45.685268,-42.200985,-1.6290333,-11.808412,177.00226,-45.702793,6.9531069,-47.984512,73.71711,-32.072369,-31.771564,-45.696842,6.2509446,-13.277061,3.567553,-34.862392,-71.752243,-32.607399,-45.842377,-48.063255,74.149376,-34.956394,-71.820229,-16.206825,138.94357
2526000000,-16.313559,14.45836,-41.755135,-1.9200807,-32.180676,-33.497898,-32.623474,-47.106457,-42.118679,-1.7493985,-11.800491,176.76506,-45.716244,8.4250393,-48.013023,70.440224,-32.099022,-33.528984,-45.697025,7.8857908,-13.237049,3.0840449,-34.90279,-73.028145,-32.702938,-47.263035,-48.110439,70.895164,-34.997734,-73.114967,-16.222504,138.4167
2526500000,-16.211723,14.231139,-41.662006,-2.5113635,-32.228828,-35.274967,-32.737991,-48.486706,-42.049828,-2.0880415,-11.794039,176.53116,-45.746326,9.7695026,-48.073681,67.308777,-32.148346,-35.293407,-45.71656,9.3486223,-13.200702,2.6048293,-34.941936,-74.231834,-32.817486,-48.627773,-48.179905,67.732948,-35.037357,-74.353889,-16.239666,137.8922
2527000000,-16.110115,13.907696,-41.610016,-3.1931772,-32.302753,-37.046444,-32.87439,-49.728985,-42.001591,-2.4844029,-11.78998,176.29697,-45.794022,11.271562,-48.129902,64.545433,-32.220207,-37.026306,-45.739719,10.899443,-13.167377,2.1344755,-34.974876,-75.443489,-32.955513,-49.879116,-48.25198,64.896606,-35.073612,-75.560402,-16.255878,137.40242
