!CSV A.01.01
!Keysight Technologies,N5222B,MY58422327,A.13.60.06
!Date: Monday, March 28, 2022 16:44:36
!Source: Standard

BEGIN CH1_DATA
Freq(Hz),S11(DB),S11(DEG),S12(DB),S12(DEG),S13(DB),S13(DEG),S14(DB),S14(DEG),S21(DB),S21(DEG),S22(DB),S22(DEG),S23(DB),S23(DEG),S24(DB),S24(DEG),S31(DB),S31(DEG),S32(DB),S32(DEG),S33(DB),S33(DEG),S34(DB),S34(DEG),S41(DB),S41(DEG),S42(DB),S42(DEG),S43(DB),S43(DEG),S44(DB),S44(DEG)
2500000000,-16.773497,25.21097,-32.673992,10.189758,-35.515636,-11.18044,-32.114975,26.147461,-32.74366,10.198141,-13.437563,-173.21236,-39.31702,14.838924,-46.31123,-142.9646,-35.445011,-10.813193,-39.254059,15.016647,-15.511346,25.238291,-34.645279,-31.325115,-32.184864,25.884563,-46.285046,-143.14777,-34.732594,-31.371094,-16.477333,166.20448
2500500000,-16.759192,24.848211,-32.759945,8.7824039,-35.570469,-11.828645,-32.155304,25.037495,-32.824493,8.859561,-13.39143,-173.34686,-39.453903,12.855489,-46.082935,-144.26877,-35.489803,-11.559582,-39.38686,13.085158,-15.456264,24.744432,-34.669182,-32.22282,-32.229774,24.787258,-46.050129,-144.42627,-34.757462,-32.238689,-16.468681,165.82993
2501000000,-16.741528,24.494942,-32.852177,7.3911085,-35.627232,-12.368754,-32.201069,23.969803,-32.908287,7.509068,-13.344044,-173.46582,-39.624367,10.907826,-45.845993,-145.7079,-35.540058,-12.225012,-39.546532,11.131083,-15.399231,24.244522,-34.691799,-33.16869,-32.278934,23.757998,-45.813084,-145.86798,-34.781834,-33.176132,-16.459057,165.44807
2501500000,-16.719318,24.156975,-32.942326,6.1235671,-35.687462,-12.719836,-32.246746,22.994862,-32.984619,6.2702112,-13.300013,-173.60089,-39.827702,9.078413,-45.627811,-147.33051,-35.601192,-12.683742,-39.735332,9.3339424,-15.343379,23.72407,-34.730808,-34.121773,-32.327324,22.804167,-45.606228,-147.5193,-34.816711,-34.107437,-16.446724,165.07474
2502000000,-16.696236,23.793413,-33.026318,4.8904715,-35.736191,-12.897586,-32.290859,22.009094,-33.0555,5.0318375,-13.257525,-173.72746,-40.040344,7.4321485,-45.427296,-148.90584,-35.652325,-12.941182,-39.94059,7.6246104,-15.289683,23.195118,-34.767895,-35.075428,-32.373131,21.862465,-45.412815,-149.11357,-34.85437,-35.03487,-16.432869,164.68758
2502500000,-16.669235,23.427092,-33.10574,3.7389045,-35.761513,-13.018703,-32.338329,21.045599,-33.121002,3.8229218,-13.214275,-173.8472,-40.256569,5.8819246,-45.24057,-150.39125,-35.685829,-13.149459,-40.150314,6.0547376,-15.239023,22.666313,-34.817097,-36.019299,-32.421906,20.935051,-45.216702,-150.55116,-34.898598,-35.964684,-16.418447,164.27719
2503000000,-16.639355,23.043934,-33.17205,2.6220036,-35.777382,-13.081531,-32.386501,20.125755,-33.180195,2.6406071,-13.174692,-173.9857,-40.48193,4.4240599,-45.0205,-151.85251,-35.712029,-13.275022,-40.367634,4.5269508,-15.191401,22.141697,-34.874256,-36.877731,-32.469318,20.05422,-44.996506,-152.06308,-34.955959,-36.812664,-16.40373,163.86995
2503500000,-16.612938,22.632076,-33.225891,1.4879906,-35.782444,-13.058485,-32.435009,19.23156,-33.228748,1.4157652,-13.135153,-174.11913,-40.69854,2.9357946,-44.802647,-153.19473,-35.729824,-13.346717,-40.578011,2.988595,-15.146867,21.629881,-34.929157,-37.588261,-32.518837,19.212194,-44.779678,-153.42073,-35.005962,-37.522812,-16.387669,163.45953
2504000000,-16.582924,22.225163,-33.275871,0.3519589,-35.762581,-12.943432,-32.486809,18.376469,-33.282135,0.19094226,-13.094815,-174.2451,-40.927368,1.4194783,-44.561371,-154.47842,-35.721027,-13.26418,-40.804592,1.4366792,-15.104501,21.141455,-34.969673,-38.269386,-32.570366,18.396885,-44.539368,-154.74268,-35.041138,-38.201488,-16.370882,163.0226
2504500000,-16.550932,21.8172,-33.315556,-0.78838801,-35.714748,-12.82384,-32.543953,17.583309,-33.328247,-1.0190471,-13.056685,-174.38489,-41.168869,-0.15601398,-44.270748,-155.78949,-35.685204,-13.17845,-41.051552,-0.23925324,-15.061223,20.678946,-34.996754,-38.893978,-32.621998,17.661592,-44.245987,-156.03329,-35.065975,-38.865948,-16.349293,162.59328
2505000000,-16.513348,21.408787,-33.346508,-2.0222673,-35.642574,-12.769433,-32.595036,16.91041,-33.369877,-2.2807238,-13.020908,-174.53339,-41.442802,-1.7500447,-43.92379,-157.22679,-35.628059,-13.142162,-41.332851,-1.9015052,-15.017579,20.220173,-35.017712,-39.528034,-32.664284,17.007599,-43.902222,-157.50647,-35.081806,-39.533325,-16.326889,162.12239
2505500000,-16.472507,20.969416,-33.377659,-3.3092442,-35.53833,-12.825981,-32.644543,16.283199,-33.41029,-3.5804608,-12.984859,-174.66605,-41.758099,-3.2919052,-43.543793,-159.12215,-35.531948,-13.129622,-41.652885,-3.5123796,-14.971406,19.766123,-35.018738,-40.189911,-32.703457,16.409107,-43.518314,-159.41975,-35.083416,-40.222187,-16.301231,161.62469
2506000000,-16.428959,20.502174,-33.410702,-4.6869926,-35.413036,-13.069108,-32.68351,15.750998,-33.446892,-4.9559445,-12.949625,-174.80659,-42.095737,-4.7599344,-43.147026,-161.3918,-35.419445,-13.338236,-41.998322,-5.0257673,-14.92507,19.320934,-35.018757,-40.884876,-32.73119,15.855774,-43.123127,-161.7489,-35.081074,-40.939449,-16.274227,161.07799
2506500000,-16.385031,20.006659,-33.45435,-6.1469612,-35.28796,-13.520732,-32.709038,15.282517,-33.492741,-6.406137,-12.916567,-174.95979,-42.482788,-6.1655302,-42.752216,-164.15985,-35.302193,-13.704452,-42.389538,-6.436964,-14.878708,18.879326,-35.007645,-41.653255,-32.749996,15.362991,-42.739208,-164.52789,-35.072102,-41.714733,-16.248016,160.48694
2507000000,-16.346352,19.48201,-33.510017,-7.6059389,-35.164536,-14.140527,-32.712681,14.824536,-33.552761,-7.8612638,-12.882528,-175.0932,-42.923546,-7.3006091,-42.390705,-167.31076,-35.176704,-14.240737,-42.837536,-7.6273398,-14.829935,18.44503,-34.99622,-42.457382,-32.747681,14.870249,-42.385368,-167.64822,-35.063095,-42.535091,-16.225838,159.84731
2507500000,-16.304544,18.957766,-33.578651,-9.0271959,-35.04977,-14.938032,-32.703369,14.319434,-33.623363,-9.3034801,-12.850562,-175.23885,-43.405582,-8.0608883,-42.065334,-170.76704,-35.059563,-14.953209,-43.324467,-8.3959866,-14.780108,18.013762,-34.983829,-43.322712,-32.732872,14.327309,-42.076485,-171.03423,-35.053974,-43.417126,-16.208187,159.17871
2508000000,-16.270447,18.402853,-33.648365,-10.404817,-34.950497,-15.84153,-32.687893,13.740105,-33.701607,-10.668731,-12.817719,-175.37804,-43.906616,-8.3465042,-41.79253,-174.36598,-34.956192,-15.807249,-43.832573,-8.6759396,-14.730296,17.587658,-34.978695,-44.259079,-32.715435,13.722113,-41.806175,-174.55055,-35.051098,-44.327019,-16.196522,158.49117
2508500000,-16.240112,17.832737,-33.724339,-11.743212,-34.872681,-16.803619,-32.672745,13.165298,-33.78038,-11.99331,-12.784122,-175.50717,-44.401482,-8.1426115,-41.561516,-178.05661,-34.869595,-16.715084,-44.346821,-8.494441,-14.67682,17.173561,-34.984013,-45.190029,-32.69537,13.096658,-41.576729,-178.1657,-35.055168,-45.285351,-16.189804,157.78954
2509000000,-16.220339,17.245419,-33.796654,-13.079816,-34.805412,-17.74762,-32.650375,12.596105,-33.854961,-13.305797,-12.752759,-175.65804,-44.885113,-7.4791861,-41.370045,178.27132,-34.794659,-17.64378,-44.855885,-7.8428512,-14.62228,16.752663,-35.000858,-46.100121,-32.673458,12.499226,-41.377197,178.21735,-35.071823,-46.193119,-16.186914,157.0919
2509500000,-16.206709,16.674538,-33.86726,-14.395855,-34.750343,-18.729109,-32.617599,12.074512,-33.929932,-14.610468,-12.720016,-175.80453,-45.360806,-6.3735909,-41.202084,174.63773,-34.725086,-18.599541,-45.334793,-6.7545815,-14.565142,16.327274,-35.022831,-46.891357,-32.641594,11.915296,-41.197109,174.604,-35.094418,-46.981785,-16.187542,156.39128
2510000000,-16.203325,16.120447,-33.943214,-15.759237,-34.69783,-19.696991,-32.566734,11.524356,-34.005901,-15.937,-12.686353,-175.94193,-45.795624,-4.8758302,-41.05938,171.06229,-34.66251,-19.582914,-45.787788,-5.1472735,-14.506325,15.893703,-35.038097,-47.56675,-32.593132,11.356858,-41.036297,171.0085,-35.109077,-47.688911,-16.192816,155.68596
2510500000,-16.212494,15.583,-34.028004,-17.126808,-34.65295,-20.726208,-32.497753,10.919658,-34.089588,-17.249992,-12.65468,-176.09715,-46.210693,-2.9382341,-40.922455,167.48544,-34.60643,-20.634844,-46.212757,-3.0475276,-14.448798,15.437556,-35.040306,-48.166634,-32.525002,10.700478,-40.890118,167.3421,-35.109467,-48.315094,-16.2005,155.01247
2511000000,-16.224655,15.095165,-34.122837,-18.454103,-34.619583,-21.769745,-32.417473,10.148583,-34.180264,-18.545412,-12.623703,-176.24713,-46.552673,-0.32391533,-40.800739,163.88934,-34.567127,-21.717909,-46.54977,-0.16515996,-14.391254,14.972427,-35.016384,-48.744637,-32.448158,9.9222088,-40.759571,163.67462,-35.088993,-48.923214,-16.212679,154.33403
2511500000,-16.239132,14.650035,-34.218674,-19.66638,-34.606087,-22.812538,-32.338604,9.2762518,-34.271626,-19.767841,-12.593806,-176.38644,-46.776161,2.6701863,-40.688034,160.17094,-34.543987,-22.821125,-46.762505,3.0619955,-14.335931,14.494773,-34.969364,-49.386929,-32.371506,9.0252237,-40.65554,159.95323,-35.044479,-49.600555,-16.228851,153.67429
2512000000,-16.255634,14.244202,-34.310387,-20.89266,-34.589008,-23.743452,-32.263126,8.2854052,-34.361774,-20.971224,-12.563656,-176.53291,-46.866474,5.5956182,-40.612202,156.44585,-34.528652,-23.844406,-46.809677,6.0878415,-14.285767,14.006939,-34.916531,-50.203053,-32.301693,8.0114336,-40.580441,156.18558,-34.998135,-50.43639,-16.249155,153.03932
2512500000,-16.270159,13.858072,-34.396347,-22.160925,-34.590477,-24.693161,-32.196682,7.2570796,-34.447716,-22.217607,-12.534159,-176.66829,-46.841534,8.5588341,-40.557941,152.75554,-34.537052,-24.874191,-46.771816,8.8957968,-14.235616,13.531912,-34.866264,-51.056423,-32.240459,6.9984274,-40.521824,152.38544,-34.952168,-51.297432,-16.269958,152.43999
2513000000,-16.282557,13.482887,-34.497337,-23.428185,-34.591316,-25.488213,-32.12991,6.1954246,-34.542316,-23.464365,-12.503945,-176.79048,-46.674046,10.964175,-40.526043,149.09459,-34.547508,-25.725012,-46.580326,11.236354,-14.187804,13.058731,-34.812222,-51.964638,-32.175571,5.94239,-40.49633,148.67725,-34.90527,-52.22123,-16.292244,151.86311
2513500000,-16.295809,13.10819,-34.606163,-24.650778,-34.575409,-26.207718,-32.064056,5.0542884,-34.649044,-24.707804,-12.473546,-176.91032,-46.430569,12.479521,-40.523251,145.50282,-34.546104,-26.433088,-46.32465,12.570368,-14.141873,12.594,-34.761497,-52.937111,-32.11187,4.8059163,-40.501041,145.05498,-34.862232,-53.177502,-16.314665,151.31198
2514000000,-16.313112,12.727692,-34.723392,-25.780304,-34.540234,-26.944818,-32.006229,3.8208852,-34.761448,-25.826538,-12.441233,-177.0282,-46.176727,13.133877,-40.537212,142.09393,-34.527008,-27.135363,-46.074894,13.142819,-14.094602,12.135337,-34.714012,-53.932178,-32.055122,3.5951355,-40.523506,141.65329,-34.81517,-54.135803,-16.337986,150.76677
2514500000,-16.331171,12.370543,-34.837559,-26.8526,-34.49699,-27.782671,-31.960701,2.551842,-34.872257,-26.907566,-12.408149,-177.1526,-45.970242,12.916295,-40.555828,138.82552,-34.494774,-27.89859,-45.870106,12.898992,-14.048292,11.678747,-34.665932,-54.92498,-32.0112,2.3352363,-40.547714,138.41455,-34.770977,-55.112328,-16.361166,150.25656
2515000000,-16.351877,12.030611,-34.952274,-27.837711,-34.456268,-28.699034,-31.924603,1.2695889,-34.985474,-27.91243,-12.37513,-177.27986,-45.821693,12.325092,-40.572914,135.71979,-34.457714,-28.738594,-45.727871,12.237538,-14.000559,11.225224,-34.612251,-55.942913,-31.973417,1.0372704,-40.568996,135.32399,-34.722942,-56.087063,-16.383387,149.77031
2515500000,-16.379671,11.709717,-35.052727,-28.754179,-34.422821,-29.691635,-31.896439,-0.02067847,-35.08527,-28.850534,-12.341152,-177.41434,-45.721436,11.362948,-40.565872,132.68654,-34.423904,-29.633715,-45.640114,11.225346,-13.952258,10.769477,-34.557602,-56.937771,-31.944931,-0.25887677,-40.573181,132.28041,-34.66095,-57.069355,-16.403811,149.31396
2516000000,-16.414351,11.428542,-35.145142,-29.717707,-34.398384,-30.701191,-31.875,-1.313971,-35.178024,-29.84222,-12.30524,-177.54587,-45.698917,10.109402,-40.551434,129.53168,-34.395557,-30.545057,-45.620346,9.8894281,-13.902628,10.303575,-34.482384,-58.006046,-31.927086,-1.5647529,-40.562389,129.1732,-34.58567,-58.114166,-16.423441,148.85484
2516500000,-16.453371,11.21841,-35.240742,-30.705242,-34.383736,-31.712931,-31.859566,-2.6136582,-35.282314,-30.861012,-12.269289,-177.69431,-45.762867,8.607419,-40.549595,126.27773,-34.368992,-31.497585,-45.700397,8.4074554,-13.853466,9.8164425,-34.399998,-59.19236,-31.914228,-2.8721364,-40.565662,125.97011,-34.502659,-59.317558,-16.439404,148.45645
2517000000,-16.492939,11.075996,-35.343273,-31.574821,-34.36264,-32.731949,-31.851257,-3.9033306,-35.392002,-31.738321,-12.235335,-177.86612,-45.894585,7.1384745,-40.5751,123.09837,-34.333801,-32.471478,-45.848057,6.9121313,-13.807574,9.3166962,-34.324535,-60.55938,-31.912298,-4.1508422,-40.586254,122.82661,-34.428623,-60.672695,-16.452627,148.06161
2517500000,-16.537525,11.003575,-35.434917,-32.491291,-34.367371,-33.718075,-31.848003,-5.2152147,-35.494686,-32.624424,-12.200339,-178.03094,-46.178421,5.8324704,-40.606735,119.95602,-34.321095,-33.437187,-46.152439,5.6508489,-13.76372,8.8268766,-34.259586,-62.011597,-31.912424,-5.4325213,-40.618355,119.68023,-34.364777,-62.121037,-16.461359,147.6739
2518000000,-16.576815,11.009781,-35.523586,-33.328156,-34.359837,-34.618061,-31.85865,-6.5087724,-35.586372,-33.417873,-12.166402,-178.21083,-46.526417,5.0975804,-40.644367,116.92116,-34.29459,-34.377964,-46.50769,5.0362949,-13.722492,8.3425436,-34.208336,-63.553074,-31.925646,-6.7050309,-40.65266,116.64684,-34.315636,-63.657665,-16.465725,147.29546
2518500000,-16.611862,11.084068,-35.605434,-34.230152,-34.336483,-35.528,-31.88109,-7.7443991,-35.671261,-34.248463,-12.133294,-178.39954,-46.915833,4.9790549,-40.673988,113.96439,-34.261726,-35.379932,-46.899952,5.1144543,-13.682915,7.8667736,-34.174526,-65.117836,-31.94878,-7.9011841,-40.681835,113.65724,-34.284382,-65.205963,-16.46493,146.89999
2519000000,-16.640182,11.20169,-35.694191,-35.12141,-34.313396,-36.535664,-31.907755,-8.882082,-35.75647,-35.077709,-12.099578,-178.5878,-47.344513,5.3546824,-40.704906,110.92862,-34.233578,-36.469425,-47.305695,5.5894599,-13.646042,7.4089088,-34.151768,-66.675491,-31.97311,-9.0169172,-40.714367,110.62041,-34.264511,-66.725128,-16.459211,146.49399
2519500000,-16.658703,11.360023,-35.782391,-35.997684,-34.293945,-37.588982,-31.934414,-9.9279041,-35.840527,-35.916321,-12.067762,-178.79199,-47.778591,6.5454712,-40.739521,107.85275,-34.211502,-37.651638,-47.736862,6.8586068,-13.60776,6.97012,-34.138908,-68.227036,-31.994999,-10.041099,-40.756187,107.55259,-34.253704,-68.246162,-16.448832,146.07358
2520000000,-16.670734,11.530266,-35.872192,-36.90749,-34.285347,-38.70787,-31.950661,-10.893863,-35.924149,-36.772221,-12.037662,-179.00734,-48.169655,8.5849962,-40.798157,104.69814,-34.208263,-38.842854,-48.113956,8.964056,-13.57001,6.5457873,-34.132622,-69.789032,-32.005363,-11.011817,-40.817829,104.40266,-34.245968,-69.755814,-16.43611,145.62137
2520500000,-16.675173,11.718478,-35.973919,-37.723351,-34.284798,-39.788773,-31.954725,-11.844909,-36.016819,-37.584526,-12.008557,-179.21526,-48.482704,11.234235,-40.890961,101.60815,-34.221436,-39.999714,-48.39204,11.666973,-13.530869,6.1284552,-34.143845,-71.335419,-32.004837,-11.974629,-40.914337,101.39182,-34.249084,-71.257187,-16.421133,145.14162
2521000000,-16.675186,11.905176,-36.071968,-38.478062,-34.296143,-40.840927,-31.951572,-12.787418,-36.107079,-38.345215,-11.982659,-179.45032,-48.686974,14.190254,-41.011395,98.67836,-34.240242,-41.089161,-48.552158,14.388364,-13.489765,5.7117863,-34.16325,-72.785263,-31.998207,-12.938742,-41.035946,98.488708,-34.261028,-72.685539,-16.406013,144.63666
2521500000,-16.665018,12.105659,-36.167679,-39.192158,-34.300201,-41.852402,-31.933601,-13.738593,-36.195511,-39.102463,-11.957206,-179.67957,-48.811298,17.307043,-41.160053,95.991295,-34.258263,-42.11137,-48.663754,17.197893,-13.448364,5.282969,-34.174961,-74.166389,-31.980074,-13.931145,-41.176548,95.883156,-34.263264,-74.069916,-16.392136,144.09122
2522000000,-16.648443,12.318639,-36.264099,-39.785797,-34.306713,-42.846828,-31.908375,-14.745712,-36.288738,-39.713043,-11.933323,-179.91341,-48.846535,20.564631,-41.300518,93.640823,-34.277126,-43.092583,-48.722191,20.125208,-13.405457,4.851717,-34.18314,-75.548264,-31.954308,-14.985488,-41.317844,93.567978,-34.262848,-75.472069,-16.381985,143.50792
2522500000,-16.622047,12.545648,-36.330009,-40.313763,-34.311584,-43.804104,-31.875519,-15.843908,-36.354691,-40.273052,-11.911669,179.84656,-48.763535,23.533068,-41.428402,91.577042,-34.291294,-44.031361,-48.663158,22.990276,-13.364739,4.4047561,-34.186352,-76.947556,-31.924957,-16.12219,-41.441986,91.544044,-34.261318,-76.908325,-16.376368,142.90497
2523000000,-16.582502,12.761751,-36.381054,-40.936047,-34.309261,-44.748791,-31.847626,-17.044329,-36.408482,-40.956066,-11.892202,179.60168,-48.621593,26.068811,-41.51762,89.736977,-34.297832,-44.925949,-48.557625,25.594114,-13.324654,3.9551783,-34.187199,-78.385704,-31.89954,-17.375839,-41.52367,89.745125,-34.254765,-78.406891,-16.375219,142.29066
2523500000,-16.532824,12.960494,-36.428516,-41.626892,-34.298038,-45.688175,-31.828876,-18.31489,-36.462769,-41.658501,-11.873432,179.37132,-48.443687,28.291908,-41.560959,87.962845,-34.294262,-45.820248,-48.415127,27.837936,-13.28534,3.5040598,-34.192513,-79.918297,-31.889122,-18.679262,-41.562458,87.989937,-34.258572,-79.982986,-16.380262,141.69276
2524000000,-16.474186,13.136712,-36.479462,-42.365833,-34.279831,-46.648918,-31.822865,-19.617519,-36.521236,-42.404015,-11.858276,179.13197,-48.272541,30.088917,-41.571918,86.109146,-34.279934,-46.730091,-48.255299,29.644135,-13.249191,3.0449038,-34.210403,-81.473557,-31.889933,-20.004353,-41.566257,86.155663,-34.278473,-81.581116,-16.390409,141.09126
2524500000,-16.409365,13.26861,-36.527351,-43.106014,-34.25074,-47.672119,-31.825815,-20.912292,-36.577259,-43.104759,-11.842807,178.89693,-48.108341,31.597172,-41.570637,84.159683,-34.251015,-47.65546,-48.107262,31.419088,-13.212911,2.5926912,-34.242443,-83.028206,-31.901058,-21.303263,-41.558357,84.248833,-34.310642,-83.147499,-16.40546,140.5287
2525000000,-16.329889,13.356688,-36.57291,-43.907948,-34.213585,-48.763329,-31.83326,-22.243002,-36.62756,-43.845127,-11.828931,178.65948,-48.003212,32.916454,-41.547329,82.196869,-34.209568,-48.668552,-47.995411,32.886967,-13.176917,2.1507139,-34.279732,-84.561295,-31.919422,-22.635733,-41.524467,82.266968,-34.353947,-84.677696,-16.423796,139.98792
2525500000,-16.248098,13.353457,-36.631706,-44.79039,-34.17009,-49.955723,-31.859909,-23.595566,-36.686905,-44.638832,-11.816708,178.43022,-47.908531,34.846825,-41.516953,80.073372,-34.156006,-49.807568,-47.901367,34.973911,-13.139624,1.6984903,-34.329655,-86.048721,-31.953819,-23.949833,-41.481411,80.104576,-34.405704,-86.178932,-16.443604,139.47717
2526000000,-16.163965,13.272604,-36.696285,-45.589916,-34.128193,-51.309185,-31.901472,-24.872337,-36.747978,-45.394672,-11.807037,178.19211,-47.77047,36.804886,-41.487789,77.866547,-34.099625,-51.189156,-47.742241,37.004665,-13.106625,1.2403356,-34.38427,-87.459122,-32.002254,-25.183975,-41.443871,77.842567,-34.458145,-87.576485,-16.464987,139.00662
2526500000,-16.075989,13.125005,-36.762165,-46.397076,-34.09642,-52.76952,-31.954475,-26.091942,-36.805237,-46.189903,-11.798562,177.95871,-47.623573,38.84811,-41.464855,75.611168,-34.061779,-52.687607,-47.574753,39.090439,-13.075073,0.79543477,-34.4356,-88.831268,-32.06184,-26.349258,-41.419785,75.524414,-34.508308,-88.945023,-16.486984,138.54749
2527000000,-15.98841,12.899717,-36.837891,-47.213818,-34.078735,-54.331852,-32.018902,-27.189922,-36.877487,-47.000546,-11.792112,177.72411,-47.4296,41.154224,-41.451397,73.385521,-34.039646,-54.30571,-47.368793,41.370914,-13.045048,0.35721669,-34.483719,-90.194344,-32.128593,-27.390593,-41.403141,73.212029,-34.55703,-90.338158,-16.507307,138.12769
