!CSV A.01.01
!Keysight Technologies,N5222B,MY58422327,A.13.60.06
!Date: Monday, March 28, 2022 16:49:27
!Source: Standard

BEGIN CH1_DATA
Freq(Hz),S11(DB),S11(DEG),S12(DB),S12(DEG),S13(DB),S13(DEG),S14(DB),S14(DEG),S21(DB),S21(DEG),S22(DB),S22(DEG),S23(DB),S23(DEG),S24(DB),S24(DEG),S31(DB),S31(DEG),S32(DB),S32(DEG),S33(DB),S33(DEG),S34(DB),S34(DEG),S41(DB),S41(DEG),S42(DB),S42(DEG),S43(DB),S43(DEG),S44(DB),S44(DEG)
2500000000,-16.695023,25.513706,-32.713814,9.9176588,-35.620235,-9.3884306,-32.059761,24.817547,-32.710857,10.001198,-13.424893,-173.24197,-39.268959,14.999852,-45.478527,-144.73148,-35.613525,-9.4699383,-39.27227,15.146112,-15.520542,25.042364,-34.584335,-33.111393,-32.1343,24.604727,-45.30761,-143.89915,-34.648201,-33.227283,-16.494589,166.19872
2500500000,-16.675196,25.120106,-32.787411,8.4651108,-35.658005,-10.011018,-32.1161,23.736713,-32.785362,8.5011559,-13.379184,-173.37703,-39.399265,12.997603,-45.288891,-146.1312,-35.663658,-10.156287,-39.41161,13.231339,-15.46379,24.556416,-34.649223,-33.938454,-32.194199,23.5133,-45.087769,-145.57028,-34.708767,-34.041576,-16.484747,165.83786
2501000000,-16.652685,24.73844,-32.870129,7.0124002,-35.702057,-10.598161,-32.175682,22.718102,-32.868843,7.01897,-13.332031,-173.49408,-39.566223,10.982409,-45.096546,-147.64474,-35.715012,-10.769217,-39.582863,11.344968,-15.405354,24.051809,-34.709419,-34.780804,-32.258209,22.507269,-44.870029,-147.37242,-34.76717,-34.895138,-16.473711,165.46819
2501500000,-16.625692,24.370939,-32.952301,5.690599,-35.752518,-10.962446,-32.234875,21.80386,-32.952492,5.6567621,-13.287901,-173.62762,-39.762459,9.0574512,-44.91869,-149.33324,-35.775379,-11.12103,-39.779102,9.5661936,-15.348539,23.529564,-34.774597,-35.550411,-32.320255,21.592091,-44.68301,-149.25842,-34.8302,-35.671787,-16.459419,165.10344
2502000000,-16.598297,23.979952,-33.031418,4.3899431,-35.786255,-11.190989,-32.28619,20.901299,-33.032337,4.3151608,-13.244826,-173.7534,-39.992172,7.2703514,-44.769886,-150.96687,-35.821659,-11.315462,-39.99752,7.9425445,-15.294534,22.99404,-34.831482,-36.323612,-32.377262,20.709114,-44.513321,-151.10666,-34.889019,-36.440311,-16.443329,164.72809
2502500000,-16.565943,23.575169,-33.111179,3.1615415,-35.800228,-11.351519,-32.338482,20.018923,-33.114632,3.0357728,-13.201678,-173.87613,-40.230587,5.6503263,-44.636395,-152.36215,-35.847309,-11.464712,-40.223259,6.4554839,-15.244801,22.454338,-34.890949,-37.078857,-32.434704,19.852139,-44.363785,-152.7636,-34.948456,-37.191242,-16.425732,164.32516
2503000000,-16.53083,23.147356,-33.18491,1.9758736,-35.806679,-11.5133,-32.389668,19.16824,-33.190483,1.7996358,-13.161291,-174.01686,-40.482105,4.2024155,-44.475445,-153.70612,-35.860664,-11.559908,-40.453541,5.0971174,-15.198616,21.922173,-34.953781,-37.765583,-32.488476,19.051046,-44.200649,-154.46428,-35.010059,-37.886097,-16.407284,163.92009
2503500000,-16.500837,22.68211,-33.2481,0.78406525,-35.812359,-11.57106,-32.440189,18.35231,-33.259502,0.57284856,-13.121354,-174.15169,-40.725742,2.817982,-44.300739,-154.85178,-35.863857,-11.536471,-40.669106,3.7621169,-15.155901,21.410809,-35.006435,-38.315105,-32.539421,18.282402,-44.035732,-155.92624,-35.06303,-38.436745,-16.387205,163.50446
2504000000,-16.468395,22.209745,-33.31295,-0.36652786,-35.791077,-11.516589,-32.492367,17.574192,-33.326885,-0.62348747,-13.0806,-174.28218,-40.974564,1.4673724,-44.102016,-155.92029,-35.837872,-11.407925,-40.899895,2.4477706,-15.11487,20.922117,-35.045475,-38.855434,-32.587372,17.540697,-43.853394,-157.26567,-35.100887,-38.994858,-16.366835,163.05666
2504500000,-16.436916,21.733934,-33.367958,-1.4859557,-35.733238,-11.482393,-32.543736,16.851479,-33.386734,-1.7395388,-13.041735,-174.42584,-41.228577,0.058224287,-43.836887,-156.98241,-35.7771,-11.332108,-41.128662,1.0455114,-15.072468,20.463709,-35.069447,-39.376526,-32.634262,16.842754,-43.617451,-158.56567,-35.127178,-39.51474,-16.342178,162.60416
2505000000,-16.401495,21.264486,-33.404133,-2.623255,-35.662491,-11.51033,-32.587067,16.204458,-33.427773,-2.9075809,-13.005952,-174.58176,-41.503666,-1.3447074,-43.511448,-158.15192,-35.698895,-11.346571,-41.376484,-0.34908873,-15.02988,20.008759,-35.080498,-39.90012,-32.67115,16.184389,-43.322948,-159.89429,-35.137478,-40.027149,-16.317896,162.1077
2505500000,-16.364666,20.770414,-33.433254,-3.8081243,-35.55484,-11.658998,-32.625645,15.574207,-33.465977,-4.1083827,-12.969907,-174.72192,-41.807198,-2.6988695,-43.143116,-159.77724,-35.587112,-11.510516,-41.64975,-1.7897949,-14.985266,19.562002,-35.07299,-40.473904,-32.707268,15.562588,-42.989311,-161.62036,-35.129192,-40.595795,-16.291515,161.58479
2506000000,-16.327105,20.262392,-33.457008,-5.097692,-35.436779,-12.004043,-32.654812,15.00582,-33.49369,-5.413518,-12.935468,-174.87228,-42.127995,-4.0626407,-42.757996,-161.79619,-35.467579,-11.838665,-41.945686,-3.2845767,-14.940095,19.127974,-35.061005,-41.086887,-32.734623,14.969056,-42.632133,-163.69711,-35.116699,-41.219826,-16.264702,161.0148
2506500000,-16.289392,19.733507,-33.487286,-6.4928408,-35.315212,-12.492736,-32.675106,14.474588,-33.52774,-6.8470502,-12.902858,-175.03418,-42.497284,-5.3793616,-42.374039,-164.31418,-35.345955,-12.333793,-42.299278,-4.8016629,-14.893237,18.696518,-35.04026,-41.795265,-32.753307,14.437789,-42.271339,-166.15805,-35.090973,-41.938805,-16.239182,160.40515
2507000000,-16.256878,19.189302,-33.531315,-7.9401565,-35.194378,-13.161461,-32.679134,13.942024,-33.578857,-8.3042917,-12.869568,-175.17438,-42.925949,-6.4674678,-42.012386,-167.19937,-35.2244,-13.01143,-42.727249,-6.1273813,-14.844289,18.268848,-35.01646,-42.573139,-32.757446,13.883193,-41.935646,-169.00783,-35.067585,-42.737133,-16.218098,159.74506
2507500000,-16.221588,18.655779,-33.587681,-9.4051895,-35.079823,-13.966444,-32.674,13.352658,-33.642326,-9.7602558,-12.83816,-175.32651,-43.387993,-7.1630149,-41.691902,-170.42769,-35.116058,-13.813584,-43.197449,-7.0328164,-14.794004,17.842064,-34.992474,-43.420975,-32.754601,13.284034,-41.634468,-172.15578,-35.044514,-43.622147,-16.201851,159.05873
2508000000,-16.192642,18.102594,-33.652779,-10.851098,-34.985008,-14.944424,-32.668018,12.724392,-33.716164,-11.168516,-12.805957,-175.47119,-43.873348,-7.4007893,-41.416523,-173.79054,-35.018112,-14.747176,-43.70697,-7.4730158,-14.744409,17.411234,-34.973122,-44.348755,-32.75145,12.650425,-41.367805,-175.52493,-35.030476,-44.580917,-16.191582,158.35573
2508500000,-16.166206,17.546682,-33.722191,-12.280615,-34.911278,-15.913527,-32.66164,12.113235,-33.79285,-12.536898,-12.773019,-175.60782,-44.356579,-7.1811466,-41.176216,-177.25752,-34.941444,-15.710896,-44.236103,-7.3157644,-14.691351,16.99423,-34.966347,-45.307377,-32.747688,12.027996,-41.142281,-178.98091,-35.028805,-45.547771,-16.186552,157.64084
2509000000,-16.147923,16.97472,-33.797626,-13.677763,-34.847649,-16.895855,-32.650089,11.53004,-33.868969,-13.873485,-12.742831,-175.76471,-44.830078,-6.4616156,-40.970753,179.2133,-34.875355,-16.683064,-44.752483,-6.5579448,-14.638373,16.570431,-34.9711,-46.249737,-32.740788,11.459496,-40.949841,177.51241,-35.037006,-46.484802,-16.185017,156.92952
2509500000,-16.13431,16.416985,-33.873928,-15.057648,-34.790264,-17.878441,-32.627583,10.978469,-33.947502,-15.199517,-12.711452,-175.92085,-45.256096,-5.451932,-40.79055,175.69971,-34.817806,-17.662811,-45.225246,-5.2930779,-14.582655,16.147467,-34.980419,-47.109165,-32.722328,10.937866,-40.7799,174.03003,-35.052036,-47.365776,-16.187849,156.21657
2510000000,-16.128914,15.86058,-33.957573,-16.437696,-34.734104,-18.866869,-32.591244,10.428123,-34.031128,-16.542213,-12.679995,-176.06555,-45.670696,-4.1333146,-40.629128,172.18231,-34.76001,-18.660686,-45.656765,-3.6077414,-14.525715,15.722772,-34.989819,-47.916508,-32.686119,10.430175,-40.636539,170.65553,-35.06683,-48.140221,-16.196098,155.49593
2510500000,-16.135063,15.307769,-34.050461,-17.783731,-34.682098,-19.908442,-32.535137,9.8097963,-34.118328,-17.855591,-12.650769,-176.22461,-46.06765,-2.3798368,-40.479744,168.65681,-34.707676,-19.712017,-46.051174,-1.506052,-14.468895,15.278964,-34.992916,-48.636032,-32.629177,9.8701363,-40.502491,167.24039,-35.07069,-48.848907,-16.206579,154.80997
2511000000,-16.145054,14.789834,-34.152493,-19.045113,-34.642197,-21.007484,-32.472809,9.0695257,-34.211605,-19.112822,-12.622074,-176.37114,-46.413357,-0.036649771,-40.346218,165.07318,-34.668823,-20.838268,-46.35273,1.227736,-14.411721,14.822264,-34.977264,-49.325451,-32.562057,9.1947203,-40.377045,163.79576,-35.055321,-49.523178,-16.222439,154.12331
2511500000,-16.159552,14.310806,-34.249928,-20.210075,-34.613857,-22.130337,-32.409538,8.2358379,-34.303642,-20.291708,-12.593032,-176.5009,-46.654064,2.6827242,-40.232029,161.40016,-34.651119,-21.94479,-46.522007,4.1717076,-14.35605,14.351553,-34.945827,-50.05312,-32.491665,8.4107676,-40.264267,160.24559,-35.026459,-50.234192,-16.24292,153.46313
2512000000,-16.178076,13.863325,-34.334957,-21.337662,-34.59528,-23.195456,-32.348171,7.2933879,-34.387943,-21.433783,-12.564393,-176.63945,-46.786953,5.4840679,-40.150185,157.78827,-34.635956,-22.977322,-46.593903,6.954432,-14.306198,13.867014,-34.904919,-50.864994,-32.421417,7.5179286,-40.17585,156.71422,-34.987644,-51.053104,-16.266748,152.83266
2512500000,-16.195541,13.446258,-34.405998,-22.511675,-34.595612,-24.259008,-32.29705,6.3659115,-34.462822,-22.63765,-12.536833,-176.76993,-46.818474,8.4164839,-40.088047,154.14328,-34.639881,-23.995621,-46.570244,9.6361532,-14.257207,13.396513,-34.86549,-51.710228,-32.355476,6.588078,-40.104214,153.13889,-34.949368,-51.870556,-16.290684,152.24638
2513000000,-16.212297,13.046435,-34.485645,-23.746874,-34.601597,-25.237978,-32.239643,5.4212823,-34.546341,-23.859886,-12.507273,-176.88074,-46.688538,11.188707,-40.047764,150.49834,-34.645935,-24.904099,-46.410702,11.89643,-14.210121,12.93253,-34.81929,-52.597961,-32.28656,5.6196432,-40.053253,149.57755,-34.902397,-52.752071,-16.315371,151.6832
2513500000,-16.229441,12.657936,-34.576542,-24.98588,-34.603577,-26.119564,-32.179817,4.4009852,-34.639252,-25.099337,-12.477621,-176.99115,-46.454506,12.927575,-40.038074,146.95398,-34.645466,-25.706099,-46.17461,13.460279,-14.16433,12.476132,-34.773228,-53.56974,-32.215263,4.5563078,-40.028053,146.0517,-34.855545,-53.716129,-16.339821,151.14822
2514000000,-16.250185,12.264781,-34.670967,-26.168688,-34.593773,-26.977829,-32.122204,3.3030915,-34.73587,-26.26683,-12.445686,-177.1015,-46.199863,13.706875,-40.03841,143.55548,-34.628597,-26.465813,-45.926495,14.190967,-14.116477,12.029165,-34.729439,-54.568378,-32.151882,3.3998649,-40.015129,142.66541,-34.809727,-54.709496,-16.364635,150.61848
2514500000,-16.271605,11.89592,-34.767784,-27.31592,-34.579407,-27.849592,-32.072548,2.1517038,-34.833275,-27.400824,-12.412976,-177.21663,-45.975803,13.676589,-40.044373,140.289,-34.603493,-27.312517,-45.704456,14.118178,-14.06989,11.576149,-34.686993,-55.599819,-32.0975,2.1745877,-40.011211,139.36545,-34.766365,-55.747498,-16.388426,150.12204
2515000000,-16.295504,11.542694,-34.867298,-28.411474,-34.563145,-28.769157,-32.029644,0.94676197,-34.934242,-28.514317,-12.379647,-177.33478,-45.801834,13.279425,-40.05455,137.12529,-34.576431,-28.21557,-45.542183,13.589891,-14.021974,11.125756,-34.646568,-56.648205,-32.055092,0.91063362,-40.009052,136.15526,-34.725075,-56.789982,-16.41111,149.64868
2515500000,-16.326393,11.208957,-34.958321,-29.453562,-34.548866,-29.732552,-31.995924,-0.27243823,-35.028862,-29.572872,-12.345658,-177.4586,-45.680897,12.535995,-40.049507,134.03085,-34.551006,-29.168043,-45.412476,12.760906,-13.973558,10.672915,-34.605171,-57.663551,-32.022915,-0.36997375,-39.997124,132.97346,-34.68359,-57.832134,-16.431557,149.20006
2516000000,-16.364393,10.904392,-35.042877,-30.530973,-34.539822,-30.715481,-31.969957,-1.5076462,-35.122036,-30.678137,-12.309105,-177.58244,-45.629974,11.384875,-40.037746,130.82072,-34.533855,-30.151966,-45.355278,11.447085,-13.924241,10.21106,-34.548389,-58.71312,-32.000042,-1.6346619,-39.980694,129.71701,-34.628719,-58.882092,-16.451902,148.74751
2516500000,-16.40803,10.676279,-35.13987,-31.658983,-34.534477,-31.68368,-31.949268,-2.7385828,-35.22628,-31.796873,-12.272634,-177.72801,-45.661785,9.959527,-40.0382,127.50697,-34.523327,-31.140802,-45.383053,9.9062147,-13.875327,9.7284431,-34.489433,-59.86145,-31.982313,-2.9036915,-39.984055,126.34688,-34.568424,-60.035191,-16.468626,148.35368
2517000000,-16.453091,10.520261,-35.237431,-32.669277,-34.526997,-32.690544,-31.934792,-3.9668233,-35.340153,-32.788315,-12.23787,-177.89664,-45.756607,8.5449429,-40.065285,124.24631,-34.507942,-32.158264,-45.484417,8.347393,-13.829695,9.2344208,-34.432751,-61.114635,-31.972214,-4.1510806,-40.017109,123.01365,-34.517685,-61.298538,-16.483204,147.96358
2517500000,-16.50399,10.435221,-35.33371,-33.735409,-34.537727,-33.639069,-31.923056,-5.2108245,-35.451473,-33.773773,-12.202318,-178.05916,-45.988758,7.1977925,-40.108452,121.06064,-34.516521,-33.15818,-45.727203,6.8585134,-13.786152,8.7505436,-34.382137,-62.433041,-31.964828,-5.4190078,-40.060863,119.76705,-34.468426,-62.611156,-16.493732,147.58261
2518000000,-16.550905,10.443253,-35.429443,-34.715866,-34.536465,-34.52813,-31.922266,-6.4509368,-35.557171,-34.656139,-12.167645,-178.24005,-46.288521,6.2933192,-40.156322,117.94581,-34.515507,-34.0779,-46.054913,5.9016991,-13.745172,8.2716208,-34.342232,-63.785664,-31.96604,-6.6840219,-40.1208,116.65907,-34.428005,-63.965992,-16.499763,147.21892
2518500000,-16.592508,10.531163,-35.52079,-35.726479,-34.525665,-35.469185,-31.930643,-7.6516023,-35.657352,-35.537342,-12.134027,-178.42798,-46.624294,5.9360886,-40.196217,114.93434,-34.506096,-35.02483,-46.427357,5.5418839,-13.706128,7.8054943,-34.309071,-65.150841,-31.978331,-7.8908248,-40.167263,113.63092,-34.395679,-65.320473,-16.49996,146.84322
2519000000,-16.626797,10.672241,-35.614052,-36.728634,-34.515884,-36.449677,-31.940765,-8.7820196,-35.754917,-36.396919,-12.099739,-178.61598,-47.010742,5.8405476,-40.237968,111.84581,-34.496925,-36.039898,-46.830418,5.5411987,-13.668415,7.3574157,-34.280994,-66.526825,-31.99431,-9.0484667,-40.216778,110.56255,-34.369408,-66.674507,-16.493946,146.4563
2519500000,-16.648695,10.859524,-35.712154,-37.734829,-34.511143,-37.503563,-31.951757,-9.8526688,-35.851753,-37.254807,-12.067157,-178.82138,-47.445396,6.5712013,-40.291611,108.71661,-34.493519,-37.083511,-47.299568,6.3715119,-13.629724,6.9233565,-34.255051,-67.914597,-32.008839,-10.123837,-40.278992,107.43756,-34.341621,-68.045624,-16.48225,146.05333
2520000000,-16.662605,11.056577,-35.814587,-38.756622,-34.518894,-38.562622,-31.954004,-10.874988,-35.94762,-38.140419,-12.037281,-179.04044,-47.867165,8.1104565,-40.374302,105.53094,-34.504395,-38.128372,-47.732155,8.1529036,-13.590991,6.5048633,-34.227207,-69.341316,-32.017826,-11.164677,-40.367935,104.24197,-34.317692,-69.453644,-16.46825,145.61642
2520500000,-16.667261,11.266658,-35.926289,-39.744335,-34.531277,-39.582439,-31.949787,-11.919931,-36.052471,-38.980312,-12.006763,-179.25017,-48.227673,10.309063,-40.490238,102.49127,-34.517181,-39.149689,-48.092564,10.612951,-13.551273,6.091835,-34.212105,-70.799805,-32.019238,-12.191947,-40.490437,101.19899,-34.303551,-70.894714,-16.451715,145.14619
2521000000,-16.666912,11.469058,-36.04892,-40.648056,-34.551025,-40.595325,-31.944395,-12.945751,-36.162853,-39.747173,-11.981183,-179.48857,-48.513638,13.051743,-40.63089,99.63221,-34.536373,-40.122181,-48.354752,13.620399,-13.509254,5.6779585,-34.205318,-72.207794,-32.020561,-13.215094,-40.638893,98.330307,-34.293125,-72.296875,-16.434563,144.6422
2521500000,-16.655106,11.673477,-36.172798,-41.453091,-34.570923,-41.519291,-31.931293,-13.979414,-36.27314,-40.444359,-11.955802,-179.72227,-48.715172,16.210489,-40.790302,97.043373,-34.551361,-41.016315,-48.500248,16.875477,-13.466592,5.245049,-34.191105,-73.616119,-32.011551,-14.221055,-40.811047,95.779602,-34.275417,-73.676315,-16.420326,144.09766
2522000000,-16.638407,11.871839,-36.299858,-42.103321,-34.589886,-42.422344,-31.909533,-15.042027,-36.383385,-40.960064,-11.932156,-179.96042,-48.806892,19.612494,-40.94313,94.808434,-34.564381,-41.913483,-48.52639,20.43207,-13.423424,4.8064618,-34.176327,-75.052567,-31.997196,-15.258928,-40.96941,93.569221,-34.258396,-75.112671,-16.410254,143.51253
2522500000,-16.613096,12.081936,-36.399651,-42.620972,-34.602627,-43.257301,-31.884293,-16.172306,-36.462883,-41.369537,-11.910892,179.79852,-48.77335,22.916904,-41.071262,92.847443,-34.571678,-42.77512,-48.449646,23.583275,-13.383183,4.3515487,-34.16074,-76.530319,-31.971157,-16.338495,-41.110363,91.684052,-34.240063,-76.584129,-16.404909,142.90961
2523000000,-16.577803,12.277356,-36.483887,-43.183849,-34.600941,-44.062031,-31.859539,-17.402628,-36.517239,-41.851891,-11.891366,179.54817,-48.654385,25.835331,-41.157501,91.102013,-34.567467,-43.60981,-48.291912,26.162594,-13.344104,3.8952382,-34.145645,-78.096718,-31.949112,-17.530468,-41.19936,90.052727,-34.221287,-78.154961,-16.405048,142.30531
2523500000,-16.533712,12.464422,-36.558151,-43.734573,-34.590473,-44.898579,-31.847052,-18.687466,-36.564842,-42.371979,-11.872427,179.31549,-48.493057,28.319262,-41.192715,89.334305,-34.554359,-44.481834,-48.105247,28.476099,-13.306665,3.4416597,-34.145241,-79.732285,-31.932892,-18.78438,-41.238708,88.413246,-34.214962,-79.820259,-16.410492,141.71698
2524000000,-16.482635,12.641744,-36.626911,-44.300449,-34.568077,-45.76075,-31.84338,-19.997374,-36.602943,-42.943645,-11.85754,179.07501,-48.304306,30.368217,-41.199352,87.484955,-34.530296,-45.393902,-47.909935,30.38563,-13.272916,2.986454,-34.160824,-81.397522,-31.926439,-20.092777,-41.242966,86.642578,-34.228058,-81.504242,-16.420967,141.131
2524500000,-16.424465,12.783614,-36.683407,-44.842667,-34.534733,-46.708965,-31.848841,-21.30917,-36.629795,-43.55637,-11.842213,178.84004,-48.111305,32.262314,-41.196693,85.505737,-34.500877,-46.362072,-47.702488,32.064503,-13.237878,2.5447531,-34.190147,-83.045647,-31.926241,-21.392126,-41.235199,84.725685,-34.258156,-83.183746,-16.435284,140.58337
2525000000,-16.35132,12.900124,-36.720715,-45.491718,-34.494637,-47.713421,-31.863119,-22.657366,-36.643745,-44.27457,-11.828312,178.60075,-47.946884,33.830547,-41.176224,83.469025,-34.460354,-47.417728,-47.520145,33.405697,-13.203473,2.1115925,-34.234638,-84.664719,-31.937185,-22.763025,-41.21093,82.767815,-34.302971,-84.808777,-16.452604,140.05453
2525500000,-16.275339,12.935479,-36.764965,-46.287346,-34.441269,-48.838932,-31.894026,-24.019199,-36.668438,-45.173656,-11.81601,178.36804,-47.804642,35.903622,-41.150852,81.279129,-34.413975,-48.568897,-47.370838,35.175297,-13.166667,1.6703576,-34.292976,-86.212669,-31.968372,-24.132315,-41.176956,80.63105,-34.362053,-86.370209,-16.471907,139.55643
2526000000,-16.195362,12.901346,-36.814903,-47.030811,-34.391048,-50.158466,-31.942411,-25.30431,-36.700272,-46.078449,-11.806507,178.12283,-47.601612,37.794666,-41.140324,78.991982,-34.369438,-49.931984,-47.168797,36.703609,-13.134611,1.2240084,-34.356773,-87.639275,-32.016701,-25.452528,-41.148693,78.377335,-34.424625,-87.813705,-16.492256,139.09706
2526500000,-16.109047,12.804224,-36.86375,-47.887135,-34.351185,-51.609642,-32.003513,-26.522932,-36.738392,-47.082394,-11.798606,177.88419,-47.393135,39.684666,-41.137245,76.679947,-34.339596,-51.395866,-46.982971,38.280132,-13.104461,0.78955621,-34.41317,-89.00029,-32.079052,-26.687225,-41.129337,76.123741,-34.480591,-89.182816,-16.512804,138.65051
2527000000,-16.020916,12.622571,-36.933762,-48.80687,-34.323997,-53.179752,-32.07275,-27.599136,-36.799988,-48.133068,-11.793161,177.64456,-47.137238,41.806316,-41.146103,74.432961,-34.319271,-52.938389,-46.771984,39.999428,-13.075017,0.36795253,-34.464661,-90.314278,-32.152672,-27.781824,-41.120609,73.855034,-34.533855,-90.539162,-16.531555,138.24155
