!CSV A.01.01
!Keysight Technologies,N5222B,MY58422327,A.13.60.06
!Date: Monday, March 28, 2022 16:45:18
!Source: Standard

BEGIN CH1_DATA
Freq(Hz),S11(DB),S11(DEG),S12(DB),S12(DEG),S13(DB),S13(DEG),S14(DB),S14(DEG),S21(DB),S21(DEG),S22(DB),S22(DEG),S23(DB),S23(DEG),S24(DB),S24(DEG),S31(DB),S31(DEG),S32(DB),S32(DEG),S33(DB),S33(DEG),S34(DB),S34(DEG),S41(DB),S41(DEG),S42(DB),S42(DEG),S43(DB),S43(DEG),S44(DB),S44(DEG)
2500000000,-16.742929,25.128162,-32.733467,9.8889914,-35.632538,-10.404248,-32.15134,25.967718,-32.76667,9.7170916,-13.447986,-173.21936,-39.29509,14.844453,-45.843678,-143.99269,-35.607338,-10.465361,-39.206085,14.931146,-15.52894,25.149904,-34.603104,-31.042957,-32.189831,25.805346,-45.840584,-144.11768,-34.687065,-31.077068,-16.498814,166.12267
2500500000,-16.728548,24.752144,-32.820358,8.4820871,-35.700462,-11.085578,-32.197105,24.895533,-32.857277,8.307622,-13.401474,-173.34726,-39.427502,12.909687,-45.619274,-145.29158,-35.675117,-11.13895,-39.340664,13.009971,-15.473696,24.663132,-34.63031,-31.903608,-32.237392,24.730021,-45.615028,-145.47285,-34.712475,-31.938757,-16.490875,165.76355
2501000000,-16.711086,24.384928,-32.915524,7.1217289,-35.766129,-11.649415,-32.244789,23.888456,-32.954891,6.9311595,-13.353744,-173.46152,-39.594673,11.003901,-45.39085,-146.75079,-35.737415,-11.697577,-39.502689,11.08223,-15.416756,24.1644,-34.655334,-32.817684,-32.287392,23.720844,-45.386356,-146.93033,-34.740112,-32.857864,-16.481295,165.39383
2501500000,-16.689556,24.038446,-33.00288,5.8713899,-35.840042,-11.967662,-32.293354,22.972139,-33.044197,5.6997457,-13.308579,-173.58914,-39.78553,9.2067251,-45.177849,-148.40942,-35.808224,-11.991212,-39.692051,9.2934637,-15.360334,23.650381,-34.691795,-33.707966,-32.336529,22.783978,-45.171509,-148.58578,-34.775116,-33.752335,-16.468372,165.03076
2502000000,-16.667625,23.663496,-33.083454,4.658989,-35.89539,-12.083776,-32.335907,22.053179,-33.126297,4.4893684,-13.265347,-173.70992,-39.99398,7.5258408,-44.982357,-150.00644,-35.8605,-12.145312,-39.906254,7.6080556,-15.305371,23.130276,-34.724968,-34.613388,-32.380219,21.858988,-44.978561,-150.20454,-34.810658,-34.65871,-16.453283,164.65237
2502500000,-16.641829,23.279587,-33.160305,3.4906263,-35.928005,-12.162591,-32.379181,21.162474,-33.206486,3.3253462,-13.221567,-173.82832,-40.211746,5.9601636,-44.806751,-151.50966,-35.88483,-12.22573,-40.119179,6.0499649,-15.253733,22.606575,-34.768303,-35.526207,-32.424961,20.974031,-44.803528,-151.64372,-34.851051,-35.555153,-16.437708,164.2515
2503000000,-16.613489,22.885948,-33.228001,2.3744924,-35.949341,-12.189929,-32.418091,20.30674,-33.275673,2.2045307,-13.180775,-173.96806,-40.432526,4.5086055,-44.603916,-153.02454,-35.902386,-12.264557,-40.343628,4.5840054,-15.204271,22.083229,-34.818352,-36.349777,-32.465607,20.113003,-44.601902,-153.13898,-34.900558,-36.378731,-16.421183,163.84573
2503500000,-16.588932,22.466192,-33.282814,1.2350847,-35.958702,-12.095801,-32.45694,19.460453,-33.330994,1.0575079,-13.140138,-174.10449,-40.65583,3.0205016,-44.400948,-154.40265,-35.906036,-12.246433,-40.558784,3.115983,-15.158825,21.571623,-34.862198,-37.060852,-32.506268,19.266115,-44.399464,-154.54147,-34.94561,-37.112522,-16.403936,163.43494
2504000000,-16.561138,22.047953,-33.335667,0.10780267,-35.940453,-11.930085,-32.501289,18.62606,-33.385658,-0.07158953,-13.09941,-174.23613,-40.883389,1.5499967,-44.183201,-155.66934,-35.891251,-12.090795,-40.789375,1.6914397,-15.114888,21.079506,-34.893105,-37.751846,-32.552044,18.432455,-44.181812,-155.80032,-34.977226,-37.800373,-16.386517,162.9995
2504500000,-16.531954,21.635067,-33.379345,-1.0038159,-35.891418,-11.734423,-32.547371,17.853521,-33.430008,-1.1874429,-13.061151,-174.38048,-41.126926,0.040513989,-43.914658,-156.90952,-35.841537,-11.933186,-41.028873,0.13073125,-15.070804,20.611286,-34.913853,-38.426422,-32.598591,17.654821,-43.91803,-157.07753,-34.998848,-38.477264,-16.364166,162.56601
2505000000,-16.496857,21.224756,-33.406685,-2.2120821,-35.817001,-11.584917,-32.587357,17.169588,-33.460186,-2.3764031,-13.025506,-174.53584,-41.403423,-1.4564929,-43.588982,-158.25407,-35.764122,-11.840336,-41.301842,-1.3838402,-15.0264,20.147676,-34.929592,-39.104862,-32.639633,16.956635,-43.589752,-158.43422,-35.013706,-39.162159,-16.341709,162.09602
2505500000,-16.459013,20.787081,-33.436527,-3.4528098,-35.702454,-11.571095,-32.626755,16.519499,-33.490971,-3.6119297,-12.990287,-174.67238,-41.708893,-2.9197466,-43.219589,-160.00786,-35.653084,-11.841788,-41.607479,-2.868876,-14.979998,19.691172,-34.930954,-39.811832,-32.679745,16.316734,-43.225712,-160.20181,-35.014877,-39.880535,-16.315672,161.60078
2506000000,-16.41935,20.326708,-33.459389,-4.7961969,-35.569637,-11.743526,-32.656715,15.93596,-33.518322,-4.9544826,-12.956262,-174.81183,-42.040092,-4.3257132,-42.826756,-162.17781,-35.524193,-12.041471,-41.938789,-4.2891264,-14.933271,19.241312,-34.927353,-40.539719,-32.710915,15.737026,-42.844585,-162.35263,-35.012165,-40.620869,-16.288288,161.0529
2506500000,-16.378298,19.840822,-33.492958,-6.2563858,-35.427509,-12.192241,-32.678364,15.428803,-33.55455,-6.38342,-12.923408,-174.96072,-42.41346,-5.6220541,-42.446377,-164.84459,-35.391224,-12.463326,-42.315125,-5.6544514,-14.885662,18.793232,-34.919514,-41.332794,-32.73027,15.226669,-42.457909,-165.01192,-35.007061,-41.400658,-16.261457,160.46141
2507000000,-16.342016,19.334389,-33.543438,-7.7518992,-35.292095,-12.812857,-32.677094,14.927365,-33.605686,-7.8317451,-12.88952,-175.08943,-42.840252,-6.6689544,-42.0928,-167.88545,-35.256008,-13.104012,-42.73983,-6.7245011,-14.837101,18.348543,-34.910019,-42.154057,-32.729271,14.711787,-42.102852,-168.02226,-34.998932,-42.224667,-16.238417,159.82057
2507500000,-16.303024,18.828846,-33.606186,-9.2237253,-35.16832,-13.637544,-32.661125,14.373116,-33.666779,-9.2618151,-12.856695,-175.23123,-43.28685,-7.3600802,-41.784615,-171.22243,-35.135685,-13.903689,-43.193977,-7.3637457,-14.787606,17.909029,-34.899872,-43.038719,-32.715767,14.148758,-41.796627,-171.35182,-34.990662,-43.118931,-16.22014,159.14667
2508000000,-16.270163,18.296951,-33.680294,-10.664633,-35.063259,-14.559785,-32.644176,13.764647,-33.737667,-10.673406,-12.823438,-175.36783,-43.750458,-7.5945334,-41.51231,-174.72046,-35.032246,-14.80635,-43.654701,-7.5738134,-14.738809,17.474688,-34.896626,-43.988968,-32.701298,13.533491,-41.523712,-174.84538,-34.990112,-44.040577,-16.208071,158.453
2508500000,-16.24151,17.759577,-33.75642,-12.039904,-34.978191,-15.533457,-32.623993,13.143035,-33.809975,-12.02838,-12.788821,-175.49895,-44.210899,-7.4786954,-41.286205,-178.27615,-34.95153,-15.753556,-44.121742,-7.4344687,-14.686511,17.050598,-34.906368,-44.911015,-32.682289,12.902418,-41.303619,-178.41074,-34.997616,-44.985985,-16.201447,157.74405
2509000000,-16.221066,17.205544,-33.833012,-13.390196,-34.903847,-16.516554,-32.600578,12.52227,-33.884682,-13.352666,-12.75698,-175.65147,-44.660324,-6.9517283,-41.094921,178.12112,-34.881226,-16.713287,-44.562996,-6.9392424,-14.63436,16.62553,-34.923534,-45.803909,-32.662052,12.287394,-41.106609,177.99518,-35.014114,-45.864548,-16.198832,157.04022
2509500000,-16.205667,16.667292,-33.909618,-14.734559,-34.84042,-17.480709,-32.56712,11.940618,-33.957024,-14.673241,-12.723648,-175.80325,-45.087421,-6.0931859,-40.922344,174.55005,-34.816658,-17.661901,-44.998302,-6.0742669,-14.57935,16.202873,-34.942539,-46.594475,-32.634174,11.707402,-40.940422,174.45235,-35.03653,-46.663307,-16.200483,156.33955
2510000000,-16.199379,16.139135,-33.99049,-16.078474,-34.780067,-18.474461,-32.518585,11.331066,-34.030651,-16.007145,-12.690121,-175.94858,-45.501194,-4.9186902,-40.777824,170.97617,-34.756783,-18.638617,-45.406013,-4.9254231,-14.522413,15.778885,-34.954487,-47.291325,-32.586197,11.113767,-40.795406,170.90791,-35.047516,-47.372097,-16.206316,155.63188
2510500000,-16.203489,15.6243,-34.077541,-17.414568,-34.728806,-19.541807,-32.452641,10.669189,-34.112568,-17.343,-12.658995,-176.11185,-45.910465,-3.3230972,-40.644444,167.41695,-34.701366,-19.677723,-45.808064,-3.342788,-14.466231,15.334642,-34.956825,-47.931297,-32.523129,10.464962,-40.660152,167.31268,-35.04932,-48.017071,-16.213957,154.95786
2511000000,-16.210325,15.146061,-34.169071,-18.688276,-34.690151,-20.646288,-32.381344,9.8636017,-34.198761,-18.642763,-12.629299,-176.2657,-46.257118,-1.0318712,-40.526684,163.83301,-34.660408,-20.794031,-46.154434,-1.1460888,-14.40946,14.88024,-34.933342,-48.532272,-32.452801,9.6927471,-40.546402,163.75931,-35.027893,-48.622387,-16.226076,154.27751
2511500000,-16.218912,14.699554,-34.262875,-19.919855,-34.670078,-21.753464,-32.309521,8.9606504,-34.286251,-19.891674,-12.599588,-176.40308,-46.480232,1.5983436,-40.42799,160.14928,-34.639488,-21.895466,-46.398247,1.4053499,-14.353828,14.4161,-34.892887,-49.224247,-32.379265,8.8267632,-40.444077,160.09276,-34.986351,-49.297226,-16.243145,153.61404
2512000000,-16.230322,14.27878,-34.349564,-21.120678,-34.657455,-22.775759,-32.239697,7.9721823,-34.372261,-21.126245,-12.570709,-176.5475,-46.604221,4.2388835,-40.359474,156.5162,-34.626354,-22.910175,-46.534412,4.0438185,-14.303329,13.940359,-34.843174,-50.023106,-32.309017,7.842494,-40.373249,156.46838,-34.940739,-50.117928,-16.263756,152.97838
2512500000,-16.23966,13.874997,-34.431175,-22.367416,-34.663361,-23.764826,-32.178894,6.9350429,-34.454922,-22.412498,-12.54343,-176.68184,-46.628563,6.9206419,-40.310905,152.88704,-34.632275,-23.906414,-46.577534,6.8166766,-14.253069,13.475937,-34.794979,-50.872551,-32.245537,6.8300824,-40.330803,152.89122,-34.894211,-50.967598,-16.284977,152.37865
2513000000,-16.248817,13.472359,-34.526062,-23.644995,-34.667786,-24.605286,-32.115341,5.8683944,-34.550987,-23.697901,-12.514332,-176.7957,-46.519547,9.2281733,-40.288353,149.32332,-34.636158,-24.72963,-46.479248,9.2400599,-14.203828,13.012316,-34.743622,-51.776093,-32.181332,5.7711444,-40.30838,149.29915,-34.844425,-51.870037,-16.307732,151.80371
2513500000,-16.259827,13.071637,-34.631134,-24.911533,-34.660332,-25.326151,-32.053967,4.7183261,-34.659733,-24.973135,-12.484296,-176.9063,-46.320129,10.741925,-40.295498,145.85687,-34.62989,-25.462851,-46.2915,10.81026,-14.156745,12.552932,-34.694267,-52.73093,-32.116119,4.6358204,-40.318027,145.81677,-34.797459,-52.824169,-16.330538,151.25229
2514000000,-16.275291,12.66014,-34.746021,-26.08489,-34.636082,-26.08449,-32.00021,3.4961395,-34.77364,-26.153378,-12.451776,-177.01604,-46.106033,11.474369,-40.320271,142.58153,-34.603302,-26.20113,-46.075085,11.598803,-14.108377,12.097033,-34.645336,-53.73415,-32.059341,3.4146256,-40.338058,142.54784,-34.749908,-53.799961,-16.354103,150.70621
2514500000,-16.292377,12.271961,-34.863632,-27.180996,-34.60112,-26.90765,-31.957008,2.2306123,-34.890659,-27.256605,-12.41831,-177.13324,-45.917847,11.413156,-40.341953,139.45837,-34.567352,-27.025419,-45.896091,11.648344,-14.061445,11.640478,-34.599144,-54.723526,-32.014656,2.1405363,-40.358303,139.42073,-34.70507,-54.796734,-16.377161,150.19649
2515000000,-16.312954,11.904386,-34.97934,-28.187683,-34.565262,-27.809998,-31.921267,0.95587295,-35.003269,-28.278564,-12.384404,-177.25575,-45.79541,10.973136,-40.356197,136.49292,-34.533146,-27.922487,-45.76963,11.244591,-14.013268,11.189357,-34.55122,-55.729465,-31.977291,0.8514809,-40.375877,136.44891,-34.655357,-55.787418,-16.399702,149.70735
2515500000,-16.341431,11.553353,-35.080315,-29.125299,-34.536613,-28.7626,-31.89242,-0.34152794,-35.107758,-29.231035,-12.34963,-177.38722,-45.718964,10.169276,-40.350113,133.5787,-34.501163,-28.862665,-45.682667,10.587969,-13.964083,10.735902,-34.495228,-56.730717,-31.949875,-0.4442319,-40.368389,133.53543,-34.59927,-56.776562,-16.420403,149.24866
2516000000,-16.37709,11.236691,-35.173943,-30.127129,-34.51009,-29.729021,-31.873051,-1.6538494,-35.202591,-30.208294,-12.31274,-177.51997,-45.705544,9.032897,-40.326015,130.52414,-34.477173,-29.830397,-45.653015,9.5138235,-13.913137,10.271332,-34.42329,-57.773216,-31.931231,-1.763839,-40.340046,130.48848,-34.526306,-57.819641,-16.440722,148.78596
2516500000,-16.419344,10.99627,-35.275185,-31.147879,-34.493099,-30.710648,-31.863287,-2.9707198,-35.305164,-31.225357,-12.276486,-177.67146,-45.780735,7.7568469,-40.314949,127.36314,-34.458702,-30.808611,-45.706146,8.2960062,-13.863214,9.7810545,-34.342278,-58.975254,-31.919462,-3.0829346,-40.330414,127.29359,-34.443012,-59.012596,-16.457636,148.3833
2517000000,-16.462378,10.828535,-35.386158,-32.060375,-34.469189,-31.705664,-31.861713,-4.2627521,-35.415108,-32.102726,-12.242323,-177.84325,-45.92495,6.5252213,-40.329037,124.21413,-34.432167,-31.795322,-45.829521,6.9956336,-13.816159,9.281374,-34.26857,-60.305748,-31.918335,-4.3943477,-40.343559,124.15921,-34.366516,-60.348385,-16.472214,147.98491
2517500000,-16.512735,10.731415,-35.488392,-33.003277,-34.469177,-32.693153,-31.865011,-5.5732679,-35.520679,-33.011292,-12.207122,-178.00682,-46.176872,5.4222183,-40.348995,121.09978,-34.429279,-32.757244,-46.076878,5.8924847,-13.772543,8.7890415,-34.20385,-61.741913,-31.922478,-5.6988473,-40.368755,120.99853,-34.303253,-61.790741,-16.482286,147.59377
2518000000,-16.558098,10.726778,-35.589153,-33.82233,-34.45277,-33.594494,-31.881252,-6.8462067,-35.614529,-33.822639,-12.173409,-178.18782,-46.486431,4.9592428,-40.381145,118.07471,-34.414558,-33.652744,-46.374622,5.2784066,-13.731341,8.3006105,-34.153194,-63.26115,-31.94055,-6.9816623,-40.399876,117.98638,-34.251114,-63.333229,-16.488596,147.22305
2518500000,-16.599361,10.802632,-35.680096,-34.69595,-34.427063,-34.542923,-31.909996,-8.047143,-35.704971,-34.675079,-12.140159,-178.37256,-46.828209,4.9068718,-40.408382,115.09544,-34.387901,-34.608521,-46.694702,5.1555629,-13.692327,7.8239903,-34.119808,-64.81633,-31.969322,-8.1788063,-40.425438,114.96455,-34.21648,-64.869347,-16.489447,146.83484
2519000000,-16.633278,10.935037,-35.772804,-35.53212,-34.401367,-35.58659,-31.938576,-9.147438,-35.793583,-35.506382,-12.106722,-178.55798,-47.171543,5.1190724,-40.437397,112.07358,-34.361618,-35.645866,-47.059856,5.3201818,-13.655519,7.3660827,-34.097019,-66.344315,-31.999435,-9.2856531,-40.457001,111.94572,-34.192669,-66.434074,-16.484459,146.43869
2519500000,-16.656321,11.11801,-35.866222,-36.363991,-34.38028,-36.70903,-31.964766,-10.159974,-35.881714,-36.329411,-12.0744,-178.75815,-47.565533,6.0334721,-40.475567,108.98249,-34.340759,-36.758892,-47.467651,6.1467934,-13.61765,6.9275513,-34.082733,-67.878059,-32.025192,-10.285796,-40.496338,108.86941,-34.181313,-67.969955,-16.474827,146.02992
2520000000,-16.671635,11.318859,-35.959663,-37.19043,-34.374634,-37.869373,-31.978838,-11.098135,-35.973858,-37.172367,-12.044538,-178.97249,-47.941273,7.6591592,-40.541683,105.83296,-34.334991,-37.925587,-47.823212,7.679472,-13.580126,6.5065479,-34.072758,-69.40757,-32.040848,-11.225669,-40.562477,105.71805,-34.173874,-69.503014,-16.462063,145.58911
2520500000,-16.676533,11.535387,-36.062511,-37.950165,-34.382244,-39.027874,-31.982908,-12.025567,-36.070869,-37.975407,-12.014091,-179.17941,-48.249134,9.807848,-40.635231,102.77956,-34.338882,-39.050797,-48.136024,9.7227859,-13.54085,6.0932088,-34.079742,-70.952225,-32.043777,-12.155174,-40.659103,102.66563,-34.180489,-71.038132,-16.446493,145.11908
2521000000,-16.675018,11.749567,-36.158909,-38.624191,-34.399395,-40.134983,-31.977266,-12.959345,-36.166534,-38.688015,-11.987744,-179.41298,-48.486927,12.132972,-40.754635,99.909813,-34.353275,-40.14637,-48.378284,12.009204,-13.499272,5.6811438,-34.093201,-72.40477,-32.038441,-13.074986,-40.777004,99.752747,-34.194744,-72.496513,-16.430376,144.61946
2521500000,-16.66288,11.962934,-36.247425,-39.272018,-34.41785,-41.154709,-31.958738,-13.898497,-36.259483,-39.380795,-11.961609,-179.64293,-48.68713,14.706346,-40.901894,97.28965,-34.371006,-41.193954,-48.557289,14.567301,-13.456957,5.2554407,-34.099823,-73.79483,-32.020035,-14.013639,-40.918667,97.118515,-34.204014,-73.876404,-16.415743,144.0759
2522000000,-16.64489,12.17619,-36.334915,-39.792393,-34.437813,-42.154987,-31.933571,-14.906091,-36.350502,-39.93288,-11.937325,-179.87697,-48.812958,17.574238,-41.03495,94.969246,-34.386402,-42.217232,-48.696053,17.539728,-13.413261,4.824892,-34.102787,-75.186935,-31.994087,-15.0257,-41.050972,94.800217,-34.204784,-75.257851,-16.405416,143.49162
2522500000,-16.617535,12.397788,-36.387562,-40.260101,-34.455917,-43.098793,-31.900452,-15.996947,-36.409679,-40.409649,-11.915385,179.88492,-48.845016,20.619221,-41.153786,92.874863,-34.405106,-43.188232,-48.731106,20.509138,-13.371897,4.3779078,-34.101303,-76.612007,-31.962553,-16.124382,-41.169411,92.721687,-34.204353,-76.67347,-16.400019,142.88857
2523000000,-16.578482,12.610882,-36.422348,-40.870838,-34.469604,-43.989201,-31.872114,-17.204012,-36.450211,-41.004234,-11.895365,179.6404,-48.806725,23.511938,-41.241711,90.992538,-34.419456,-44.118412,-48.685341,23.400402,-13.330962,3.926646,-34.097946,-78.096558,-31.934225,-17.331566,-41.252556,90.881172,-34.202812,-78.146355,-16.399565,142.27754
2523500000,-16.529388,12.806957,-36.4519,-41.560196,-34.471306,-44.878559,-31.854443,-18.487698,-36.485569,-41.676689,-11.875797,179.40962,-48.701839,26.210396,-41.286682,89.166214,-34.424343,-45.018822,-48.597107,26.010277,-13.29153,3.4704719,-34.102203,-79.666519,-31.916128,-18.611832,-41.299599,89.05352,-34.204838,-79.706886,-16.404867,141.68048
2524000000,-16.472895,12.982412,-36.485294,-42.353199,-34.46381,-45.735348,-31.847527,-19.785908,-36.520695,-42.454845,-11.859943,179.16632,-48.552284,28.699963,-41.302181,87.24604,-34.418385,-45.903206,-48.468674,28.395004,-13.255272,3.0087168,-34.119007,-81.246681,-31.910936,-19.923914,-41.313095,87.122902,-34.221809,-81.297775,-16.415651,141.08092
2524500000,-16.410738,13.118553,-36.522163,-43.157707,-34.439846,-46.623451,-31.850758,-21.10227,-36.556599,-43.257935,-11.84415,178.92799,-48.38736,30.839483,-41.308281,85.259178,-34.402336,-46.800083,-48.306564,30.600101,-13.218912,2.5547571,-34.151836,-82.829613,-31.916039,-21.217825,-41.317715,85.112801,-34.251637,-82.859459,-16.43117,140.52167
2525000000,-16.332659,13.220099,-36.560719,-44.043762,-34.403301,-47.597034,-31.863325,-22.433496,-36.59185,-44.154728,-11.830018,178.68636,-48.231926,32.673351,-41.297649,83.230736,-34.366333,-47.763157,-48.165401,32.437786,-13.182673,2.1107965,-34.19305,-84.377075,-31.92753,-22.558439,-41.306404,83.100204,-34.289524,-84.411362,-16.450529,139.98824
2525500000,-16.252743,13.240152,-36.616325,-45.039341,-34.353214,-48.676334,-31.895527,-23.775602,-36.645641,-45.134518,-11.817782,178.45535,-48.103199,35.040379,-41.27829,81.071312,-34.317196,-48.832638,-48.033108,34.737877,-13.145308,1.6601222,-34.245129,-85.866814,-31.959797,-23.903828,-41.284306,80.889252,-34.339481,-85.915878,-16.470961,139.48778
2526000000,-16.169596,13.190611,-36.681614,-45.935738,-34.300613,-49.953838,-31.940851,-25.03421,-36.711929,-46.041103,-11.808078,178.21346,-47.881977,37.116623,-41.263783,78.8181,-34.268501,-50.135769,-47.832985,36.787231,-13.11211,1.2007025,-34.298378,-87.281639,-32.005619,-25.176239,-41.267498,78.63298,-34.391548,-87.329063,-16.492107,139.02872
2526500000,-16.08004,13.073525,-36.750626,-46.840847,-34.257477,-51.381374,-31.998821,-26.22279,-36.780876,-46.956448,-11.799685,177.97743,-47.675274,39.114117,-41.262253,76.562309,-34.228657,-51.560066,-47.637035,38.858589,-13.079941,0.75135422,-34.34811,-88.663879,-32.064251,-26.37372,-41.268841,76.35656,-34.438828,-88.728439,-16.513071,138.57834
2527000000,-15.989419,12.876869,-36.834126,-47.70985,-34.230595,-52.913147,-32.064976,-27.289087,-36.862392,-47.871632,-11.793357,177.74098,-47.443607,41.194489,-41.268368,74.324203,-34.203861,-53.10133,-47.412212,41.097321,-13.049745,0.31117818,-34.395706,-90.067856,-32.132458,-27.444096,-41.272846,74.119652,-34.488312,-90.142159,-16.532354,138.16478
