!CSV A.01.01
!Keysight Technologies,N5222B,MY58422327,A.13.60.06
!Date: Monday, March 28, 2022 16:47:43
!Source: Standard

BEGIN CH1_DATA
Freq(Hz),S11(DB),S11(DEG),S12(DB),S12(DEG),S13(DB),S13(DEG),S14(DB),S14(DEG),S21(DB),S21(DEG),S22(DB),S22(DEG),S23(DB),S23(DEG),S24(DB),S24(DEG),S31(DB),S31(DEG),S32(DB),S32(DEG),S33(DB),S33(DEG),S34(DB),S34(DEG),S41(DB),S41(DEG),S42(DB),S42(DEG),S43(DB),S43(DEG),S44(DB),S44(DEG)
2500000000,-16.784193,25.791044,-32.686405,9.7216797,-35.507298,-8.9035501,-32.113438,27.578716,-32.776386,9.5624428,-13.425905,-173.09393,-39.710396,13.828396,-44.334396,-150.44629,-35.438869,-8.6684961,-39.634102,13.650846,-15.512798,25.133776,-34.461266,-31.697304,-32.152306,27.387768,-44.204971,-150.10732,-34.551392,-31.65361,-16.530531,166.46239
2500500000,-16.76259,25.437542,-32.781811,8.3557158,-35.557663,-9.5577335,-32.153778,26.472765,-32.870285,8.1927881,-13.378459,-173.22716,-39.810284,11.826781,-44.179501,-151.77934,-35.487026,-9.3047037,-39.735298,11.628393,-15.459243,24.648663,-34.513168,-32.562458,-32.19421,26.27474,-44.047245,-151.49292,-34.603401,-32.5144,-16.522358,166.09911
2501000000,-16.737595,25.08997,-32.883736,7.022191,-35.60754,-10.089758,-32.200962,25.446709,-32.971573,6.8712282,-13.32976,-173.34619,-39.949471,9.7481918,-44.018742,-153.26495,-35.536148,-9.8131723,-39.870304,9.5688858,-15.403655,24.153782,-34.563877,-33.456772,-32.243431,25.244965,-43.890553,-152.98741,-34.654491,-33.389977,-16.513006,165.73032
2501500000,-16.707752,24.745035,-32.978481,5.805089,-35.657864,-10.404956,-32.248516,24.506845,-33.066147,5.6731954,-13.284245,-173.48041,-40.115162,7.7451663,-43.875351,-154.84845,-35.584984,-10.110435,-40.039337,7.545012,-15.34808,23.644243,-34.626358,-34.25893,-32.293491,24.301281,-43.74234,-154.61255,-34.715778,-34.188583,-16.500469,165.36717
2502000000,-16.677328,24.370459,-33.064724,4.6144552,-35.69038,-10.537184,-32.29158,23.588102,-33.150711,4.4952307,-13.240686,-173.60912,-40.312664,5.8088565,-43.741352,-156.36984,-35.614384,-10.25783,-40.233929,5.6136456,-15.29504,23.126173,-34.680916,-35.058346,-32.339008,23.390312,-43.610855,-156.19624,-34.770535,-34.977394,-16.485723,164.99194
2502500000,-16.643988,23.978622,-33.151154,3.4791067,-35.693676,-10.632189,-32.338383,22.70429,-33.236092,3.3789451,-13.196543,-173.73375,-40.526489,3.9828362,-43.607887,-157.79492,-35.614643,-10.367987,-40.445518,3.779793,-15.245385,22.607639,-34.73764,-35.807232,-32.384068,22.522133,-43.488594,-157.66957,-34.825687,-35.717319,-16.469995,164.59117
2503000000,-16.609488,23.573389,-33.228207,2.3865726,-35.687836,-10.739819,-32.375725,21.87451,-33.31245,2.3304739,-13.155647,-173.87827,-40.756477,2.2167838,-43.471451,-159.18697,-35.604862,-10.482029,-40.67522,2.021461,-15.196511,22.09304,-34.796402,-36.470863,-32.423271,21.692516,-43.358864,-159.11926,-34.882713,-36.38942,-16.453642,164.1857
2503500000,-16.578758,23.140398,-33.29771,1.3152466,-35.670612,-10.793328,-32.417171,21.068577,-33.377525,1.2662561,-13.115328,-174.01616,-40.986496,0.48195133,-43.320023,-160.49577,-35.583027,-10.556332,-40.899235,0.25335735,-15.151319,21.594179,-34.842644,-37.008747,-32.466991,20.882034,-43.223316,-160.44278,-34.927505,-36.925369,-16.436859,163.77487
2504000000,-16.544781,22.705763,-33.364323,0.27593642,-35.628349,-10.790527,-32.456982,20.299417,-33.439747,0.25439134,-13.074662,-174.14725,-41.235313,-1.2280372,-43.160809,-161.68211,-35.541092,-10.563959,-41.144005,-1.4510541,-15.107135,21.113779,-34.870041,-37.546078,-32.506401,20.117769,-43.075142,-161.62291,-34.953152,-37.470028,-16.419706,163.33591
2504500000,-16.510288,22.279396,-33.414177,-0.7085411,-35.56361,-10.830799,-32.4935,19.599123,-33.484989,-0.72252035,-13.036231,-174.28917,-41.497021,-2.9941988,-42.959675,-162.75354,-35.468227,-10.642816,-41.403797,-3.2334952,-15.061519,20.650528,-34.882015,-38.065315,-32.54472,19.416018,-42.875202,-162.68617,-34.964828,-37.989754,-16.398493,162.90302
2505000000,-16.468786,21.84749,-33.449486,-1.7507567,-35.480148,-10.949832,-32.523438,18.954206,-33.514912,-1.7502688,-12.999604,-174.44316,-41.790905,-4.7643757,-42.698101,-163.91351,-35.383648,-10.807381,-41.693256,-5.016572,-15.015476,20.185982,-34.883316,-38.600925,-32.575089,18.77326,-42.617249,-163.78635,-34.965992,-38.537357,-16.377346,162.4304
2505500000,-16.424627,21.383863,-33.476776,-2.8372598,-35.372311,-11.171044,-32.543678,18.374245,-33.535549,-2.8358946,-12.963036,-174.57988,-42.112572,-6.5129042,-42.397942,-165.35866,-35.277889,-11.065571,-42.011696,-6.7893624,-14.96802,19.727093,-34.86515,-39.180531,-32.597572,18.188974,-42.324146,-165.23277,-34.949287,-39.137474,-16.353407,161.93985
2506000000,-16.380054,20.88765,-33.497559,-4.0168314,-35.253765,-11.589455,-32.55035,17.821693,-33.55011,-4.0332556,-12.927821,-174.72264,-42.460972,-8.2741709,-42.069572,-167.11407,-35.162983,-11.475881,-42.357483,-8.5871201,-14.921275,19.272455,-34.841759,-39.822853,-32.604992,17.60903,-41.991024,-166.97176,-34.9217,-39.779278,-16.328598,161.40651
2506500000,-16.334684,20.365511,-33.522312,-5.3138795,-35.136448,-12.137407,-32.545525,17.255959,-33.568043,-5.3505669,-12.893498,-174.87584,-42.862576,-10.023979,-41.726009,-169.31747,-35.045425,-12.033676,-42.754215,-10.380681,-14.874353,18.81904,-34.804165,-40.57819,-32.600819,17.04475,-41.650532,-169.15486,-34.886551,-40.522202,-16.303442,160.83507
2507000000,-16.295111,19.817085,-33.558041,-6.643867,-35.019077,-12.849828,-32.525185,16.64216,-33.597694,-6.7218876,-12.857928,-175.01285,-43.328892,-11.588385,-41.399101,-171.88997,-34.927715,-12.736749,-43.220142,-12.000587,-14.82664,18.371178,-34.764305,-41.426197,-32.582359,16.430721,-41.324894,-171.72884,-34.847767,-41.368874,-16.281919,160.21413
2507500000,-16.254232,19.270731,-33.603642,-8.004118,-34.910469,-13.703793,-32.497723,15.94195,-33.638836,-8.099865,-12.824316,-175.16536,-43.848747,-12.880471,-41.104118,-174.72885,-34.817314,-13.601657,-43.739319,-13.30154,-14.777567,17.934477,-34.731178,-42.372345,-32.554085,15.734999,-41.024525,-174.5775,-34.815056,-42.316101,-16.264416,159.56665
2508000000,-16.221151,18.699232,-33.652599,-9.3276701,-34.824085,-14.679254,-32.4729,15.173605,-33.685894,-9.4690418,-12.789937,-175.31532,-44.421474,-13.827113,-40.837444,-177.80461,-34.726166,-14.59101,-44.300205,-14.251809,-14.729583,17.500816,-34.704266,-43.386982,-32.528286,14.977041,-40.760715,-177.6216,-34.790222,-43.349155,-16.252247,158.90105
2508500000,-16.191647,18.130751,-33.705238,-10.639599,-34.750565,-15.666844,-32.453972,14.378751,-33.73679,-10.815183,-12.755237,-175.4581,-45.043015,-14.279109,-40.605339,179.02776,-34.653431,-15.587463,-44.914268,-14.762716,-14.677569,17.078371,-34.689022,-44.429642,-32.505497,14.1851,-40.527035,179.21431,-34.776035,-44.371098,-16.244751,158.22206
2509000000,-16.171995,17.549858,-33.760178,-11.959004,-34.688286,-16.670797,-32.4384,13.624262,-33.791077,-12.158891,-12.723259,-175.62602,-45.6856,-14.126419,-40.401321,175.77631,-34.59087,-16.604219,-45.548622,-14.685261,-14.624528,16.655073,-34.685265,-45.485283,-32.488438,13.416471,-40.325317,175.97343,-34.771832,-45.4193,-16.239435,157.54562
2509500000,-16.156572,16.986692,-33.817425,-13.285748,-34.633709,-17.669073,-32.420166,12.918807,-33.844997,-13.532578,-12.690327,-175.79263,-46.337929,-13.361321,-40.224346,172.51244,-34.535851,-17.611658,-46.209373,-14.041548,-14.570025,16.227779,-34.691299,-46.463623,-32.469231,12.706707,-40.149426,172.70628,-34.775181,-46.415977,-16.237583,156.86809
2510000000,-16.150114,16.438248,-33.878319,-14.629555,-34.585693,-18.669313,-32.387913,12.251268,-33.90752,-14.932843,-12.657495,-175.95245,-47.005684,-11.877159,-40.061874,169.22018,-34.48193,-18.645966,-46.877312,-12.747744,-14.513289,15.805215,-34.695889,-47.403587,-32.43676,12.023367,-39.991463,169.41771,-34.782135,-47.353355,-16.239935,156.17297
2510500000,-16.154568,15.899449,-33.949444,-15.975121,-34.544701,-19.744759,-32.341789,11.53537,-33.979836,-16.321068,-12.628036,-176.12621,-47.673733,-9.5469294,-39.914001,165.89273,-34.440266,-19.719791,-47.543579,-10.542789,-14.456397,15.361564,-34.698315,-48.255337,-32.390209,11.290583,-39.849659,166.10303,-34.780903,-48.222073,-16.244207,155.50798
2511000000,-16.161427,15.404213,-34.026108,-17.250441,-34.517311,-20.827814,-32.285603,10.741605,-34.062305,-17.627794,-12.599726,-176.28642,-48.259914,-5.9883146,-39.783638,162.52348,-34.410583,-20.8316,-48.162151,-7.2231011,-14.399227,14.903278,-34.686485,-49.0811,-32.338375,10.473377,-39.725723,162.78951,-34.767059,-49.043011,-16.253483,154.82906
2511500000,-16.169905,14.94115,-34.098484,-18.479288,-34.510345,-21.911755,-32.230991,9.8480215,-34.143169,-18.88208,-12.571835,-176.42691,-48.683807,-1.7005789,-39.672688,159.09885,-34.403561,-21.925816,-48.616104,-2.9428546,-14.343668,14.437005,-34.661854,-49.932274,-32.285954,9.5841618,-39.614063,159.36832,-34.742737,-49.922764,-16.26716,154.16936
2512000000,-16.182022,14.506036,-34.166737,-19.686398,-34.506985,-22.842264,-32.178181,8.9112816,-34.220425,-20.069691,-12.544094,-176.56996,-48.914604,3.055886,-39.590828,155.66821,-34.397884,-22.875637,-48.87035,1.7338271,-14.29318,13.95168,-34.633625,-50.887329,-32.234097,8.6387739,-39.530666,155.91893,-34.713783,-50.900024,-16.285309,153.52982
2512500000,-16.191072,14.086604,-34.227577,-20.923153,-34.515129,-23.770138,-32.129398,7.9677711,-34.288128,-21.299253,-12.517274,-176.70334,-48.95517,8.0099068,-39.52969,152.21298,-34.41153,-23.820091,-48.95742,6.6916566,-14.243099,13.483014,-34.609695,-51.844936,-32.188622,7.7019324,-39.475945,152.53,-34.688271,-51.87112,-16.305254,152.93074
2513000000,-16.199966,13.667119,-34.296535,-22.194834,-34.524044,-24.523397,-32.075909,7.007585,-34.362125,-22.548285,-12.488417,-176.81537,-48.752941,12.452181,-39.49329,148.8109,-34.420628,-24.587059,-48.789959,11.241754,-14.195106,13.01458,-34.580795,-52.835976,-32.137753,6.7539549,-39.440331,149.17473,-34.660805,-52.869228,-16.327229,152.35092
2513500000,-16.210064,13.248051,-34.370045,-23.473297,-34.518208,-25.193377,-32.017559,5.9947939,-34.439926,-23.813419,-12.458619,-176.92461,-48.379513,15.595399,-39.481689,145.51382,-34.413681,-25.248322,-48.454205,14.589657,-14.14856,12.552369,-34.555138,-53.828167,-32.080948,5.7573962,-39.423538,145.91826,-34.636276,-53.898911,-16.349739,151.80051
2514000000,-16.226719,12.816891,-34.446194,-24.72756,-34.489769,-25.868999,-31.960283,4.9048095,-34.522995,-25.035444,-12.426371,-177.0332,-47.965046,17.333,-39.478092,142.39458,-34.384972,-25.923052,-48.054756,16.458748,-14.100551,12.095443,-34.528423,-54.833984,-32.025101,4.6887789,-39.418602,142.81308,-34.610092,-54.93716,-16.373919,151.26053
2514500000,-16.24519,12.410219,-34.527409,-25.977959,-34.446587,-26.601126,-31.905651,3.7545683,-34.6049,-26.232763,-12.393145,-177.15224,-47.602036,17.866779,-39.47575,139.36719,-34.342659,-26.670588,-47.69392,17.179665,-14.05356,11.635789,-34.496754,-55.854935,-31.972485,3.5506904,-39.411705,139.79994,-34.582268,-55.982117,-16.39711,150.76601
2515000000,-16.266413,12.027703,-34.613583,-27.218851,-34.401043,-27.444407,-31.858105,2.546138,-34.691299,-27.422106,-12.359269,-177.27411,-47.312748,17.704708,-39.469151,136.44872,-34.29409,-27.504755,-47.404633,17.144855,-14.005669,11.182246,-34.462166,-56.910458,-31.923006,2.3548443,-39.398678,136.88194,-34.555767,-57.050579,-16.418686,150.2973
2515500000,-16.295317,11.664324,-34.694805,-28.422148,-34.353321,-28.357777,-31.817204,1.3150595,-34.769341,-28.594707,-12.324667,-177.40215,-47.093563,17.008884,-39.446053,133.59579,-34.246193,-28.437147,-47.186192,16.638777,-13.956654,10.72526,-34.425335,-57.944962,-31.882025,1.1230428,-39.374207,134.00665,-34.524521,-58.087257,-16.437637,149.85881
2516000000,-16.331163,11.332783,-34.779083,-29.678743,-34.315704,-29.322952,-31.782331,0.028212743,-34.854172,-29.84403,-12.287468,-177.53253,-46.962826,15.808775,-39.409431,130.60782,-34.201752,-29.443815,-47.043144,15.524345,-13.906565,10.256926,-34.373604,-59.041134,-31.847237,-0.13734765,-39.333321,130.99246,-34.481075,-59.159969,-16.455032,149.41623
2516500000,-16.373487,11.075162,-34.878937,-30.972179,-34.283276,-30.336266,-31.758465,-1.2688926,-34.951542,-31.116522,-12.250904,-177.68034,-46.954498,14.411345,-39.389797,127.50687,-34.166817,-30.473597,-47.033195,14.151789,-13.856854,9.7651501,-34.32275,-60.254742,-31.821024,-1.4189396,-39.31004,127.89023,-34.435661,-60.355999,-16.468504,149.03027
2517000000,-16.418242,10.889823,-34.992073,-32.124821,-34.245754,-31.383333,-31.742348,-2.5511973,-35.064987,-32.257099,-12.215777,-177.8524,-47.025379,13.047569,-39.387215,124.44836,-34.129051,-31.569145,-47.103016,12.78074,-13.810284,9.2600861,-34.280724,-61.547226,-31.804646,-2.6985848,-39.30817,124.79264,-34.395901,-61.637012,-16.478643,148.64395
2517500000,-16.468761,10.775867,-35.103832,-33.283916,-34.231014,-32.445045,-31.732082,-3.8633869,-35.178509,-33.391624,-12.179398,-178.02029,-47.249031,11.896711,-39.394371,121.39005,-34.115768,-32.655853,-47.343502,11.581294,-13.766293,8.7618771,-34.245224,-62.89534,-31.791677,-3.9838662,-39.322834,121.65662,-34.361034,-62.955208,-16.485144,148.25883
2518000000,-16.515989,10.752481,-35.215412,-34.310455,-34.207878,-33.478943,-31.734415,-5.1668339,-35.288639,-34.402824,-12.144635,-178.20781,-47.542362,11.317859,-39.411446,118.38934,-34.092999,-33.720097,-47.659237,11.06453,-13.725874,8.2674294,-34.22007,-64.25132,-31.792192,-5.2776861,-39.344204,118.60383,-34.337654,-64.270081,-16.486721,147.88777
2518500000,-16.559071,10.815559,-35.321285,-35.355743,-34.18354,-34.571339,-31.745653,-6.3905168,-35.391125,-35.399734,-12.110472,-178.39975,-47.870079,11.356605,-39.423893,115.39545,-34.073502,-34.825157,-47.987278,11.177502,-13.687543,7.7806554,-34.201332,-65.616241,-31.802258,-6.5059066,-39.361359,115.60843,-34.317177,-65.619186,-16.48303,147.49359
2519000000,-16.595602,10.936913,-35.428001,-36.363937,-34.169762,-35.720245,-31.761621,-7.5656528,-35.495358,-36.383224,-12.075462,-178.59128,-48.233093,11.790588,-39.437645,112.35843,-34.060345,-35.996803,-48.354958,11.722191,-13.652001,7.3147469,-34.186035,-66.985634,-31.816349,-7.6926355,-39.379574,112.5855,-34.297394,-66.941399,-16.474844,147.08725
2519500000,-16.620689,11.116202,-35.53664,-37.346512,-34.164154,-36.908516,-31.778183,-8.6662951,-35.598045,-37.337185,-12.04225,-178.79979,-48.61792,13.117916,-39.46748,109.24291,-34.05872,-37.200466,-48.750294,13.197722,-13.615902,6.8711476,-34.174267,-68.370689,-31.830545,-8.7896481,-39.406387,109.51617,-34.283169,-68.311661,-16.461962,146.66859
2520000000,-16.636822,11.313346,-35.645714,-38.345821,-34.177238,-38.087429,-31.784426,-9.7099581,-35.701664,-38.320141,-12.011909,-179.02724,-48.967915,15.114263,-39.52227,106.02133,-34.076801,-38.376564,-49.096355,15.444398,-13.580372,6.4473567,-34.165443,-69.780991,-31.8374,-9.8536406,-39.46463,106.3267,-34.272003,-69.712494,-16.447071,146.21803
2520500000,-16.641693,11.526702,-35.764004,-39.295017,-34.19627,-39.165504,-31.787615,-10.76872,-35.814648,-39.288128,-11.981365,-179.24568,-49.232334,17.658873,-39.611286,102.91786,-34.099972,-39.47403,-49.360718,18.224106,-13.543034,6.035954,-34.168251,-71.198174,-31.840628,-10.908664,-39.55521,103.27583,-34.273407,-71.119263,-16.429569,145.73827
2521000000,-16.640146,11.731955,-35.887314,-40.162495,-34.219887,-40.187923,-31.788389,-11.794597,-35.933365,-40.174335,-11.955759,-179.49324,-49.429668,20.74666,-39.72847,99.991165,-34.12875,-40.50457,-49.548595,21.429579,-13.503363,5.6236491,-34.176506,-72.553146,-31.840811,-11.948047,-39.669041,100.37583,-34.276978,-72.492142,-16.41214,145.23036
2521500000,-16.627043,11.933111,-36.014179,-40.999081,-34.240429,-41.119286,-31.782907,-12.815441,-36.055408,-40.989052,-11.930551,-179.73453,-49.531124,24.076597,-39.861946,97.299622,-34.151787,-41.453392,-49.631508,24.920242,-13.462525,5.1979203,-34.180641,-73.883957,-31.835052,-12.966776,-39.79961,97.680534,-34.27824,-73.821022,-16.397181,144.68507
2522000000,-16.608753,12.123671,-36.146233,-41.632534,-34.253666,-42.047363,-31.769831,-13.852503,-36.189098,-41.622215,-11.906619,-179.97986,-49.526268,27.6436,-39.992851,94.850426,-34.168751,-42.369324,-49.596592,28.654078,-13.421531,4.7671928,-34.182365,-75.214851,-31.821461,-14.010957,-39.925789,95.220505,-34.27808,-75.164665,-16.385445,144.10527
2522500000,-16.582386,12.316606,-36.249786,-42.081013,-34.260212,-42.949516,-31.749273,-14.92632,-36.289597,-42.102688,-11.885637,179.77142,-49.39822,30.943302,-40.112782,92.647682,-34.180363,-43.243008,-49.436516,32.037647,-13.382105,4.324152,-34.180573,-76.571594,-31.800373,-15.081558,-40.04826,92.963852,-34.274483,-76.528976,-16.377827,143.50833
2523000000,-16.544859,12.490079,-36.325562,-42.613735,-34.258411,-43.821671,-31.728466,-16.092569,-36.365231,-42.625275,-11.867063,179.51825,-49.187103,33.94059,-40.199341,90.647049,-34.181358,-44.105263,-49.195942,34.916176,-13.34367,3.8826048,-34.176025,-77.989235,-31.778559,-16.251951,-40.139977,90.908348,-34.271542,-77.964813,-16.374666,142.90706
2523500000,-16.500719,12.656325,-36.390675,-43.157597,-34.24831,-44.712261,-31.714977,-17.308138,-36.431599,-43.203327,-11.848694,179.28033,-48.926483,36.422039,-40.255592,88.674934,-34.174461,-44.964237,-48.91032,37.349087,-13.305971,3.4388578,-34.181923,-79.474213,-31.766756,-17.470308,-40.202503,88.924942,-34.275253,-79.445526,-16.376516,142.31581
2524000000,-16.450476,12.809993,-36.449009,-43.762314,-34.22961,-45.615635,-31.713091,-18.550323,-36.489128,-43.809883,-11.833992,179.03201,-48.620571,38.452503,-40.289978,86.612411,-34.153038,-45.850582,-48.60302,39.212524,-13.270469,2.9898803,-34.196976,-80.95713,-31.761108,-18.713987,-40.238087,86.900932,-34.287003,-80.961693,-16.382092,141.71745
2524500000,-16.395117,12.933583,-36.495819,-44.37141,-34.196712,-46.567844,-31.715754,-19.77132,-36.536575,-44.435596,-11.819182,178.7924,-48.331532,39.928543,-40.314705,84.537941,-34.119923,-46.801094,-48.29303,40.654476,-13.23467,2.5494957,-34.221764,-82.461868,-31.762091,-19.950085,-40.266819,84.765358,-34.311741,-82.456787,-16.392527,141.15182
2525000000,-16.324705,13.038124,-36.528748,-45.12043,-34.150528,-47.632893,-31.720995,-21.030401,-36.569187,-45.198898,-11.805575,178.5475,-48.101536,40.896305,-40.325912,82.38929,-34.075272,-47.842136,-48.065163,41.645229,-13.198637,2.1157031,-34.252792,-83.920715,-31.768511,-21.224651,-40.277252,82.625732,-34.343784,-83.956078,-16.406849,140.60225
2525500000,-16.250824,13.069125,-36.57526,-46.002335,-34.098579,-48.812141,-31.740837,-22.299625,-36.618393,-46.107464,-11.794136,178.31056,-47.933292,42.387539,-40.331203,80.092636,-34.022327,-49.000252,-47.884037,43.160362,-13.160974,1.6686786,-34.292267,-85.37851,-31.78931,-22.513016,-40.288074,80.359833,-34.383232,-85.419441,-16.422697,140.07617
2526000000,-16.172976,13.037238,-36.631229,-46.879459,-34.051731,-50.19215,-31.774855,-23.502295,-36.678001,-47.017902,-11.785217,178.06448,-47.735508,43.817219,-40.352276,77.785583,-33.974361,-50.391663,-47.667202,44.496471,-13.128129,1.213341,-34.335083,-86.767616,-31.825016,-23.720089,-40.311142,78.024277,-34.426723,-86.813751,-16.440712,139.58095
2526500000,-16.088137,12.946066,-36.693432,-47.824608,-34.017643,-51.656097,-31.816208,-24.651867,-36.746479,-47.997398,-11.778071,177.82283,-47.549202,45.441792,-40.390312,75.433952,-33.941227,-51.879295,-47.485573,46.061584,-13.097517,0.76857251,-34.378811,-88.161751,-31.868811,-24.868439,-40.348782,75.719376,-34.471371,-88.201965,-16.461098,139.09836
2527000000,-16.000406,12.774862,-36.779221,-48.782665,-33.996555,-53.258789,-31.864555,-25.697556,-36.839924,-48.958076,-11.772971,177.58156,-47.343639,47.440788,-40.436352,73.183388,-33.91927,-53.46212,-47.266239,47.95953,-13.068462,0.33475775,-34.421074,-89.545006,-31.919971,-25.91835,-40.394627,73.492126,-34.515842,-89.58342,-16.480873,138.65538
