!CSV A.01.01
!Keysight Technologies,N5222B,MY58422327,A.13.60.06
!Date: Monday, March 28, 2022 16:48:10
!Source: Standard

BEGIN CH1_DATA
Freq(Hz),S11(DB),S11(DEG),S12(DB),S12(DEG),S13(DB),S13(DEG),S14(DB),S14(DEG),S21(DB),S21(DEG),S22(DB),S22(DEG),S23(DB),S23(DEG),S24(DB),S24(DEG),S31(DB),S31(DEG),S32(DB),S32(DEG),S33(DB),S33(DEG),S34(DB),S34(DEG),S41(DB),S41(DEG),S42(DB),S42(DEG),S43(DB),S43(DEG),S44(DB),S44(DEG)
2500000000,-16.657759,25.522285,-32.703407,9.9772711,-35.045246,-10.625168,-32.03643,25.937313,-32.773029,10.132729,-13.405982,-173.08788,-39.432316,14.46519,-45.977184,-147.65298,-34.8699,-12.78708,-39.351009,14.491137,-15.51368,25.184711,-34.596684,-33.280254,-32.181602,25.988018,-45.76791,-149.01981,-34.685558,-33.209679,-16.486549,166.39828
2500500000,-16.642118,25.068989,-32.789993,8.592905,-35.096584,-11.382552,-32.091545,24.856535,-32.860172,8.7572575,-13.358584,-173.22911,-39.555828,12.408786,-45.794777,-148.77646,-34.948322,-13.591516,-39.484158,12.472538,-15.459909,24.697924,-34.643406,-34.162197,-32.225513,25.081816,-45.60804,-150.21463,-34.733013,-34.059578,-16.4764,166.03127
2501000000,-16.625519,24.634438,-32.886147,7.2632866,-35.152531,-12.019571,-32.14994,23.850685,-32.950657,7.4727583,-13.310307,-173.35593,-39.718155,10.336594,-45.600128,-150.03474,-35.030251,-14.297204,-39.655926,10.463405,-15.403647,24.199892,-34.689381,-35.103615,-32.266972,24.214228,-45.42601,-151.56613,-34.777748,-34.941734,-16.465641,165.65358
2501500000,-16.606472,24.221014,-32.973049,6.0307364,-35.212162,-12.457274,-32.203918,22.948399,-33.03363,6.2732635,-13.265196,-173.49579,-39.915699,8.3485231,-45.410782,-151.4993,-35.114689,-14.799779,-39.853115,8.5670681,-15.348616,23.687044,-34.747711,-35.97551,-32.298061,23.423626,-45.24876,-153.02614,-34.832314,-35.784939,-16.451931,165.27988
2502000000,-16.588648,23.787144,-33.051563,4.8460193,-35.26268,-12.728888,-32.25312,22.069408,-33.110973,5.1100731,-13.221705,-173.62823,-40.147911,6.4765968,-45.229996,-152.89381,-35.189064,-15.145122,-40.078735,6.7668715,-15.294935,23.16675,-34.806976,-36.844917,-32.321274,22.605593,-45.083286,-154.46886,-34.882656,-36.641388,-16.436056,164.89574
2502500000,-16.567461,23.358294,-33.128796,3.7035131,-35.289631,-12.942756,-32.301331,21.228399,-33.185856,3.993355,-13.177541,-173.75804,-40.388721,4.7885742,-45.054375,-154.27406,-35.245575,-15.422401,-40.314667,5.1159806,-15.245513,22.647146,-34.872524,-37.681278,-32.339691,21.767239,-44.911652,-155.75575,-34.939529,-37.440857,-16.419764,164.48421
2503000000,-16.545223,22.927755,-33.1954,2.6066458,-35.306477,-13.115682,-32.34185,20.417646,-33.245644,2.9106152,-13.136613,-173.90707,-40.646694,3.230325,-44.866558,-155.62344,-35.295631,-15.660373,-40.554951,3.5834866,-15.196916,22.13409,-34.942516,-38.415619,-32.351196,20.893074,-44.726913,-157.08755,-35.002102,-38.161179,-16.402603,164.06987
2503500000,-16.525629,22.479132,-33.251945,1.5134716,-35.316429,-13.188088,-32.382568,19.615734,-33.29562,1.8132504,-13.095812,-174.05048,-40.892689,1.7232271,-44.664986,-156.90431,-35.344707,-15.761589,-40.787453,2.061976,-15.152239,21.628927,-35.005226,-38.990334,-32.365036,19.992756,-44.532677,-158.31833,-35.053535,-38.757874,-16.385033,163.64967
2504000000,-16.502714,22.039072,-33.303558,0.42130426,-35.301331,-13.163383,-32.423595,18.830423,-33.339806,0.72510296,-13.055079,-174.19014,-41.154148,0.26287872,-44.452087,-158.06129,-35.373848,-15.736095,-41.035748,0.54742616,-15.108147,21.147293,-35.052555,-39.541794,-32.386269,19.044092,-44.322174,-159.55048,-35.092667,-39.321739,-16.366663,163.2003
2504500000,-16.477613,21.605862,-33.344257,-0.64842588,-35.25246,-13.129834,-32.465061,18.107248,-33.373329,-0.36992657,-13.016433,-174.34296,-41.423756,-1.2847475,-44.180759,-159.14981,-35.373398,-15.621411,-41.296425,-1.1236393,-15.063232,20.682219,-35.082127,-40.04295,-32.415409,18.116783,-44.070045,-160.78372,-35.114681,-39.865669,-16.344481,162.75198
2505000000,-16.446323,21.17614,-33.366135,-1.7981507,-35.18251,-13.158871,-32.499153,17.434834,-33.396683,-1.5579847,-12.980456,-174.50784,-41.723911,-2.8046632,-43.847607,-160.34479,-35.349342,-15.499331,-41.585766,-2.7489951,-15.017916,20.219925,-35.098644,-40.523846,-32.448624,17.229467,-43.763901,-162.02908,-35.127651,-40.420937,-16.32268,162.26176
2505500000,-16.412033,20.717819,-33.386414,-3.0016077,-35.08564,-13.300107,-32.530643,16.828983,-33.415943,-2.7811506,-12.944392,-174.65721,-42.059994,-4.3008509,-43.472767,-161.98727,-35.284039,-15.42066,-41.922539,-4.4150538,-14.970408,19.759043,-35.095135,-41.057674,-32.488171,16.412321,-43.420815,-163.63853,-35.121338,-40.996384,-16.298288,161.75284
2506000000,-16.375999,20.24337,-33.404369,-4.3397679,-34.971764,-13.601124,-32.551357,16.263008,-33.433304,-4.1037612,-12.910053,-174.81206,-42.41909,-5.7163777,-43.065105,-164.05147,-35.196152,-15.492002,-42.282078,-5.9881339,-14.923333,19.307404,-35.077641,-41.624165,-32.524975,15.668178,-43.048931,-165.56108,-35.105389,-41.638939,-16.272713,161.19504
2506500000,-16.338654,19.745436,-33.432182,-5.7904553,-34.852364,-14.066703,-32.554302,15.735988,-33.457401,-5.5490527,-12.877694,-174.97508,-42.821156,-7.0800385,-42.675163,-166.61037,-35.08905,-15.70127,-42.702862,-7.5033035,-14.875561,18.85214,-35.053692,-42.274334,-32.554794,15.022199,-42.679867,-167.96339,-35.079834,-42.360313,-16.248152,160.60349
2507000000,-16.305113,19.225159,-33.47625,-7.2815557,-34.726097,-14.732015,-32.538712,15.193384,-33.493847,-7.011735,-12.844361,-175.1181,-43.283905,-8.1965246,-42.307125,-169.56007,-34.969772,-16.124611,-43.185623,-8.7217379,-14.827181,18.400972,-35.026264,-43.032963,-32.571388,14.399272,-42.320728,-170.75952,-35.05233,-43.16753,-16.227499,159.96104
2507500000,-16.268652,18.700817,-33.535145,-8.7905579,-34.611469,-15.600231,-32.515694,14.555002,-33.539913,-8.5190144,-12.812368,-175.27277,-43.795681,-8.9854889,-41.982559,-172.81625,-34.854675,-16.778822,-43.721825,-9.5056648,-14.777641,17.955906,-34.996098,-43.863914,-32.577309,13.758657,-42.006439,-173.84666,-35.027763,-44.051651,-16.211931,159.29282
2508000000,-16.239279,18.144823,-33.608421,-10.257474,-34.513988,-16.584227,-32.492493,13.835445,-33.597202,-10.02223,-12.779951,-175.42247,-44.333199,-9.269475,-41.699768,-176.24513,-34.751209,-17.612368,-44.28722,-9.7919788,-14.729599,17.515045,-34.973347,-44.791756,-32.577267,13.088907,-41.719406,-177.08818,-35.013603,-45.007145,-16.201696,158.60898
2508500000,-16.21492,17.585159,-33.686874,-11.643184,-34.437683,-17.627602,-32.472103,13.081203,-33.66621,-11.495646,-12.746614,-175.5657,-44.892872,-8.9707413,-41.453537,-179.75851,-34.673244,-18.52607,-44.868164,-9.5655212,-14.677696,17.0865,-34.962578,-45.731838,-32.578598,12.432893,-41.468945,179.55997,-35.006832,-45.985615,-16.196764,157.9126
2509000000,-16.199772,17.012878,-33.771198,-13.00848,-34.377388,-18.702019,-32.452412,12.338627,-33.742542,-12.953781,-12.71631,-175.73051,-45.43755,-8.1725674,-41.241451,176.72301,-34.60862,-19.465765,-45.437347,-8.7222214,-14.626191,16.654037,-34.957207,-46.68285,-32.57262,11.822202,-41.244812,176.14929,-35.013065,-46.936947,-16.194357,157.22266
2509500000,-16.189854,16.458206,-33.853722,-14.307335,-34.326683,-19.778252,-32.431442,11.640094,-33.823059,-14.380774,-12.684355,-175.8911,-45.958321,-6.8887353,-41.057777,173.21208,-34.5588,-20.414356,-45.982655,-7.2972975,-14.572796,16.221521,-34.958828,-47.564617,-32.55978,11.263657,-41.047073,172.70737,-35.023937,-47.836372,-16.195522,156.53029
2510000000,-16.189739,15.917132,-33.939655,-15.590466,-34.285976,-20.836205,-32.393654,10.960364,-33.909603,-15.815162,-12.652575,-176.04362,-46.457653,-5.0605459,-40.886955,169.71091,-34.515083,-21.380619,-46.502304,-5.3615208,-14.518131,15.792772,-34.959541,-48.386971,-32.524826,10.723757,-40.864685,169.25899,-35.031513,-48.651962,-16.201223,155.82686
2510500000,-16.201143,15.392896,-34.033688,-16.853537,-34.252293,-21.919846,-32.344448,10.216899,-34.009258,-17.194767,-12.6233,-176.21161,-46.934143,-2.711988,-40.730053,166.16672,-34.482632,-22.35705,-46.997395,-2.797508,-14.463499,15.344491,-34.947906,-49.135685,-32.470966,10.12959,-40.697533,165.73953,-35.030434,-49.393021,-16.208553,155.15427
2511000000,-16.214617,14.915995,-34.12912,-18.029694,-34.231308,-23.020937,-32.290779,9.3750172,-34.116676,-18.476784,-12.594748,-176.3671,-47.323742,0.50125426,-40.584702,162.59541,-34.459442,-23.321489,-47.396278,0.62484616,-14.408534,14.886961,-34.926598,-49.904587,-32.404758,9.4137754,-40.547455,162.17284,-35.009312,-50.105801,-16.221418,154.4758
2511500000,-16.230406,14.476131,-34.214882,-19.111977,-34.224545,-24.105999,-32.239101,8.4459581,-34.220589,-19.645319,-12.566414,-176.50774,-47.568161,4.1710348,-40.45956,158.89816,-34.449867,-24.286566,-47.641254,4.5547853,-14.355781,14.421453,-34.889,-50.730328,-32.336693,8.5968409,-40.414532,158.54599,-34.974422,-50.890141,-16.23908,153.81819
2512000000,-16.249697,14.073625,-34.288712,-20.179729,-34.223236,-25.080029,-32.192177,7.4611869,-34.31218,-20.774448,-12.538713,-176.65417,-47.68119,7.8975701,-40.368099,155.21411,-34.44117,-25.109825,-47.730911,8.5754023,-14.307755,13.946698,-34.84993,-51.669495,-32.267876,7.6691108,-40.317272,154.89395,-34.93573,-51.78577,-16.260933,153.18665
2512500000,-16.267208,13.692634,-34.348019,-21.318268,-34.234291,-26.056149,-32.153248,6.4761081,-34.392452,-21.903017,-12.511956,-176.79117,-47.644382,11.66851,-40.299255,151.54703,-34.44511,-25.932484,-47.66869,12.436037,-14.260239,13.490693,-34.812366,-52.609322,-32.206402,6.7106943,-40.241192,151.2202,-34.897377,-52.706268,-16.283581,152.59781
2513000000,-16.283894,13.325932,-34.412235,-22.51918,-34.246895,-26.887348,-32.108212,5.5014253,-34.477936,-23.06027,-12.484071,-176.90866,-47.422047,14.947219,-40.253979,147.92915,-34.448158,-26.611874,-47.423889,15.642142,-14.2138,13.043306,-34.772659,-53.623169,-32.138515,5.6972356,-40.192173,147.57954,-34.855293,-53.673046,-16.306957,152.03366
2513500000,-16.301367,12.974395,-34.483913,-23.75918,-34.247879,-27.611639,-32.060711,4.4650316,-34.567131,-24.251617,-12.455391,-177.0183,-47.093868,17.069996,-40.236561,144.42299,-34.432709,-27.214506,-47.089092,17.80168,-14.16764,12.600269,-34.739418,-54.648529,-32.070808,4.5893874,-40.171425,144.03008,-34.81654,-54.704857,-16.3302,151.49831
2514000000,-16.322718,12.625141,-34.56229,-24.968224,-34.230507,-28.306086,-32.011963,3.3692391,-34.659588,-25.389585,-12.423866,-177.12621,-46.753513,18.116207,-40.227676,141.12497,-34.397686,-27.798887,-46.74099,18.846762,-14.119877,12.162405,-34.704788,-55.706852,-32.00996,3.3830867,-40.166267,140.62737,-34.781811,-55.764191,-16.35387,150.96655
2514500000,-16.343605,12.3128,-34.642174,-26.172096,-34.198978,-29.056555,-31.970472,2.2112594,-34.752335,-26.509747,-12.39096,-177.24141,-46.442619,18.306412,-40.222736,137.89534,-34.344284,-28.485029,-46.432697,19.073145,-14.072909,11.724572,-34.676491,-56.755474,-31.95834,2.1116555,-40.166267,137.38577,-34.748074,-56.817249,-16.377247,150.47603
2515000000,-16.364758,12.01517,-34.729469,-27.339725,-34.160091,-29.86795,-31.934076,1.0205822,-34.846951,-27.595345,-12.357582,-177.36124,-46.197868,17.965847,-40.216267,134.75439,-34.285995,-29.271254,-46.189999,18.804121,-14.023553,11.28793,-34.645893,-57.785492,-31.921503,0.79717082,-40.171219,134.26028,-34.716541,-57.892445,-16.399084,150.00754
2515500000,-16.390978,11.740244,-34.809608,-28.47304,-34.120663,-30.766344,-31.903437,-0.20481221,-34.933598,-28.629559,-12.323392,-177.49046,-46.005638,17.160238,-40.198486,131.67812,-34.228367,-30.168646,-45.990734,18.030426,-13.972923,10.844422,-34.612297,-58.784859,-31.89329,-0.52994913,-40.157726,131.21698,-34.682705,-58.937279,-16.419241,149.57153
2516000000,-16.422998,11.494909,-34.88929,-29.675444,-34.082756,-31.7279,-31.8832,-1.4327805,-35.014721,-29.694798,-12.28698,-177.62192,-45.89867,15.826134,-40.166161,128.51973,-34.178356,-31.130243,-45.864094,16.779955,-13.920728,10.384507,-34.558167,-59.803299,-31.876253,-1.8628415,-40.132675,128.10909,-34.634998,-59.988205,-16.438148,149.13504
2516500000,-16.457787,11.319215,-34.98122,-30.912497,-34.052788,-32.731453,-31.868999,-2.6710134,-35.102913,-30.822056,-12.250937,-177.76967,-45.884384,14.448306,-40.154793,125.21635,-34.135269,-32.12373,-45.843254,15.355054,-13.869596,9.9007483,-34.501236,-60.956276,-31.866459,-3.1716876,-40.121647,124.89159,-34.57972,-61.150192,-16.452438,148.75769
2517000000,-16.492527,11.205887,-35.085133,-32.022774,-34.015388,-33.77924,-31.860548,-3.9024141,-35.199596,-31.854681,-12.216974,-177.94086,-45.948761,12.977053,-40.161652,121.99971,-34.088032,-33.180313,-45.883549,13.900574,-13.820883,9.4002943,-34.443657,-62.231201,-31.863653,-4.4887228,-40.130566,121.78196,-34.527592,-62.427105,-16.463491,148.38138
2517500000,-16.530815,11.151327,-35.188488,-33.163635,-34.001842,-34.85667,-31.857786,-5.1425095,-35.291916,-32.912365,-12.181664,-178.1031,-46.155106,11.663955,-40.182621,118.75154,-34.067989,-34.235714,-46.0742,12.592561,-13.775028,8.9023829,-34.395851,-63.570107,-31.867567,-5.8200369,-40.145119,118.63853,-34.483364,-63.763397,-16.469294,148.01057
2518000000,-16.563465,11.171612,-35.292904,-34.215149,-33.982841,-35.892021,-31.86754,-6.3707151,-35.380474,-33.932228,-12.147238,-178.28336,-46.421024,10.889471,-40.214272,115.64175,-34.038937,-35.270142,-46.337776,11.82823,-13.7326,8.4032173,-34.356945,-64.951324,-31.887903,-7.1385713,-40.171898,115.63232,-34.447941,-65.16864,-16.470427,147.64757
2518500000,-16.592512,11.250981,-35.395878,-35.293858,-33.955189,-36.967724,-31.886152,-7.5278597,-35.471222,-34.993282,-12.113138,-178.47169,-46.71228,10.703817,-40.238213,112.61158,-34.00703,-36.330135,-46.621899,11.585137,-13.693279,7.9135385,-34.326866,-66.352226,-31.92124,-8.3664312,-40.188957,112.66814,-34.425701,-66.543182,-16.465862,147.26111
2519000000,-16.613268,11.369324,-35.507809,-36.34034,-33.935871,-38.139446,-31.907352,-8.6107512,-35.563374,-36.05777,-12.078717,-178.66641,-47.04113,10.877103,-40.263397,109.53803,-33.979652,-37.477158,-46.940933,11.738861,-13.656902,7.4441781,-34.304199,-67.777626,-31.959747,-9.5045576,-40.201809,109.66153,-34.407082,-67.93261,-16.455597,146.85577
2519500000,-16.624063,11.515947,-35.619034,-37.355968,-33.926804,-39.359245,-31.926592,-9.6010933,-35.666683,-37.143269,-12.046537,-178.87653,-47.387451,11.835095,-40.298912,106.41246,-33.962589,-38.688408,-47.286705,12.622814,-13.62099,6.9923949,-34.284634,-69.2192,-32.000118,-10.523145,-40.22533,106.58055,-34.390034,-69.324997,-16.441051,146.4328
2520000000,-16.628113,11.666851,-35.735405,-38.36372,-33.933098,-40.584202,-31.933302,-10.538705,-35.773903,-38.210468,-12.01687,-179.10062,-47.663048,13.406019,-40.364288,103.26686,-33.961987,-39.901905,-47.586086,14.039162,-13.585866,6.5684657,-34.271545,-70.689507,-32.030479,-11.454303,-40.269012,103.40866,-34.376198,-70.750702,-16.424437,145.9762
2520500000,-16.623966,11.815157,-35.86504,-39.323009,-33.949356,-41.765839,-31.930403,-11.488936,-35.901108,-39.25388,-11.986853,-179.31703,-47.896126,15.113238,-40.458488,100.2271,-33.973675,-41.050728,-47.834167,15.813121,-13.548591,6.1573095,-34.273338,-72.15316,-32.050247,-12.34622,-40.344902,100.33227,-34.376873,-72.203102,-16.406771,145.48502
2521000000,-16.61569,11.948623,-35.999924,-40.14669,-33.973869,-42.915779,-31.923788,-12.408401,-36.03537,-40.164009,-11.961637,-179.56055,-48.071892,17.14197,-40.563122,97.337593,-33.987526,-42.158428,-48.029999,18.028086,-13.508817,5.7509861,-34.283363,-73.55938,-32.062237,-13.201267,-40.443562,97.381317,-34.382301,-73.596779,-16.38916,144.96307
2521500000,-16.599989,12.075912,-36.135311,-40.906391,-34.003078,-43.977787,-31.903578,-13.338449,-36.174107,-40.98093,-11.936632,-179.79881,-48.219841,19.314148,-40.688335,94.639198,-34.006897,-43.164532,-48.175213,20.434057,-13.468572,5.3298135,-34.287045,-74.926414,-32.057709,-14.029764,-40.559242,94.63562,-34.387474,-74.935555,-16.374407,144.40504
2522000000,-16.580347,12.201351,-36.275105,-41.449268,-34.029701,-45.004162,-31.875196,-14.305513,-36.31929,-41.598152,-11.913293,179.95944,-48.298107,21.786043,-40.799774,92.211754,-34.021126,-44.142365,-48.239849,23.134216,-13.426739,4.9093199,-34.290398,-76.271629,-32.039783,-14.889277,-40.673473,92.160057,-34.387833,-76.279556,-16.364199,143.8109
2522500000,-16.555132,12.333533,-36.380634,-41.848858,-34.054401,-45.982262,-31.836952,-15.35274,-36.435272,-42.047482,-11.892358,179.7135,-48.315414,24.2526,-40.909985,90.005119,-34.025211,-45.076309,-48.211056,25.751961,-13.386546,4.4712691,-34.286572,-77.629883,-32.011322,-15.827582,-40.782734,89.891273,-34.384151,-77.624008,-16.358465,143.20314
2523000000,-16.520134,12.460237,-36.461941,-42.296345,-34.073383,-46.886131,-31.798685,-16.522297,-36.525681,-42.547691,-11.873628,179.46208,-48.267921,26.698944,-40.987583,87.98848,-34.021866,-45.950558,-48.118633,28.098114,-13.346549,4.0324016,-34.279224,-79.047035,-31.98,-16.87995,-40.864155,87.875229,-34.37513,-79.037659,-16.35668,142.58937
2523500000,-16.479689,12.579954,-36.536827,-42.754612,-34.082336,-47.768997,-31.769447,-17.761751,-36.611038,-43.012032,-11.855142,179.22078,-48.183823,28.96126,-41.031597,86.012321,-34.00658,-46.867596,-47.993412,30.101412,-13.307697,3.5885386,-34.275463,-80.556587,-31.956495,-18.003487,-40.904106,85.885658,-34.371925,-80.522041,-16.360796,141.99121
2524000000,-16.43297,12.695812,-36.599659,-43.223824,-34.07589,-48.632538,-31.751505,-19.051569,-36.686562,-43.519157,-11.840832,178.97308,-48.050987,31.063128,-41.054947,84.026306,-33.977856,-47.799694,-47.839497,32.031219,-13.271754,3.1400082,-34.283165,-82.067238,-31.939602,-19.155476,-40.919666,83.836105,-34.376141,-82.043983,-16.36977,141.39185
2524500000,-16.380812,12.795673,-36.644165,-43.681355,-34.053905,-49.545597,-31.742193,-20.361944,-36.74984,-44.012249,-11.826413,178.73116,-47.904202,32.825108,-41.069138,81.97142,-33.934624,-48.776901,-47.683231,33.638557,-13.234507,2.6999171,-34.298862,-83.632278,-31.927307,-20.311457,-40.925602,81.708,-34.390083,-83.576378,-16.382593,140.82582
2525000000,-16.314034,12.876255,-36.671436,-44.279045,-34.016354,-50.55592,-31.73975,-21.710743,-36.797077,-44.600357,-11.814095,178.48846,-47.771984,34.395985,-41.063812,79.925789,-33.877384,-49.905937,-47.554142,35.020267,-13.198666,2.2637534,-34.325256,-85.183395,-31.91852,-21.519114,-40.916866,79.552765,-34.416824,-85.117729,-16.399429,140.28239
2525500000,-16.243517,12.885076,-36.709953,-45.012604,-33.969078,-51.675571,-31.755276,-23.086523,-36.855125,-45.307983,-11.803573,178.2552,-47.651009,36.422832,-41.048214,77.730484,-33.811943,-51.137981,-47.446468,37.006557,-13.160406,1.8197912,-34.363194,-86.718048,-31.921818,-22.752419,-40.90324,77.230865,-34.452534,-86.645798,-16.417957,139.76192
2526000000,-16.168264,12.830622,-36.746693,-45.744766,-33.92429,-53.031212,-31.788126,-24.390007,-36.921425,-45.951591,-11.795526,178.01463,-47.479069,38.309242,-41.037315,75.474281,-33.74939,-52.615307,-47.274338,38.942364,-13.127065,1.3625944,-34.407837,-88.186218,-31.937347,-23.953794,-40.899406,74.857368,-34.493599,-88.113174,-16.438589,139.28482
2526500000,-16.086765,12.715344,-36.789501,-46.574238,-33.890514,-54.484283,-31.831907,-25.657799,-36.986542,-46.625431,-11.789036,177.78204,-47.31007,40.369728,-41.037766,73.160919,-33.700191,-54.21151,-47.096268,40.844177,-13.096038,0.91942573,-34.455078,-89.651779,-31.958197,-25.137463,-40.909588,72.506454,-34.533653,-89.54483,-16.459959,138.81351
2527000000,-16.003435,12.521816,-36.850254,-47.435184,-33.867661,-56.057102,-31.887875,-26.802507,-37.064083,-47.267895,-11.784565,177.55225,-47.095581,42.648228,-41.040501,70.952454,-33.666317,-55.966267,-46.879589,42.96339,-13.066491,0.49020347,-34.503906,-91.092339,-31.989754,-26.253183,-40.933502,70.20533,-34.576305,-90.987801,-16.480453,138.38651
