!CSV A.01.01
!Keysight Technologies,N5222B,MY58422327,A.13.60.06
!Date: Monday, March 28, 2022 16:24:55
!Source: Standard

BEGIN CH1_DATA
Freq(Hz),S11(DB),S11(DEG),S12(DB),S12(DEG),S13(DB),S13(DEG),S14(DB),S14(DEG),S21(DB),S21(DEG),S22(DB),S22(DEG),S23(DB),S23(DEG),S24(DB),S24(DEG),S31(DB),S31(DEG),S32(DB),S32(DEG),S33(DB),S33(DEG),S34(DB),S34(DEG),S41(DB),S41(DEG),S42(DB),S42(DEG),S43(DB),S43(DEG),S44(DB),S44(DEG)
2500000000,-16.975176,25.51152,-34.600605,37.182934,-32.13026,22.116282,-34.69688,6.3643818,-34.710068,37.530457,-13.09092,-174.18863,-38.52486,19.7805,-40.633999,-80.490082,-32.14175,22.071251,-38.505829,19.607405,-15.686304,27.929541,-36.350208,-33.429359,-34.736599,5.6190596,-40.623257,-79.827904,-36.438133,-33.757133,-16.364815,164.15103
2500500000,-16.959549,25.168951,-34.684551,36.05545,-32.070961,21.094126,-34.797962,5.3411212,-34.786919,36.430454,-13.051111,-174.36488,-38.621075,18.243578,-40.592915,-82.900154,-32.078014,21.029093,-38.608974,18.138872,-15.627535,27.365318,-36.398773,-34.087879,-34.846661,4.5757918,-40.584206,-82.22242,-36.498055,-34.435307,-16.358957,163.78043
2501000000,-16.939413,24.829573,-34.77298,34.97802,-32.017242,20.103041,-34.907494,4.4860797,-34.868259,35.32349,-13.009945,-174.52533,-38.7258,16.660362,-40.570457,-85.363724,-32.021374,19.983089,-38.72155,16.641609,-15.568176,26.789875,-36.441242,-34.848946,-34.963516,3.7084184,-40.56567,-84.670181,-36.545208,-35.215473,-16.352674,163.40768
2501500000,-16.914602,24.516361,-34.844662,33.949234,-31.969519,19.142698,-35.01749,3.8045669,-34.932419,34.261112,-12.971101,-174.69836,-38.84547,15.134349,-40.565327,-87.797218,-31.969688,19.01453,-38.84745,15.188112,-15.511203,26.20429,-36.491634,-35.651543,-35.087757,3.0392311,-40.56366,-87.053337,-36.602295,-36.005718,-16.343611,163.04189
2502000000,-16.889095,24.170347,-34.906376,32.851639,-31.919735,18.243587,-35.112988,3.2529879,-34.989372,33.18623,-12.93385,-174.86882,-38.976318,13.60328,-40.566448,-90.137459,-31.916845,18.073179,-38.980099,13.76907,-15.457623,25.615425,-36.544121,-36.526031,-35.193855,2.5032251,-40.574394,-89.34201,-36.660156,-36.867241,-16.332575,162.66672
2502500000,-16.858469,23.807619,-34.969837,31.750465,-31.870388,17.305347,-35.193501,2.7758491,-35.044548,32.10659,-12.896422,-175.03903,-39.113262,12.094061,-40.563328,-92.385025,-31.868729,17.130505,-39.112873,12.393546,-15.409231,25.029594,-36.614807,-37.446285,-35.285374,2.0661092,-40.570328,-91.530602,-36.739861,-37.754482,-16.320147,162.27081
2503000000,-16.826403,23.420692,-35.025982,30.610723,-31.825691,16.411396,-35.253536,2.3633311,-35.08897,31.009411,-12.862474,-175.2291,-39.25803,10.5945,-40.550812,-94.642593,-31.82218,16.211039,-39.24958,10.958046,-15.363934,24.45829,-36.703602,-38.266491,-35.358997,1.6861447,-40.555885,-93.749397,-36.835224,-38.572033,-16.306103,161.87027
2503500000,-16.799767,23.002802,-35.076042,29.429399,-31.78043,15.582104,-35.301357,1.9366865,-35.129272,29.813854,-12.829835,-175.41187,-39.398117,9.0377054,-40.517036,-96.859085,-31.777348,15.347473,-39.382187,9.4883204,-15.322494,23.910479,-36.801056,-38.944283,-35.417061,1.3190731,-40.519646,-95.925095,-36.943855,-39.179638,-16.291069,161.45757
2504000000,-16.77157,22.584358,-35.135704,28.206903,-31.723713,14.799096,-35.33984,1.4669744,-35.172344,28.620251,-12.797453,-175.58736,-39.552708,7.3613234,-40.45948,-99.134186,-31.722122,14.560652,-39.527142,7.9367089,-15.282851,23.395573,-36.892296,-39.463375,-35.461178,0.93829066,-40.459637,-98.170197,-37.038311,-39.658264,-16.274977,161.00484
2504500000,-16.743542,22.171829,-35.194378,26.98015,-31.655714,13.999245,-35.37534,0.98202848,-35.215351,27.381386,-12.767857,-175.77298,-39.730312,5.5279384,-40.380821,-101.59521,-31.656443,13.761479,-39.694599,6.1936102,-15.242128,22.914881,-36.972893,-39.849129,-35.499687,0.56624746,-40.374489,-100.5958,-37.120388,-39.987743,-16.255793,160.54581
2505000000,-16.712015,21.769197,-35.252502,25.665552,-31.580343,13.161691,-35.401043,0.5320912,-35.25985,26.030046,-12.740581,-175.96375,-39.948769,3.7144461,-40.278519,-104.31734,-31.581556,12.922861,-39.899548,4.4266334,-15.199824,22.444019,-37.03706,-40.114471,-35.524052,0.19936252,-40.265995,-103.30875,-37.188148,-40.17371,-16.238316,160.04305
2505500000,-16.678513,21.35284,-35.319855,24.355322,-31.495392,12.256783,-35.431072,0.03266377,-35.314648,24.680956,-12.714109,-176.13412,-40.209457,1.8220042,-40.186794,-107.35966,-31.495832,12.017532,-40.150944,2.6271822,-15.155066,21.984529,-37.071785,-40.325275,-35.54673,-0.22955319,-40.166965,-106.40598,-37.218956,-40.303066,-16.219717,159.51453
2506000000,-16.643583,20.92487,-35.397171,22.996319,-31.408579,11.267159,-35.459309,-0.42192733,-35.376625,23.255556,-12.689489,-176.30421,-40.512718,-0.035115488,-40.107235,-110.75106,-31.407497,11.033637,-40.44138,0.84484261,-15.109913,21.535141,-37.083809,-40.553696,-35.565941,-0.66140831,-40.087215,-109.83955,-37.224617,-40.443161,-16.201847,158.9481
2506500000,-16.608253,20.490751,-35.491459,21.618088,-31.324762,10.199867,-35.485767,-0.82362026,-35.45842,21.80114,-12.666425,-176.47777,-40.877953,-1.8009378,-40.058353,-114.45308,-31.322718,9.9681854,-40.793343,-0.85905701,-15.063085,21.091856,-37.06926,-40.848377,-35.579353,-1.0274026,-40.047878,-113.5573,-37.199429,-40.646198,-16.186382,158.35161
2507000000,-16.575869,20.051601,-35.602985,20.350567,-31.244036,9.0669985,-35.485115,-1.174288,-35.555977,20.426445,-12.642591,-176.62523,-41.307156,-3.3286486,-40.053581,-118.30449,-31.23863,8.8299704,-41.204254,-2.2957921,-15.014183,20.658321,-37.040188,-41.2159,-35.574741,-1.3889731,-40.051266,-117.46536,-37.155018,-41.000275,-16.174749,157.72554
2507500000,-16.538294,19.629282,-35.717491,19.164328,-31.171663,7.8522577,-35.47723,-1.6296359,-35.661469,19.130766,-12.619664,-176.77489,-41.802166,-4.4124789,-40.097622,-122.34965,-31.164158,7.610692,-41.669369,-3.3220191,-14.96349,20.227041,-37.003902,-41.727715,-35.558338,-1.8568623,-40.101543,-121.49878,-37.103119,-41.474655,-16.167597,157.07759
2508000000,-16.505283,19.190107,-35.833664,18.043497,-31.109859,6.6115699,-35.469345,-2.1647921,-35.769588,17.893696,-12.595061,-176.91232,-42.33239,-5.0061383,-40.190945,-126.44549,-31.098316,6.3544865,-42.180004,-3.8539715,-14.911933,19.801382,-36.962193,-42.345608,-35.547913,-2.4207022,-40.201736,-125.59348,-37.047523,-42.143448,-16.165205,156.42438
2508500000,-16.472736,18.741611,-35.947224,16.987371,-31.05616,5.3545089,-35.471592,-2.7160084,-35.87944,16.724806,-12.568661,-177.03758,-42.897621,-4.9392037,-40.324612,-130.52319,-31.042202,5.0775013,-42.71315,-3.7275629,-14.856447,19.385433,-36.930351,-43.065994,-35.546421,-2.9842925,-40.345306,-129.68649,-37.005085,-42.921585,-16.166931,155.76408
2509000000,-16.446404,18.277613,-36.059216,15.956739,-31.00905,4.0999007,-35.477215,-3.2160401,-35.992306,15.585513,-12.543853,-177.18132,-43.478611,-4.1087408,-40.503098,-134.53822,-30.993427,3.7855496,-43.249317,-2.9179068,-14.80066,18.963594,-36.911327,-43.825867,-35.550495,-3.4939094,-40.525593,-133.69469,-36.976372,-43.719547,-16.170504,155.11716
2509500000,-16.42293,17.817671,-36.177441,14.97156,-30.964394,2.8374839,-35.482605,-3.6423213,-36.107063,14.477671,-12.516516,-177.3231,-44.020607,-2.4643002,-40.71014,-138.48428,-30.950726,2.4887033,-43.747219,-1.3535074,-14.741711,18.537552,-36.896286,-44.544701,-35.554329,-3.9431169,-40.736633,-137.6138,-36.957237,-44.454468,-16.176939,154.46962
2510000000,-16.406832,17.360775,-36.297615,14.023206,-30.922871,1.535121,-35.480247,-3.9601688,-36.232132,13.406216,-12.487326,-177.45827,-44.504448,-0.091989025,-40.938858,-142.33347,-30.911974,1.1566947,-44.177868,0.87090796,-14.681171,18.108614,-36.88269,-45.178734,-35.552902,-4.2635503,-40.969856,-141.46146,-36.936081,-45.142891,-16.186884,153.81688
2510500000,-16.401281,16.896053,-36.425064,13.183004,-30.889545,0.18012698,-35.454697,-4.2237182,-36.364639,12.428337,-12.459914,-177.61485,-44.879482,3.0199208,-41.184437,-146.19888,-30.881304,-0.20948403,-44.517193,3.7068832,-14.62047,17.662151,-36.861172,-45.804218,-35.527184,-4.5439358,-41.22324,-145.34291,-36.910233,-45.798485,-16.198057,153.19882
2511000000,-16.398546,16.460012,-36.553181,12.494746,-30.868498,-1.2105765,-35.40868,-4.5072188,-36.498013,11.59563,-12.432307,-177.7643,-45.105598,6.6326394,-41.455761,-150.04416,-30.864149,-1.6008772,-44.717678,6.9992776,-14.558414,17.203436,-36.822929,-46.370308,-35.485161,-4.8216486,-41.507652,-149.20258,-36.867085,-46.430969,-16.212114,152.57707
2511500000,-16.399021,16.053299,-36.662056,11.944978,-30.861315,-2.5897887,-35.351265,-4.8272257,-36.622124,10.917764,-12.404278,-177.90308,-45.163113,10.269232,-41.761589,-153.89557,-30.86062,-2.975951,-44.763374,10.280948,-14.496775,16.727375,-36.766907,-46.995125,-35.42247,-5.1394286,-41.825104,-153.05612,-36.812046,-47.139103,-16.229416,151.97366
2512000000,-16.403076,15.671854,-36.746735,11.457964,-30.8619,-3.9252102,-35.269497,-5.2145996,-36.726376,10.310521,-12.376558,-178.05672,-45.073135,13.570467,-42.102482,-157.62996,-30.8636,-4.2882457,-44.67873,13.305013,-14.441101,16.225805,-36.704216,-47.792336,-35.343967,-5.5257921,-42.177952,-156.70467,-36.750408,-47.989685,-16.249651,151.39172
2512500000,-16.405973,15.307293,-36.810066,10.895021,-30.878546,-5.239543,-35.178608,-5.6469746,-36.812778,9.6666813,-12.349322,-178.20975,-44.872665,16.547718,-42.475094,-161.28612,-30.883127,-5.5829935,-44.502201,15.972433,-14.384466,15.733013,-36.647533,-48.557911,-35.255352,-5.9184279,-42.555607,-160.28957,-36.699272,-48.812473,-16.269171,150.84326
2513000000,-16.40789,14.944521,-36.864239,10.311728,-30.895937,-6.4438009,-35.066647,-6.1621289,-36.896111,9.0601225,-12.321103,-178.35504,-44.545033,18.658316,-42.87344,-164.7556,-30.901323,-6.7849684,-44.207611,17.935595,-14.330691,15.229015,-36.585857,-49.375404,-35.141487,-6.4114637,-42.970284,-163.70825,-36.64307,-49.684639,-16.289587,150.30885
2513500000,-16.411455,14.587759,-36.907295,9.6304951,-30.910231,-7.6003528,-34.940159,-6.8544064,-36.965183,8.4224777,-12.293595,-178.5036,-44.173355,19.812817,-43.301517,-168.04919,-30.917847,-7.939568,-43.861832,18.95056,-14.279827,14.72318,-36.518902,-50.2327,-35.010681,-7.0675936,-43.404312,-166.96646,-36.583546,-50.55846,-16.309679,149.79549
2514000000,-16.420408,14.226131,-36.946846,8.8582821,-30.917755,-8.7698927,-34.810066,-7.7288456,-37.030231,7.7942953,-12.264638,-178.65573,-43.812775,20.050421,-43.736923,-171.09366,-30.93054,-9.0898438,-43.519806,19.087223,-14.229401,14.21545,-36.449127,-51.139713,-34.876663,-7.894484,-43.844505,-169.94516,-36.518223,-51.485531,-16.330603,149.28816
2514500000,-16.429422,13.892336,-36.9911,8.0352545,-30.930639,-9.9611835,-34.684315,-8.7505493,-37.087963,7.0921559,-12.235927,-178.81793,-43.498985,19.546055,-44.170563,-173.9657,-30.945421,-10.263258,-43.23682,18.541212,-14.182723,13.706614,-36.370388,-52.095013,-34.741924,-8.9264727,-44.281242,-172.73537,-36.444889,-52.444668,-16.350899,148.81728
2515000000,-16.441589,13.57593,-37.0452,7.1625147,-30.9484,-11.157054,-34.56731,-9.9353952,-37.143913,6.3734555,-12.208019,-178.98314,-43.26022,18.576292,-44.584873,-176.69951,-30.967211,-11.44406,-43.023136,17.563576,-14.136394,13.202861,-36.289165,-53.144711,-34.61657,-10.137672,-44.714615,-175.48137,-36.371151,-53.49577,-16.369041,148.36855
2515500000,-16.459805,13.284446,-37.09621,6.293242,-30.973087,-12.346615,-34.464424,-11.212488,-37.187778,5.6097298,-12.181069,-179.15407,-43.086521,17.331745,-44.972706,-179.35208,-30.996769,-12.572584,-42.871731,16.271379,-14.091244,12.703878,-36.211498,-54.247147,-34.507156,-11.465216,-45.128685,-178.06952,-36.29697,-54.581779,-16.38331,147.93668
2516000000,-16.485374,13.031755,-37.16082,5.321465,-31.006119,-13.475175,-34.375713,-12.57476,-37.247089,4.7302237,-12.153321,-179.31476,-42.990883,15.837599,-45.364693,177.76976,-31.030476,-13.653118,-42.786297,14.860262,-14.04705,12.204772,-36.128288,-55.406158,-34.414619,-12.880013,-45.536572,179.12109,-36.214939,-55.7542,-16.396904,147.49557
2516500000,-16.513775,12.851998,-37.245895,4.4169559,-31.0425,-14.535131,-34.303509,-13.987819,-37.327316,3.8355167,-12.126083,-179.4856,-42.965755,14.376365,-45.784782,174.87137,-31.064983,-14.668035,-42.765587,13.406101,-14.004582,11.700756,-36.046368,-56.711388,-34.341148,-14.349123,-45.966621,176.28072,-36.136852,-57.030228,-16.406893,147.10313
2517000000,-16.543283,12.738847,-37.331184,3.6911516,-31.073822,-15.579086,-34.244625,-15.387964,-37.405704,3.1006987,-12.100862,-179.6727,-42.990891,12.933584,-46.201672,172.14987,-31.091829,-15.66402,-42.796013,11.957359,-13.965651,11.201084,-35.982536,-58.063255,-34.286232,-15.808476,-46.406326,173.56642,-36.071331,-58.389812,-16.414598,146.70496
2517500000,-16.575533,12.698621,-37.421352,2.9483123,-31.109829,-16.528812,-34.188595,-16.826021,-37.48959,2.3720658,-12.074369,-179.84393,-43.107101,11.695829,-46.627468,169.36111,-31.12291,-16.577774,-42.918827,10.712019,-13.92796,10.727448,-35.923481,-59.455402,-34.231743,-17.29023,-46.847393,170.80493,-36.01424,-59.778744,-16.418722,146.3093
2518000000,-16.602776,12.738242,-37.50153,2.3325922,-31.130413,-17.429302,-34.144688,-18.31922,-37.558578,1.6850317,-12.04861,179.97458,-43.249924,10.863156,-47.037975,166.59087,-31.138243,-17.45533,-43.06599,9.7696571,-13.892516,10.275384,-35.870571,-60.837658,-34.198994,-18.812855,-47.275139,168.15201,-35.960564,-61.184761,-16.419115,145.92371
2518500000,-16.624897,12.851231,-37.572617,1.678546,-31.142246,-18.353716,-34.117535,-19.787163,-37.632572,0.9582634,-12.022875,179.79109,-43.38623,10.366253,-47.434467,163.6579,-31.144518,-18.377407,-43.215069,9.1793547,-13.856856,9.8480062,-35.819862,-62.223644,-34.176582,-20.307646,-47.683334,165.27881,-35.915909,-62.580933,-16.414284,145.51672
2519000000,-16.638069,13.009322,-37.633366,1.046187,-31.149122,-19.321648,-34.09938,-21.254354,-37.707634,0.27400666,-11.996367,179.60562,-43.530369,9.9404621,-47.850094,160.43156,-31.148596,-19.351786,-43.380779,8.8158379,-13.820266,9.4437857,-35.76453,-63.640949,-34.165367,-21.779491,-48.119934,162.08348,-35.864479,-64.018616,-16.404329,145.09567
2519500000,-16.639874,13.204153,-37.691116,0.40276,-31.154755,-20.34919,-34.087749,-22.655781,-37.784531,-0.43991554,-11.970884,179.41107,-43.703808,9.8156061,-48.310345,156.99271,-31.152412,-20.367064,-43.563221,8.7139044,-13.779906,9.054368,-35.708843,-65.144585,-34.158661,-23.163904,-48.596722,158.68008,-35.813614,-65.494576,-16.390146,144.6545
2520000000,-16.632118,13.407181,-37.750988,-0.29084042,-31.16679,-21.388575,-34.071148,-24.029757,-37.872162,-1.1453562,-11.947608,179.20049,-43.847637,10.010953,-48.83424,153.45811,-31.163157,-21.414745,-43.730774,9.0036106,-13.737928,8.673707,-35.654934,-66.747475,-34.148502,-24.52211,-49.163944,155.20284,-35.764214,-67.086288,-16.374647,144.17805
2520500000,-16.613522,13.609746,-37.826015,-1.0058966,-31.183167,-22.403103,-34.054394,-25.455603,-37.975159,-1.8182926,-11.923749,178.99994,-43.96804,10.399964,-49.423126,150.15535,-31.175451,-22.430161,-43.85305,9.4616747,-13.69326,8.2897053,-35.61953,-68.45813,-34.132114,-25.916807,-49.77639,152.03244,-35.732552,-68.765884,-16.358053,143.67079
2521000000,-16.588934,13.798286,-37.906319,-1.6926337,-31.19795,-23.403013,-34.045853,-26.913343,-38.088692,-2.3746982,-11.903844,178.77544,-44.066509,10.865755,-50.039814,147.21526,-31.189882,-23.432983,-43.9552,9.9624004,-13.645823,7.8958817,-35.601139,-70.14817,-34.125656,-27.354361,-50.427513,149.12355,-35.717617,-70.427711,-16.341194,143.1375
2521500000,-16.55279,13.971457,-38.003048,-2.3470514,-31.205915,-24.390415,-34.040413,-28.347755,-38.206528,-2.7713053,-11.8837,178.55626,-44.153091,11.343697,-50.677505,144.67639,-31.19927,-24.424738,-44.03928,10.525502,-13.598209,7.4774718,-35.590767,-71.861343,-34.118793,-28.776257,-51.095573,146.7435,-35.707039,-72.075073,-16.327015,142.5699
2522000000,-16.509462,14.131527,-38.107021,-2.780652,-31.208681,-25.399597,-34.036034,-29.824183,-38.318222,-2.8906677,-11.864475,178.33208,-44.219315,12.002082,-51.267441,142.55312,-31.20319,-25.433546,-44.109211,11.158332,-13.550236,7.0491085,-35.591175,-73.598686,-34.112507,-30.236837,-51.731361,144.86116,-35.708626,-73.758987,-16.316603,141.96524
2522500000,-16.457304,14.269066,-38.190418,-3.1556649,-31.209867,-26.434641,-34.033588,-31.362558,-38.391167,-2.9371717,-11.847483,178.10149,-44.252205,12.608014,-51.79343,140.85945,-31.203688,-26.452736,-44.145966,11.728135,-13.505352,6.6060014,-35.603523,-75.32724,-34.109074,-31.762545,-52.264828,143.4362,-35.719936,-75.432381,-16.310209,141.34468
2523000000,-16.39517,14.376894,-38.272884,-3.5479326,-31.208,-27.507103,-34.041191,-32.980129,-38.447567,-3.0398114,-11.832314,177.86491,-44.27877,13.090497,-52.183922,138.89333,-31.201654,-27.507076,-44.17749,12.224536,-13.460655,6.1570463,-35.625736,-77.032242,-34.115097,-33.387005,-52.672905,141.53163,-35.736069,-77.092995,-16.307806,140.71913
2523500000,-16.324366,14.454437,-38.359013,-3.7904341,-31.202843,-28.630281,-34.067856,-34.671925,-38.49675,-3.1087158,-11.817362,177.64426,-44.303432,13.540128,-52.529743,136.14783,-31.192825,-28.625126,-44.213306,12.749256,-13.417586,5.7081022,-35.663544,-78.730118,-34.136555,-35.063232,-53.028191,138.9689,-35.762699,-78.768661,-16.310797,140.10178
2524000000,-16.248844,14.493855,-38.439777,-3.9197004,-31.200483,-29.814005,-34.116169,-36.365032,-38.537617,-3.118475,-11.805676,177.41216,-44.329605,14.034192,-52.876896,132.70978,-31.185759,-29.807619,-44.235126,13.25642,-13.377757,5.2523284,-35.709679,-80.39782,-34.180618,-36.750629,-53.403358,135.81215,-35.801872,-80.405045,-16.318058,139.47401
2524500000,-16.169903,14.480179,-38.491562,-3.9306288,-31.194298,-31.056721,-34.182983,-38.001698,-38.546951,-3.062397,-11.793306,177.18286,-44.347187,14.507599,-53.278591,129.01865,-31.179405,-31.079683,-44.252804,13.780538,-13.33721,4.8064799,-35.76791,-82.009766,-34.242874,-38.40226,-53.801773,132.4436,-35.850735,-82.02726,-16.330725,138.87537
2525000000,-16.079052,14.430475,-38.511986,-3.9667733,-31.194334,-32.40678,-34.261745,-39.615284,-38.528278,-3.1017783,-11.782458,176.95033,-44.36541,14.856832,-53.647457,125.15875,-31.177542,-32.436329,-44.277149,14.0764,-13.296628,4.3618445,-35.83247,-83.554283,-34.317017,-40.065361,-54.175777,128.72177,-35.912594,-83.596199,-16.34763,138.28784
2525500000,-15.986812,14.296029,-38.528633,-4.0438981,-31.20225,-33.807587,-34.360081,-41.212383,-38.511875,-3.3070693,-11.773645,176.7235,-44.422989,15.387878,-54.030769,120.79115,-31.185072,-33.886993,-44.341011,14.741815,-13.254578,3.8998766,-35.905003,-85.016312,-34.414631,-41.708698,-54.568554,124.31017,-35.979668,-85.081123,-16.367748,137.72951
2526000000,-15.892672,14.082018,-38.532516,-4.1505303,-31.224598,-35.342148,-34.482944,-42.713146,-38.480827,-3.5351479,-11.766804,176.48526,-44.448166,15.998607,-54.471188,116.30349,-31.208595,-35.434227,-44.364971,15.384498,-13.217988,3.4280498,-35.977875,-86.398926,-34.539772,-43.275974,-55.033154,119.72993,-36.052944,-86.472633,-16.389921,137.20856
2526500000,-15.794749,13.795238,-38.530354,-4.3332324,-31.266205,-36.91518,-34.627155,-44.107376,-38.448639,-3.9125531,-11.761603,176.25116,-44.508533,16.637423,-54.925133,112.19122,-31.255241,-37.017025,-44.414993,16.061661,-13.184372,2.9685006,-36.04781,-87.696251,-34.687885,-44.732952,-55.446163,115.34347,-36.118126,-87.772881,-16.41387,136.69986
2527000000,-15.697886,13.421969,-38.535854,-4.5384665,-31.331253,-38.479633,-34.788982,-45.330173,-38.430676,-4.3559132,-11.75862,176.01466,-44.577751,17.538143,-55.302921,108.36795,-31.322763,-38.604504,-44.483143,16.928394,-13.152958,2.5171499,-36.108883,-88.955299,-34.863194,-45.993145,-55.817181,111.53958,-36.181049,-89.037025,-16.436958,136.23247
