!CSV A.01.01
!Keysight Technologies,N5222B,MY58422327,A.13.60.06
!Date: Monday, March 28, 2022 16:25:45
!Source: Standard

BEGIN CH1_DATA
Freq(Hz),S11(DB),S11(DEG),S12(DB),S12(DEG),S13(DB),S13(DEG),S14(DB),S14(DEG),S21(DB),S21(DEG),S22(DB),S22(DEG),S23(DB),S23(DEG),S24(DB),S24(DEG),S31(DB),S31(DEG),S32(DB),S32(DEG),S33(DB),S33(DEG),S34(DB),S34(DEG),S41(DB),S41(DEG),S42(DB),S42(DEG),S43(DB),S43(DEG),S44(DB),S44(DEG)
2500000000,-17.021862,25.498705,-34.781246,37.591599,-32.402962,22.720785,-34.679142,5.8686523,-34.776615,37.631123,-13.087546,-174.28595,-38.447575,19.737947,-40.294735,-81.075462,-32.456493,22.433702,-38.338234,19.68836,-15.694015,28.051044,-36.504463,-33.652607,-34.724552,5.3546429,-40.351589,-82.385284,-36.593517,-33.727436,-16.385284,163.91609
2500500000,-17.006857,25.159155,-34.85067,36.59713,-32.340267,21.717957,-34.781021,4.8264041,-34.85461,36.550594,-13.048059,-174.45961,-38.548237,18.213663,-40.252884,-83.3377,-32.39465,21.46213,-38.435673,18.063475,-15.635047,27.472719,-36.554455,-34.334713,-34.83408,4.3169107,-40.311527,-84.657127,-36.644569,-34.390186,-16.380379,163.55983
2501000000,-16.988306,24.837097,-34.913322,35.598114,-32.28249,20.714851,-34.893299,3.9209867,-34.930927,35.474224,-13.007588,-174.61879,-38.662315,16.685013,-40.220192,-85.658127,-32.337063,20.496111,-38.549908,16.381355,-15.57653,26.887033,-36.599468,-35.12648,-34.952503,3.4267569,-40.282993,-87.00901,-36.688515,-35.146023,-16.374533,163.19626
2501500000,-16.964245,24.528131,-34.958641,34.590088,-32.231438,19.771313,-35.010204,3.2261569,-34.993034,34.423321,-12.969313,-174.78899,-38.783512,15.186827,-40.20266,-87.934799,-32.285492,19.575285,-38.679531,14.782691,-15.520814,26.294201,-36.658024,-35.971893,-35.073425,2.7360053,-40.274891,-89.346489,-36.739857,-35.943726,-16.365269,162.8425
2502000000,-16.93969,24.193531,-34.998154,33.494045,-32.176167,18.886395,-35.110203,2.6531475,-35.049988,33.322754,-12.932073,-174.95766,-38.920635,13.7085,-40.186325,-90.173157,-32.229164,18.716072,-38.826302,13.222139,-15.467733,25.697727,-36.716526,-36.863468,-35.178394,2.1876106,-40.271099,-91.567055,-36.796402,-36.829823,-16.354366,162.47433
2502500000,-16.910522,23.844391,-35.040375,32.350445,-32.122765,17.980597,-35.198444,2.1808326,-35.108223,32.212318,-12.894827,-175.12422,-39.056469,12.331794,-40.167641,-92.339188,-32.173641,17.829283,-38.978146,11.728894,-15.420692,25.112116,-36.798717,-37.753559,-35.267799,1.7344493,-40.26403,-93.682571,-36.869793,-37.719418,-16.3419,162.08057
2503000000,-16.878391,23.476955,-35.079136,31.150789,-32.070332,17.108898,-35.270023,1.7739749,-35.156094,31.081455,-12.861488,-175.31032,-39.192516,10.914529,-40.136166,-94.548973,-32.120686,16.975321,-39.137157,10.262879,-15.375742,24.545412,-36.901394,-38.533607,-35.34148,1.3253384,-40.248756,-95.845947,-36.964771,-38.519054,-16.327826,161.68401
2503500000,-16.850924,23.07955,-35.113689,29.844181,-32.018661,16.283543,-35.324806,1.3858162,-35.19912,29.902227,-12.828951,-175.48772,-39.326111,9.4418039,-40.084614,-96.748062,-32.067947,16.182451,-39.295792,8.8024635,-15.334894,24.002214,-37.008373,-39.108723,-35.398457,0.9356972,-40.209812,-97.960716,-37.06813,-39.124557,-16.31226,161.27342
2504000000,-16.820625,22.677679,-35.161259,28.517868,-31.956219,15.50573,-35.373161,0.97762567,-35.249439,28.716213,-12.796587,-175.65921,-39.469482,7.8645573,-40.019062,-99.057594,-32.000603,15.435701,-39.462433,7.2770014,-15.294889,23.494926,-37.100533,-39.5271,-35.442799,0.50289142,-40.146976,-100.15219,-37.157307,-39.603199,-16.296316,160.82693
2504500000,-16.790371,22.27832,-35.216309,27.18601,-31.879896,14.716762,-35.413246,0.5595786,-35.296146,27.494129,-12.766582,-175.8405,-39.630726,6.1245565,-39.930763,-101.52806,-31.919868,14.652201,-39.648273,5.6191149,-15.253444,23.020273,-37.176575,-39.789932,-35.484276,0.061252795,-40.060631,-102.50637,-37.231766,-39.953037,-16.277761,160.37677
2505000000,-16.75564,21.880701,-35.276615,25.779339,-31.799015,13.867492,-35.443298,0.16170081,-35.341202,26.163855,-12.739554,-176.02792,-39.830814,4.3338652,-39.822632,-104.25581,-31.832972,13.816587,-39.869267,3.9681087,-15.210549,22.553442,-37.231216,-39.983566,-35.518181,-0.34321982,-39.948864,-105.10753,-37.290543,-40.210815,-16.259628,159.87984
2505500000,-16.719915,21.461885,-35.348034,24.408836,-31.706556,12.923564,-35.473469,-0.28464386,-35.398796,24.829931,-12.712589,-176.19987,-40.077103,2.5065682,-39.72464,-107.35342,-31.734325,12.876345,-40.120625,2.2835968,-15.164919,22.099064,-37.251839,-40.12727,-35.549545,-0.77954471,-39.847595,-108.04436,-37.319309,-40.40799,-16.241024,159.3582
2506000000,-16.683493,21.030888,-35.428352,23.001278,-31.614298,11.911876,-35.499374,-0.69587392,-35.457493,23.422941,-12.687429,-176.36945,-40.363991,0.67787635,-39.645679,-110.70733,-31.639692,11.836197,-40.409569,0.61278534,-15.117927,21.652155,-37.24667,-40.326813,-35.581741,-1.1920099,-39.753117,-111.33281,-37.324715,-40.637787,-16.222534,158.79865
2506500000,-16.646749,20.593721,-35.526009,21.58983,-31.527905,10.812437,-35.522385,-1.0556214,-35.534473,21.969687,-12.663478,-176.54205,-40.718285,-1.0797174,-39.601288,-114.39563,-31.550667,10.734556,-40.744713,-0.95367628,-15.069921,21.20871,-37.214539,-40.644772,-35.606815,-1.5032591,-39.696262,-114.91724,-37.30534,-40.932522,-16.206135,158.20877
2507000000,-16.613562,20.151062,-35.639519,20.272154,-31.44507,9.6485224,-35.522686,-1.3572696,-35.632927,20.57008,-12.638559,-176.69237,-41.139141,-2.5943017,-39.606262,-118.22514,-31.463423,9.5467339,-41.14576,-2.3914022,-15.019619,20.764736,-37.166447,-41.087296,-35.609177,-1.7948403,-39.679554,-118.73567,-37.26936,-41.330433,-16.193411,157.58205
2507500000,-16.576525,19.725071,-35.755898,19.062849,-31.371729,8.4068623,-35.509022,-1.7587501,-35.737907,19.271187,-12.615222,-176.84972,-41.612595,-3.6523669,-39.657539,-122.19336,-31.389133,8.2894192,-41.602901,-3.4600463,-14.968675,20.329205,-37.115334,-41.66256,-35.595062,-2.1704295,-39.713734,-122.7018,-37.22559,-41.883675,-16.18528,156.93813
2508000000,-16.542822,19.282736,-35.870209,17.914858,-31.307999,7.13662,-35.496368,-2.2634575,-35.846817,17.995962,-12.590877,-176.99442,-42.125546,-4.1899104,-39.750027,-126.18838,-31.324144,6.9940772,-42.099785,-4.0435987,-14.91784,19.89974,-37.066662,-42.425346,-35.579132,-2.6652312,-39.798466,-126.70599,-37.180977,-42.587673,-16.181633,156.27995
2508500000,-16.509491,18.832287,-35.981014,16.830084,-31.253464,5.8600941,-35.488556,-2.7795131,-35.958466,16.804022,-12.565195,-177.12737,-42.666798,-4.086762,-39.887997,-130.16219,-31.271034,5.7139835,-42.63467,-4.0327239,-14.862745,19.480453,-37.034004,-43.27879,-35.572765,-3.1434727,-39.924541,-130.68019,-37.153725,-43.392754,-16.182695,155.61581
2509000000,-16.483017,18.361506,-36.092838,15.750199,-31.207472,4.5872827,-35.481953,-3.2509117,-36.072231,15.612858,-12.541471,-177.27792,-43.204521,-3.2404029,-40.06385,-134.0511,-31.22414,4.4173088,-43.173908,-3.3129363,-14.80641,19.057915,-37.022083,-44.118549,-35.566036,-3.5916071,-40.086533,-134.57329,-37.139416,-44.209591,-16.185513,154.95821
2509500000,-16.460119,17.899984,-36.210487,14.714005,-31.164415,3.2966514,-35.475693,-3.6615231,-36.192604,14.454914,-12.514814,-177.42259,-43.706585,-1.6886179,-40.272511,-137.8233,-31.180737,3.1292295,-43.686222,-1.8285787,-14.746926,18.63274,-37.021492,-44.891014,-35.561222,-3.9831491,-40.281113,-138.40118,-37.133842,-44.952366,-16.191591,154.30467
2510000000,-16.445221,17.436203,-36.331116,13.692096,-31.125471,1.9624909,-35.457767,-3.9706481,-36.325989,13.343696,-12.486942,-177.55804,-44.139275,0.6195457,-40.50629,-141.59164,-31.143448,1.7899988,-44.135483,0.36591697,-14.686347,18.201996,-37.020878,-45.564034,-35.54002,-4.3213701,-40.492336,-142.1243,-37.134155,-45.617943,-16.202711,153.64211
2510500000,-16.440903,16.974997,-36.461803,12.764024,-31.095448,0.61771429,-35.417633,-4.2581987,-36.468391,12.346952,-12.46086,-177.70892,-44.492027,3.4343488,-40.747269,-145.25763,-31.112265,0.42552641,-44.496769,3.203306,-14.625036,17.756607,-37.012745,-46.148987,-35.501392,-4.6099558,-40.716957,-145.87549,-37.119545,-46.199543,-16.21435,153.01712
2511000000,-16.439373,16.543247,-36.596565,11.977739,-31.077024,-0.78589582,-35.362568,-4.6016908,-36.618145,11.538053,-12.434618,-177.85443,-44.693237,6.8360214,-41.023193,-148.97375,-31.096949,-0.97982311,-44.724789,6.5722857,-14.562319,17.296429,-36.980122,-46.698463,-35.442566,-4.9550943,-40.972172,-149.62909,-37.090328,-46.731617,-16.230303,152.39156
2511500000,-16.440638,16.146225,-36.711071,11.351023,-31.071659,-2.1517282,-35.292652,-4.9956584,-36.749241,10.86913,-12.407128,-177.98526,-44.729805,10.21347,-41.326176,-152.62321,-31.097214,-2.3568668,-44.784927,9.9986086,-14.500526,16.815924,-36.928394,-47.290752,-35.373001,-5.3442545,-41.262089,-153.39465,-37.038368,-47.326763,-16.248997,151.78546
2512000000,-16.44486,15.775587,-36.811714,10.74376,-31.07445,-3.4626937,-35.205849,-5.454452,-36.868633,10.307214,-12.378701,-178.13103,-44.623009,13.230617,-41.660282,-156.17076,-31.101994,-3.6635094,-44.697834,13.098737,-14.444132,16.315443,-36.872272,-48.028687,-35.286282,-5.8089104,-41.585842,-157.04741,-36.979065,-48.029476,-16.270893,151.20418
2512500000,-16.447083,15.417223,-36.897091,10.142339,-31.092264,-4.7404575,-35.113106,-5.9524131,-36.969391,9.7218952,-12.350715,-178.27875,-44.417084,15.835836,-42.02681,-159.67603,-31.118721,-4.9499965,-44.507938,15.865797,-14.387367,15.820137,-36.818344,-48.784458,-35.19458,-6.323288,-41.938026,-160.58987,-36.92345,-48.757755,-16.292286,150.66084
2513000000,-16.448675,15.065092,-36.971512,9.5627432,-31.106405,-5.9349771,-35.000465,-6.5646243,-37.055866,9.192605,-12.32195,-178.42276,-44.101852,17.678762,-42.394257,-162.90977,-31.137739,-6.1378312,-44.197525,17.955584,-14.333111,15.316194,-36.754871,-49.579659,-35.080185,-6.9149017,-42.318016,-163.94206,-36.857464,-49.547787,-16.313108,150.13512
2513500000,-16.451324,14.712891,-37.034786,8.9497566,-31.117218,-7.0769305,-34.879566,-7.3276815,-37.12804,8.6390142,-12.293832,-178.57259,-43.742447,18.632593,-42.801041,-166.04567,-31.153652,-7.2864442,-43.83601,19.059385,-14.281661,14.808081,-36.68647,-50.402611,-34.955902,-7.674819,-42.712124,-167.07413,-36.785484,-50.381813,-16.3342,149.63297
2514000000,-16.459959,14.350842,-37.087864,8.2848368,-31.123343,-8.2445784,-34.756294,-8.2585897,-37.187962,8.040596,-12.264735,-178.72658,-43.394897,18.600729,-43.218788,-168.95944,-31.163239,-8.4332771,-43.485817,19.160418,-14.23105,14.297915,-36.613918,-51.297562,-34.832493,-8.6206656,-43.112247,-170.03346,-36.709663,-51.261093,-16.3556,149.13599
2514500000,-16.468981,14.018538,-37.141537,7.5649552,-31.133436,-9.4395523,-34.637592,-9.3428144,-37.244972,7.3497095,-12.236244,-178.89064,-43.113602,17.879753,-43.624626,-171.70035,-31.176657,-9.6188869,-43.193604,18.579746,-14.183497,13.784547,-36.536194,-52.244698,-34.712223,-9.7024498,-43.517166,-172.87926,-36.628769,-52.211674,-16.374971,148.67181
2515000000,-16.480858,13.707591,-37.19482,6.8150864,-31.151329,-10.660738,-34.52895,-10.564351,-37.29834,6.6492329,-12.208688,-179.05688,-42.905895,16.816486,-44.008041,-174.22276,-31.198359,-10.815028,-42.979729,17.612885,-14.137086,13.277601,-36.451668,-53.289288,-34.603092,-10.90016,-43.916862,-175.5878,-36.544567,-53.256306,-16.392178,148.22276
2515500000,-16.499166,13.420486,-37.245064,5.9984756,-31.177147,-11.867608,-34.432735,-11.850823,-37.348728,5.8689089,-12.182095,-179.22675,-42.763584,15.450998,-44.384411,-176.8163,-31.231106,-11.975539,-42.819054,16.369181,-14.092094,12.774872,-36.373405,-54.35289,-34.507843,-12.181967,-44.294968,-178.30298,-36.464287,-54.348255,-16.406004,147.79842
2516000000,-16.524742,13.166161,-37.302902,5.1214299,-31.213671,-13.003517,-34.349049,-13.207113,-37.41021,4.9774332,-12.154192,-179.38905,-42.690941,13.935787,-44.780781,-179.59483,-31.26811,-13.078724,-42.735909,14.94304,-14.047845,12.272673,-36.288307,-55.489838,-34.423622,-13.555854,-44.688801,178.84984,-36.37434,-55.496857,-16.418951,147.36053
2516500000,-16.552711,12.99177,-37.383392,4.2284017,-31.252642,-14.072433,-34.280231,-14.612006,-37.495533,4.1362023,-12.127259,-179.56107,-42.687038,12.422864,-45.21471,177.74118,-31.307243,-14.107907,-42.714588,13.481099,-14.006404,11.765865,-36.207928,-56.771603,-34.352318,-14.984207,-45.105923,176.01379,-36.290241,-56.78801,-16.427742,146.97249
2517000000,-16.582371,12.881665,-37.463524,3.5078208,-31.285225,-15.108953,-34.222813,-16.010262,-37.581776,3.4414294,-12.102228,-179.74931,-42.730545,10.914201,-45.631748,175.2493,-31.344896,-15.099868,-42.740822,12.030431,-13.9678,11.268469,-36.136234,-58.121414,-34.296936,-16.392626,-45.534859,173.45068,-36.217464,-58.180698,-16.434668,146.57466
2517500000,-16.615866,12.843681,-37.5471,2.765162,-31.324924,-16.035658,-34.166042,-17.469889,-37.671825,2.7449372,-12.076271,-179.92052,-42.857471,9.6743288,-46.054195,172.60989,-31.384335,-15.981015,-42.869537,10.841293,-13.930523,10.794221,-36.070011,-59.517612,-34.242653,-17.866072,-45.958969,170.81274,-36.150654,-59.573593,-16.438335,146.17223
2518000000,-16.644312,12.885111,-37.618153,2.0972023,-31.348618,-16.925041,-34.125175,-18.978836,-37.748928,2.124306,-12.050928,179.89662,-43.020077,8.7880259,-46.46524,170.11537,-31.40822,-16.801264,-43.021423,10.025647,-13.895116,10.343502,-36.010162,-60.951473,-34.202797,-19.344393,-46.382473,168.30609,-36.09127,-61.010475,-16.438646,145.77855
2518500000,-16.667414,13.0062,-37.693859,1.3636674,-31.363024,-17.832247,-34.097744,-20.482018,-37.827133,1.4703084,-12.025644,179.70976,-43.188782,8.2294893,-46.861725,167.43839,-31.418146,-17.63394,-43.166431,9.5591412,-13.859723,9.9152088,-35.962105,-62.397823,-34.175285,-20.844538,-46.784119,165.63928,-36.041035,-62.479572,-16.434126,145.36449
2519000000,-16.681944,13.175938,-37.768158,0.65727043,-31.370289,-18.773411,-34.080566,-21.962559,-37.907192,0.83626795,-11.99938,179.52594,-43.361061,7.8424525,-47.291611,164.59393,-31.419296,-18.528456,-43.313358,9.2260666,-13.823107,9.5109205,-35.913055,-63.857277,-34.158833,-22.314859,-47.204681,162.78041,-35.991329,-63.976578,-16.42506,144.93706
2519500000,-16.684797,13.384512,-37.842735,-0.061370604,-31.375914,-19.754599,-34.069645,-23.392477,-37.991688,0.23106408,-11.974628,179.32941,-43.556587,7.7704682,-47.762165,161.6548,-31.419788,-19.474117,-43.472416,9.1900358,-13.783775,9.1240015,-35.865387,-65.361343,-34.148155,-23.740696,-47.667862,159.72745,-35.944241,-65.49276,-16.412193,144.4917
2520000000,-16.678782,13.60801,-37.935196,-0.81340319,-31.387976,-20.761662,-34.056049,-24.806084,-38.081417,-0.39465696,-11.952221,179.12138,-43.715694,8.0584688,-48.301964,158.68736,-31.419842,-20.441755,-43.612366,9.4380503,-13.742084,8.7472591,-35.818428,-66.962433,-34.133827,-25.155602,-48.196297,156.61577,-35.900093,-67.136612,-16.397854,144.01767
2520500000,-16.660667,13.839136,-38.040234,-1.4635652,-31.39926,-21.754604,-34.043186,-26.273657,-38.187027,-0.91419905,-11.928892,178.92403,-43.841305,8.4870205,-48.898674,156.11591,-31.424881,-21.450186,-43.716724,9.7953787,-13.698089,8.3665476,-35.787411,-68.654961,-34.122128,-26.605965,-48.783279,153.89046,-35.874161,-68.835205,-16.38168,143.51337
2521000000,-16.634483,14.053112,-38.153973,-1.9892613,-31.410299,-22.74736,-34.039177,-27.75181,-38.292561,-1.3197435,-11.909368,178.70413,-43.951977,8.9621553,-49.49654,153.76189,-31.426847,-22.432808,-43.799885,10.096127,-13.651025,7.9814749,-35.771801,-70.309616,-34.120113,-28.087269,-49.392239,151.46532,-35.864178,-70.526237,-16.366377,142.98639
2521500000,-16.596663,14.251168,-38.274345,-2.4125938,-31.418377,-23.725254,-34.041107,-29.219854,-38.400341,-1.5892786,-11.889177,178.48912,-44.047047,9.4490738,-50.096169,152.02173,-31.427176,-23.441282,-43.878231,10.461375,-13.603484,7.5717173,-35.7654,-71.96463,-34.121681,-29.549297,-50.003441,149.69196,-35.860096,-72.175934,-16.352421,142.42197
2522000000,-16.549765,14.429296,-38.390942,-2.5163066,-31.420385,-24.731113,-34.043262,-30.718048,-38.492489,-1.6174825,-11.86942,178.26823,-44.130608,10.075824,-50.636471,150.54646,-31.421734,-24.467421,-43.955906,10.900934,-13.55481,7.1552768,-35.763275,-73.648834,-34.122429,-31.033413,-50.580727,148.19589,-35.861446,-73.862183,-16.342337,141.82544
2522500000,-16.49461,14.580434,-38.464344,-2.5489056,-31.419794,-25.78129,-34.047626,-32.243752,-38.543015,-1.5944228,-11.851783,178.03838,-44.178482,10.729709,-51.112522,149.45155,-31.419256,-25.560963,-44.003426,11.361341,-13.508384,6.71838,-35.771873,-75.327812,-34.125473,-32.555805,-51.055397,147.1675,-35.874016,-75.530464,-16.335907,141.21028
2523000000,-16.429119,14.694891,-38.521633,-2.6425228,-31.419134,-26.862286,-34.060371,-33.830349,-38.582531,-1.6642165,-11.835996,177.79837,-44.215992,11.250479,-51.465462,147.84358,-31.41728,-26.670496,-44.041027,11.734588,-13.462379,6.2796807,-35.786594,-76.994576,-34.134632,-34.168968,-51.417923,145.71864,-35.887299,-77.183685,-16.333448,140.58913
2523500000,-16.356361,14.775185,-38.572536,-2.7136469,-31.416498,-27.96907,-34.087887,-35.475246,-38.613457,-1.7193092,-11.820952,177.57382,-44.250118,11.853176,-51.760071,145.6109,-31.412189,-27.830496,-44.087666,12.099036,-13.417367,5.834846,-35.816223,-78.662971,-34.161823,-35.845409,-51.731895,143.6938,-35.915989,-78.85952,-16.336132,139.97282
2524000000,-16.278513,14.818379,-38.614315,-2.6966062,-31.413363,-29.136229,-34.135052,-37.144398,-38.631969,-1.731847,-11.809461,177.33823,-44.280499,12.39073,-52.101757,142.89014,-31.409805,-29.034206,-44.132431,12.495408,-13.375827,5.379261,-35.854839,-80.305504,-34.211754,-37.528988,-52.068943,141.03615,-35.954403,-80.514351,-16.343311,139.34076
2524500000,-16.197147,14.811921,-38.623932,-2.6409397,-31.412424,-30.370935,-34.198639,-38.774426,-38.623177,-1.7317257,-11.797805,177.10579,-44.300545,12.904384,-52.51646,139.98799,-31.411137,-30.312868,-44.175838,12.962603,-13.332623,4.9306297,-35.904652,-81.940315,-34.275089,-39.161983,-52.442619,138.3018,-36.003273,-82.132408,-16.355494,138.73833
2525000000,-16.10392,14.771657,-38.609596,-2.7082918,-31.414518,-31.684053,-34.274231,-40.38847,-38.590889,-1.8878703,-11.787603,176.87178,-44.318241,13.268029,-52.91605,137.00847,-31.418217,-31.667461,-44.225208,13.298637,-13.290177,4.4784126,-35.962208,-83.511765,-34.350304,-40.789005,-52.790848,135.29338,-36.061512,-83.720642,-16.372345,138.14775
2525500000,-16.008558,14.644409,-38.597408,-2.8826609,-31.424751,-33.072136,-34.367718,-42.012951,-38.561069,-2.1815264,-11.77953,176.64735,-44.375381,13.91659,-53.295856,133.4753,-31.432413,-33.045429,-44.318195,13.969642,-13.246555,4.0104303,-36.028736,-84.989914,-34.447357,-42.419571,-53.138794,132.09099,-36.13118,-85.220085,-16.393406,137.58707
2526000000,-15.911132,14.43197,-38.574486,-3.0664823,-31.44994,-34.549469,-34.486294,-43.568649,-38.529186,-2.5247054,-11.773185,176.41151,-44.394577,14.571398,-53.730671,129.87482,-31.461624,-34.553902,-44.365974,14.747751,-13.208617,3.5244627,-36.099854,-86.379189,-34.564056,-44.010883,-53.55151,128.38023,-36.202415,-86.632225,-16.416843,137.06595
2526500000,-15.809267,14.142238,-38.544827,-3.3606715,-31.490963,-36.068546,-34.631058,-45.031788,-38.49987,-2.9812372,-11.768372,176.17903,-44.44445,15.231316,-54.195492,126.62743,-31.510754,-36.06126,-44.417915,15.627419,-13.174521,3.0507948,-36.164581,-87.7015,-34.708488,-45.485859,-53.970131,124.90165,-36.276505,-87.928596,-16.44113,136.55789
2527000000,-15.708543,13.757761,-38.527515,-3.7249649,-31.551378,-37.593288,-34.79475,-46.342911,-38.48724,-3.4529986,-11.765896,175.94695,-44.500652,16.020157,-54.586185,123.36267,-31.573725,-37.584255,-44.47599,16.681431,-13.142846,2.5859375,-36.219784,-88.961784,-34.873795,-46.826553,-54.357201,121.74135,-36.336105,-89.197899,-16.465099,136.0943
