!CSV A.01.01
!Keysight Technologies,N5222B,MY58422327,A.13.60.06
!Date: Monday, March 28, 2022 16:27:55
!Source: Standard

BEGIN CH1_DATA
Freq(Hz),S11(DB),S11(DEG),S12(DB),S12(DEG),S13(DB),S13(DEG),S14(DB),S14(DEG),S21(DB),S21(DEG),S22(DB),S22(DEG),S23(DB),S23(DEG),S24(DB),S24(DEG),S31(DB),S31(DEG),S32(DB),S32(DEG),S33(DB),S33(DEG),S34(DB),S34(DEG),S41(DB),S41(DEG),S42(DB),S42(DEG),S43(DB),S43(DEG),S44(DB),S44(DEG)
2500000000,-17.08754,25.800167,-34.849751,36.77216,-32.716618,24.578869,-34.760765,6.740334,-34.90414,36.88855,-13.080615,-174.41608,-38.342079,19.714478,-39.868214,-85.383629,-32.685783,23.986862,-38.189766,19.726479,-15.716579,28.031416,-36.705246,-34.252579,-34.778091,6.7677832,-39.87632,-85.019112,-36.82172,-34.077106,-16.435307,163.82613
2500500000,-17.071028,25.467579,-34.933296,35.720211,-32.643383,23.527348,-34.868889,5.7161379,-34.984581,35.798252,-13.041242,-174.59178,-38.43293,18.107286,-39.817814,-87.610275,-32.61681,22.954185,-38.27927,18.076521,-15.658518,27.449118,-36.76482,-34.896198,-34.883858,5.7396541,-39.832851,-87.217178,-36.87788,-34.683521,-16.432163,163.47813
2501000000,-17.050379,25.153488,-35.012589,34.664795,-32.575405,22.468418,-34.987713,4.8792281,-35.067543,34.71199,-13.000471,-174.75317,-38.533108,16.449759,-39.779816,-89.932175,-32.554718,21.922493,-38.38353,16.409861,-15.600946,26.866802,-36.816605,-35.651539,-34.999718,4.8723307,-39.79586,-89.495499,-36.924534,-35.39949,-16.427933,163.12852
2501500000,-17.023848,24.853947,-35.075874,33.661335,-32.515285,21.484402,-35.105659,4.2644129,-35.134357,33.656471,-12.961963,-174.92796,-38.648533,14.878584,-39.76289,-92.244347,-32.496197,20.964535,-38.509811,14.792552,-15.546273,26.274748,-36.877411,-36.419197,-35.115475,4.198504,-39.785145,-91.758514,-36.978863,-36.168961,-16.419998,162.78339
2502000000,-16.996782,24.52268,-35.128895,32.617485,-32.457611,20.525587,-35.203918,3.7729008,-35.199093,32.581375,-12.925194,-175.10182,-38.777943,13.301673,-39.752144,-94.47847,-32.435989,20.045071,-38.648304,13.228831,-15.494655,25.68829,-36.938129,-37.236412,-35.214725,3.6715,-39.77248,-93.946457,-37.034622,-36.998051,-16.410166,162.42923
2502500000,-16.964699,24.179241,-35.176247,31.545656,-32.398285,19.569553,-35.286491,3.3522294,-35.258377,31.510567,-12.889344,-175.27541,-38.908127,11.754584,-39.737518,-96.620926,-32.378147,19.103239,-38.793484,11.740899,-15.448378,25.108889,-37.013535,-38.0811,-35.297974,3.2174363,-39.75396,-96.059601,-37.108929,-37.8643,-16.398315,162.05226
2503000000,-16.930046,23.808836,-35.214676,30.440527,-32.348846,18.639334,-35.349037,3.0030711,-35.312523,30.450233,-12.856796,-175.46597,-39.046234,10.198367,-39.719326,-98.78595,-32.321724,18.187691,-38.941654,10.253213,-15.403471,24.552698,-37.105564,-38.83271,-35.361099,2.8640606,-39.727737,-98.179749,-37.201599,-38.606049,-16.384506,161.67114
2503500000,-16.899776,23.408892,-35.252457,29.185329,-32.296394,17.770905,-35.396545,2.6605272,-35.354671,29.28861,-12.825764,-175.65007,-39.185501,8.6010199,-39.676838,-100.89559,-32.266575,17.323269,-39.090012,8.7560911,-15.362237,24.01897,-37.205479,-39.373722,-35.411789,2.478204,-39.682564,-100.25365,-37.30265,-39.137329,-16.369217,161.27376
2504000000,-16.868572,22.991615,-35.298485,27.919182,-32.236435,16.94813,-35.432053,2.285399,-35.406464,28.128841,-12.795094,-175.82388,-39.340355,6.9590898,-39.611897,-103.04579,-32.202221,16.506668,-39.247787,7.2017531,-15.321601,23.516846,-37.290089,-39.784698,-35.451412,2.0986729,-39.608795,-102.42986,-37.385784,-39.532276,-16.353313,160.83783
2504500000,-16.837912,22.580681,-35.347046,26.597868,-32.162849,16.14266,-35.462921,1.9020352,-35.452724,26.9254,-12.76691,-176.00526,-39.510174,5.1173239,-39.528381,-105.37678,-32.127335,15.669012,-39.423985,5.5277019,-15.280155,23.048107,-37.357525,-40.094135,-35.482914,1.6991861,-39.517082,-104.75815,-37.455818,-39.810925,-16.333609,160.39548
2505000000,-16.803431,22.177452,-35.40387,25.19071,-32.081989,15.288865,-35.483772,1.5476711,-35.494984,25.626263,-12.7413,-176.18808,-39.720913,3.2523367,-39.420757,-107.95429,-32.047806,14.803758,-39.629398,3.8283927,-15.236368,22.586414,-37.406498,-40.319656,-35.507568,1.338575,-39.410744,-107.35438,-37.506897,-39.999241,-16.31575,159.91042
2505500000,-16.768145,21.75984,-35.475815,23.810978,-31.99086,14.377516,-35.499104,1.1267868,-35.547688,24.314034,-12.715813,-176.35202,-39.974529,1.3785219,-39.325481,-110.84834,-31.959749,13.875988,-39.867775,2.122807,-15.190095,22.132948,-37.425671,-40.521271,-35.526459,0.91874987,-39.313839,-110.25848,-37.518826,-40.15411,-16.296362,159.39926
2506000000,-16.732101,21.331425,-35.556049,22.419945,-31.896954,13.365396,-35.514156,0.73779225,-35.605469,22.916195,-12.691578,-176.51428,-40.266594,-0.46247226,-39.241909,-114.03872,-31.869438,12.867742,-40.146465,0.39617836,-15.14319,21.688356,-37.42556,-40.737614,-35.54464,0.54130894,-39.229111,-113.48545,-37.506489,-40.362106,-16.277349,158.84543
2506500000,-16.696054,20.898096,-35.655521,21.006472,-31.80785,12.275896,-35.519642,0.41874996,-35.683586,21.481884,-12.668688,-176.68005,-40.611057,-2.2535625,-39.188286,-117.52719,-31.784243,11.793952,-40.47662,-1.2795869,-15.094851,21.247559,-37.396099,-41.044628,-35.550488,0.22332451,-39.177799,-116.95596,-37.46645,-40.657246,-16.26054,158.26363
2507000000,-16.662647,20.46195,-35.766281,19.709309,-31.725651,11.117545,-35.501381,0.09020897,-35.777103,20.084002,-12.643983,-176.82364,-41.023499,-3.8095231,-39.178909,-121.17712,-31.699846,10.639293,-40.868145,-2.7383683,-15.044342,20.815281,-37.353474,-41.455013,-35.533878,-0.11177088,-39.169235,-120.57864,-37.415745,-41.121452,-16.24807,157.64401
2507500000,-16.62509,20.044287,-35.878677,18.534767,-31.65275,9.877943,-35.473064,-0.3788453,-35.885284,18.776543,-12.621073,-176.97273,-41.496086,-5.0361462,-39.211464,-124.94273,-31.622896,9.417758,-41.310898,-3.8791666,-14.991923,20.388138,-37.303024,-42.018642,-35.507343,-0.54821193,-39.196182,-124.3258,-37.35556,-41.737434,-16.239361,157.0063
2508000000,-16.591015,19.609299,-35.991978,17.421261,-31.590084,8.6188402,-35.449738,-0.95055026,-35.996307,17.505436,-12.59666,-177.11044,-42.010162,-5.782517,-39.289516,-128.77414,-31.558336,8.1426554,-41.796574,-4.5328422,-14.939243,19.963018,-37.251575,-42.772705,-35.483608,-1.0917047,-39.271202,-128.15149,-37.298428,-42.552391,-16.236027,156.35689
2508500000,-16.557165,19.168415,-36.097797,16.362123,-31.539139,7.3560295,-35.436829,-1.5416017,-36.111023,16.311653,-12.570596,-177.23509,-42.566257,-5.9219422,-39.408226,-132.55347,-31.503229,6.8672042,-42.31538,-4.6504302,-14.882743,19.546471,-37.215946,-43.619549,-35.466396,-1.6673332,-39.382259,-131.95793,-37.258808,-43.475304,-16.236883,155.70227
2509000000,-16.530285,18.711981,-36.198257,15.311809,-31.49403,6.1304913,-35.431793,-2.0858412,-36.232655,15.156613,-12.546198,-177.3822,-43.134964,-5.344233,-39.557804,-136.29536,-31.455214,5.6006708,-42.841751,-4.0737829,-14.824737,19.124275,-37.192127,-44.491554,-35.456551,-2.1953278,-39.530827,-135.70769,-37.242825,-44.443142,-16.240381,155.05891
2509500000,-16.506128,18.266758,-36.300419,14.258779,-31.4464,4.9091091,-35.428604,-2.5320532,-36.356747,14.068718,-12.519081,-177.52597,-43.679916,-3.9504709,-39.732971,-139.92821,-31.408014,4.3311825,-43.351532,-2.8012998,-14.763468,18.693274,-37.186646,-45.322556,-35.446407,-2.6772778,-39.705502,-139.33376,-37.244301,-45.327023,-16.24674,154.41974
2510000000,-16.489117,17.822094,-36.412334,13.173375,-31.399397,3.6380272,-35.411968,-2.8994212,-36.487022,13.031269,-12.490593,-177.66055,-44.170738,-1.7687348,-39.924412,-143.48544,-31.364744,3.0318458,-43.794971,-0.84098154,-14.70146,18.257349,-37.183083,-46.089291,-35.426052,-3.0481076,-39.89838,-142.95885,-37.247978,-46.122826,-16.255959,153.77174
2510500000,-16.481796,17.373878,-36.535599,12.186527,-31.358337,2.3126056,-35.376286,-3.2109849,-36.62302,12.071477,-12.463902,-177.81367,-44.57391,1.1773307,-40.123455,-147.04539,-31.332531,1.6813999,-44.164001,1.8200674,-14.639446,17.800831,-37.170704,-46.78775,-35.388035,-3.4157603,-40.108158,-146.58417,-37.244576,-46.804996,-16.266088,153.16098
2511000000,-16.476755,16.955477,-36.666756,11.334554,-31.330236,0.93089503,-35.318977,-3.5668888,-36.761295,11.28456,-12.437231,-177.96313,-44.832001,4.7060032,-40.354866,-150.62665,-31.309086,0.31768319,-44.400928,5.0604668,-14.576567,17.33429,-37.147179,-47.437958,-35.331154,-3.7891259,-40.339195,-150.14099,-37.22942,-47.451252,-16.279413,152.54326
2511500000,-16.474222,16.561401,-36.784645,10.61707,-31.319027,-0.43578634,-35.249062,-3.9317229,-36.883591,10.611805,-12.40998,-178.10046,-44.911297,8.3026991,-40.618069,-154.20758,-31.301714,-1.0476139,-44.479729,8.3542461,-14.515099,16.844193,-37.112289,-48.118515,-35.264179,-4.2037201,-40.604568,-153.75621,-37.191395,-48.088123,-16.296133,151.9424
2512000000,-16.475014,16.190062,-36.884769,9.9428492,-31.31039,-1.769208,-35.160664,-4.3655581,-36.987087,9.9956093,-12.382185,-178.2515,-44.83123,11.603296,-40.907486,-157.69507,-31.297874,-2.3514321,-44.419727,11.35404,-14.45901,16.335419,-37.066467,-48.910393,-35.179695,-4.6791806,-40.900536,-157.23454,-37.150177,-48.896935,-16.315811,151.36401
2512500000,-16.473866,15.838686,-36.973064,9.2513494,-31.318058,-3.0634372,-35.060352,-4.8732276,-37.076626,9.3798094,-12.355184,-178.40382,-44.6511,14.479417,-41.225498,-161.06635,-31.311388,-3.6180503,-44.251556,14.043623,-14.402805,15.835415,-37.032177,-49.658413,-35.084286,-5.2066879,-41.224564,-160.63275,-37.111473,-49.655647,-16.334463,150.81689
2513000000,-16.471119,15.485803,-37.051788,8.5706615,-31.328505,-4.2779512,-34.940453,-5.4811001,-37.15435,8.7563667,-12.326979,-178.55026,-44.339073,16.675566,-41.562519,-164.35364,-31.321636,-4.7979388,-43.958153,16.065781,-14.34932,15.330758,-36.980762,-50.435257,-34.967712,-5.825738,-41.571945,-163.8996,-37.062454,-50.426743,-16.354851,150.28786
2513500000,-16.470226,15.130042,-37.121712,7.8589773,-31.333534,-5.4378676,-34.807632,-6.2592497,-37.222843,8.1056204,-12.299643,-178.70166,-43.976337,17.964649,-41.924656,-167.43318,-31.327404,-5.9218392,-43.610214,17.100786,-14.299061,14.822798,-36.925293,-51.221756,-34.838909,-6.5942655,-41.94157,-166.98001,-37.005474,-51.238983,-16.37525,149.78201
2514000000,-16.475208,14.765727,-37.190796,7.1188016,-31.334404,-6.6255531,-34.673214,-7.2240043,-37.28756,7.3866916,-12.271658,-178.85721,-43.613365,18.175741,-42.293182,-170.3562,-31.328568,-7.091732,-43.274765,17.263258,-14.248987,14.31638,-36.86372,-52.069775,-34.71011,-7.5448489,-42.320919,-169.86969,-36.949787,-52.094128,-16.395988,149.28093
2514500000,-16.479506,14.426152,-37.257835,6.3429055,-31.341112,-7.8403416,-34.545971,-8.3459148,-37.350773,6.6261449,-12.244574,-179.02016,-43.302135,17.673851,-42.665382,-173.11224,-31.333118,-8.2718,-42.984634,16.696518,-14.201214,13.805964,-36.797283,-52.935974,-34.584618,-8.6520052,-42.695045,-172.5798,-36.880562,-53.00169,-16.415976,148.81808
2515000000,-16.486881,14.097587,-37.329884,5.5255547,-31.352377,-9.0364962,-34.429379,-9.6212502,-37.418232,5.8323555,-12.218184,-179.18329,-43.073181,16.66267,-43.030735,-175.7455,-31.345072,-9.4597282,-42.767563,15.697156,-14.154707,13.300106,-36.72258,-53.920422,-34.471798,-9.9116907,-43.06921,-175.11639,-36.812618,-53.980244,-16.432955,148.37576
2515500000,-16.501539,13.785787,-37.392189,4.708693,-31.371878,-10.2394,-34.328087,-10.987097,-37.487633,4.9991021,-12.192976,-179.35085,-42.901516,15.358191,-43.387779,-178.34471,-31.365074,-10.635396,-42.613804,14.437905,-14.109146,12.798319,-36.65044,-54.880371,-34.371449,-11.25614,-43.433453,-177.64336,-36.744503,-54.983101,-16.446829,147.95601
2516000000,-16.524187,13.504652,-37.46106,3.8091002,-31.399471,-11.387447,-34.241886,-12.425667,-37.571163,4.1039515,-12.165706,-179.5101,-42.814915,13.920742,-43.754864,178.98651,-31.392786,-11.769579,-42.531101,12.900998,-14.063847,12.294683,-36.568153,-55.941189,-34.285652,-12.673965,-43.80822,179.67412,-36.663181,-56.058613,-16.458729,147.52164
2516500000,-16.551828,13.301314,-37.560474,2.9287431,-31.428562,-12.460026,-34.17284,-13.916862,-37.677212,3.2908576,-12.139793,-179.67458,-42.788002,12.451869,-44.145706,176.3954,-31.418941,-12.826093,-42.517792,11.427388,-14.021089,11.785131,-36.482479,-57.121586,-34.214291,-14.148212,-44.195732,177.14552,-36.576572,-57.265213,-16.467142,147.13293
2517000000,-16.581533,13.16246,-37.663055,2.2058537,-31.451733,-13.528567,-34.115021,-15.379417,-37.783432,2.6813266,-12.115613,-179.8548,-42.817635,11.007435,-44.538448,173.9942,-31.4445,-13.896832,-42.545254,9.9770727,-13.982311,11.277882,-36.405968,-58.40163,-34.1576,-15.612149,-44.574966,174.8174,-36.508457,-58.561367,-16.473202,146.73744
2517500000,-16.615467,13.101988,-37.762165,1.5193084,-31.478767,-14.512738,-34.06374,-16.916292,-37.886375,2.1128607,-12.090272,179.97841,-42.946056,9.7145767,-44.929268,171.6057,-31.474199,-14.84591,-42.667068,8.6774282,-13.945006,10.793387,-36.334564,-59.73616,-34.104935,-17.13604,-44.965858,172.47601,-36.440098,-59.914207,-16.475872,146.33902
2518000000,-16.644163,13.126516,-37.856976,0.92213583,-31.494799,-15.463567,-34.025059,-18.455101,-37.966702,1.6217638,-12.065795,179.79617,-43.100334,8.9273891,-45.300526,169.37643,-31.488932,-15.780112,-42.826252,7.7598405,-13.910205,10.330889,-36.266186,-61.130276,-34.064068,-18.692558,-45.355541,170.34888,-36.379421,-61.286892,-16.475271,145.94977
2518500000,-16.668777,13.225776,-37.948456,0.27234781,-31.50032,-16.458811,-34.003586,-20.00885,-38.046463,1.1043124,-12.040915,179.61899,-43.249409,8.4738722,-45.642776,166.99275,-31.495605,-16.753584,-42.978344,7.2130156,-13.876334,9.8972473,-36.204643,-62.538864,-34.043354,-20.243549,-45.704086,167.94096,-36.325981,-62.669014,-16.469557,145.5415
2519000000,-16.684778,13.387283,-38.040054,-0.29496109,-31.507814,-17.501564,-33.995033,-21.533079,-38.119892,0.59252661,-12.014954,179.44142,-43.406487,8.1295986,-46.004055,164.36095,-31.500141,-17.771893,-43.133549,6.7946701,-13.841611,9.4900637,-36.144184,-63.986156,-34.031635,-21.777283,-46.065613,165.3663,-36.269238,-64.113419,-16.459387,145.11417
2519500000,-16.688139,13.58581,-38.129463,-0.86285239,-31.515882,-18.571516,-33.992283,-22.987209,-38.187454,0.033995632,-11.990567,179.2536,-43.560898,8.127305,-46.389523,161.60521,-31.50695,-18.822289,-43.306255,6.6621313,-13.803485,9.1036577,-36.085594,-65.513657,-34.027081,-23.260416,-46.474144,162.66069,-36.215214,-65.621704,-16.446049,144.67131
2520000000,-16.682318,13.798049,-38.221832,-1.4644648,-31.532782,-19.639833,-33.986652,-24.413395,-38.261353,-0.55883896,-11.967583,179.05377,-43.682972,8.3725958,-46.842159,158.8185,-31.520697,-19.901354,-43.454838,6.8232636,-13.763156,8.7307014,-36.033161,-67.136307,-34.02256,-24.705492,-46.937889,159.91301,-36.164688,-67.237144,-16.431059,144.19495
2520500000,-16.664497,14.016008,-38.326492,-1.9776902,-31.550598,-20.70055,-33.984531,-25.878876,-38.349957,-1.122559,-11.943752,178.86308,-43.783134,8.6808014,-47.331982,156.19212,-31.537512,-20.944515,-43.572083,7.0616641,-13.719625,8.3557596,-35.999172,-68.879028,-34.018513,-26.176161,-47.444065,157.47592,-36.133175,-68.944931,-16.414795,143.69366
2521000000,-16.639633,14.217124,-38.439003,-2.3874485,-31.570276,-21.71442,-33.988892,-27.340176,-38.444832,-1.6163708,-11.923292,178.64485,-43.873531,9.0621462,-47.849087,153.86934,-31.554522,-21.951136,-43.676052,7.3116527,-13.672925,7.9719381,-35.981522,-70.575905,-34.025661,-27.665285,-47.96357,155.27097,-36.119034,-70.62532,-16.398481,143.16776
2521500000,-16.603178,14.404571,-38.549168,-2.6774485,-31.583366,-22.691601,-33.994968,-28.765232,-38.546276,-1.9829557,-11.902596,178.42992,-43.94585,9.3362818,-48.369194,151.92162,-31.56675,-22.935781,-43.773445,7.5472722,-13.625704,7.5634503,-35.969997,-72.275261,-34.036648,-29.105309,-48.497826,153.56615,-36.111416,-72.289139,-16.384266,142.60698
2522000000,-16.558809,14.572623,-38.660419,-2.6914914,-31.589193,-23.691055,-33.998245,-30.238171,-38.643452,-2.1300189,-11.882116,178.20418,-44.017902,9.8181553,-48.856392,150.26181,-31.57177,-23.943956,-43.863991,7.902483,-13.577837,7.1463017,-35.972782,-74.002594,-34.047459,-30.576725,-49.006226,152.17772,-36.109402,-73.996567,-16.373692,142.01088
2522500000,-16.506252,14.718453,-38.726597,-2.6338165,-31.590317,-24.722397,-34.005783,-31.730604,-38.706158,-2.1983962,-11.864391,177.97189,-44.055115,10.257912,-49.300613,148.92061,-31.574286,-24.969477,-43.925117,8.3223248,-13.532262,6.7097812,-35.983753,-75.702156,-34.058689,-32.056744,-49.432987,151.18843,-36.121288,-75.680222,-16.366732,141.39888
2523000000,-16.443768,14.836062,-38.775257,-2.6379294,-31.584621,-25.777027,-34.019764,-33.314335,-38.756763,-2.3295958,-11.849524,177.73488,-44.085621,10.638307,-49.650978,147.44066,-31.56912,-26.030701,-43.992397,8.746439,-13.487408,6.2723575,-36.004288,-77.422592,-34.073792,-33.614716,-49.752266,149.98056,-36.142059,-77.377052,-16.36351,140.77859
2523500000,-16.373793,14.924059,-38.812916,-2.6052845,-31.577873,-26.913132,-34.046432,-34.958763,-38.802498,-2.40183,-11.835114,177.51096,-44.131168,11.056711,-49.987663,145.50291,-31.562504,-27.166306,-44.05658,9.1731777,-13.443523,5.8303132,-36.038116,-79.141228,-34.101063,-35.250507,-50.052784,148.21173,-36.175461,-79.078461,-16.365326,140.16765
2524000000,-16.297575,14.981197,-38.833221,-2.524106,-31.57258,-28.108889,-34.095699,-36.624458,-38.84161,-2.4210801,-11.824342,177.27632,-44.162407,11.411889,-50.345203,143.25542,-31.555754,-28.3641,-44.113411,9.6185408,-13.402301,5.3786292,-36.086693,-80.819031,-34.147148,-36.884586,-50.354042,146.08711,-36.215794,-80.763618,-16.371622,139.54271
2524500000,-16.218281,14.987371,-38.827141,-2.4224503,-31.567638,-29.393467,-34.164387,-38.242561,-38.849815,-2.3676212,-11.81332,177.04842,-44.19112,11.756491,-50.735607,140.91212,-31.551205,-29.661224,-44.161499,10.121103,-13.36082,4.9331565,-36.142273,-82.459854,-34.210064,-38.511555,-50.68858,143.79877,-36.27293,-82.393829,-16.382851,138.94629
2525000000,-16.125547,14.959619,-38.79657,-2.464015,-31.569944,-30.739229,-34.24416,-39.848312,-38.829105,-2.4098234,-11.803658,176.82069,-44.229671,11.962449,-51.081966,138.55714,-31.554995,-31.048418,-44.217777,10.459454,-13.319498,4.4891109,-36.207829,-84.015198,-34.28376,-40.130455,-50.997776,141.4819,-36.339844,-83.981171,-16.398636,138.36235
2525500000,-16.029922,14.849164,-38.764534,-2.6533549,-31.580225,-32.165436,-34.343876,-41.429672,-38.811581,-2.5968049,-11.795468,176.59883,-44.30431,12.484879,-51.452961,135.91997,-31.569866,-32.489056,-44.310589,11.051138,-13.277172,4.0301518,-36.282982,-85.519279,-34.384453,-41.760639,-51.342682,138.83801,-36.420464,-85.47187,-16.41741,137.80388
2526000000,-15.931847,14.648705,-38.719418,-2.8589563,-31.608074,-33.693474,-34.469704,-42.949127,-38.782566,-2.7901747,-11.78937,176.36804,-44.354527,12.979009,-51.837185,133.35999,-31.599245,-34.003658,-44.373371,11.689781,-13.23973,3.5577807,-36.362144,-86.896812,-34.50745,-43.298946,-51.704067,136.11488,-36.502087,-86.847939,-16.438637,137.28244
2526500000,-15.82916,14.371401,-38.672161,-3.250654,-31.653723,-35.243355,-34.617367,-44.354244,-38.751171,-3.1657712,-11.784202,176.13956,-44.422081,13.564372,-52.233231,130.94498,-31.646393,-35.568096,-44.454151,12.43483,-13.205559,3.0955045,-36.439873,-88.200935,-34.654171,-44.735966,-52.054764,133.53279,-36.579109,-88.132278,-16.461254,136.77133
2527000000,-15.726824,13.994849,-38.640636,-3.7024138,-31.717226,-36.795925,-34.782932,-45.55407,-38.731949,-3.5561898,-11.781468,175.9084,-44.513168,14.374033,-52.580379,128.73613,-31.712976,-37.140202,-44.546028,13.391235,-13.173722,2.64237,-36.50388,-89.432114,-34.820408,-45.972248,-52.376225,131.05341,-36.649231,-89.338326,-16.483061,136.30284
