!CSV A.01.01
!Keysight Technologies,N5222B,MY58422327,A.13.60.06
!Date: Monday, March 28, 2022 15:12:38
!Source: Standard

BEGIN CH1_DATA
Freq(Hz),S11(DB),S11(DEG),S12(DB),S12(DEG),S13(DB),S13(DEG),S14(DB),S14(DEG),S21(DB),S21(DEG),S22(DB),S22(DEG),S23(DB),S23(DEG),S24(DB),S24(DEG),S31(DB),S31(DEG),S32(DB),S32(DEG),S33(DB),S33(DEG),S34(DB),S34(DEG),S41(DB),S41(DEG),S42(DB),S42(DEG),S43(DB),S43(DEG),S44(DB),S44(DEG)
2500000000,-17.381397,21.883818,-34.168667,32.621899,-32.279892,-4.3910389,-31.339613,2.994138,-34.257355,31.983969,-13.500432,-173.45375,-40.750713,20.46356,-38.998459,-120.45121,-32.272175,-4.2035165,-40.678734,19.990482,-15.873438,23.842533,-34.347752,0.28968108,-31.393734,2.8741267,-39.037266,-121.15175,-34.405693,0.31722191,-16.222103,164.60953
2500500000,-17.372417,21.622126,-34.277103,31.297205,-32.282631,-4.8963151,-31.417362,1.5752182,-34.367882,30.713057,-13.45356,-173.59192,-40.835629,19.464624,-38.91975,-121.89095,-32.274685,-4.7254047,-40.783939,19.070381,-15.823903,23.315559,-34.344231,-0.39312285,-31.470728,1.4613781,-38.954857,-122.48756,-34.402557,-0.38702077,-16.213493,164.19228
2501000000,-17.356897,21.378065,-34.398689,30.02944,-32.279659,-5.3889985,-31.506779,0.20593373,-34.489815,29.502764,-13.404892,-173.71359,-40.92738,18.368933,-38.825985,-123.36692,-32.269054,-5.2367435,-40.889282,18.062103,-15.773905,22.787212,-34.338043,-1.1824073,-31.558811,0.07477358,-38.859497,-123.90041,-34.401714,-1.2093807,-16.204594,163.76143
2501500000,-17.333399,21.150276,-34.514324,28.884516,-32.276428,-5.8426328,-31.603403,-1.0597622,-34.60429,28.417692,-13.359021,-173.84938,-41.029671,17.235662,-38.743668,-124.86687,-32.265926,-5.6687512,-40.998661,17.125441,-15.726396,22.250372,-34.339405,-2.0379651,-31.656183,-1.1964163,-38.769955,-125.381,-34.406811,-2.0789757,-16.193481,163.33163
2502000000,-17.307335,20.884535,-34.625595,27.824196,-32.264828,-6.2537837,-31.702112,-2.2691631,-34.711185,27.385746,-13.314229,-173.9828,-41.14595,16.139021,-38.656868,-126.34937,-32.255302,-6.0991731,-41.102325,16.166224,-15.681957,21.730852,-34.350719,-2.9462264,-31.756468,-2.4234264,-38.670364,-126.82176,-34.42186,-3.0048335,-16.181816,162.88464
2502500000,-17.274557,20.598965,-34.734535,26.838757,-32.247414,-6.6785846,-31.805769,-3.3927517,-34.812511,26.394537,-13.268478,-174.11873,-41.257675,15.032806,-38.560814,-127.81669,-32.2379,-6.4877315,-41.195911,15.18064,-15.639989,21.225426,-34.380234,-3.8657668,-31.861546,-3.5554874,-38.561089,-128.27733,-34.452518,-3.9226019,-16.170601,162.42192
2503000000,-17.237146,20.279087,-34.829769,25.916227,-32.227352,-7.0700383,-31.908272,-4.4543796,-34.902374,25.477003,-13.22609,-174.27988,-41.373718,13.854084,-38.450413,-129.30128,-32.218971,-6.8711424,-41.296078,14.04342,-15.597616,20.745331,-34.420803,-4.6973228,-31.966871,-4.6307244,-38.442081,-129.79915,-34.496506,-4.7443471,-16.158051,161.95518
2503500000,-17.203524,19.914482,-34.910564,24.98245,-32.204014,-7.4186039,-32.015545,-5.44104,-34.977398,24.522215,-13.185423,-174.44354,-41.490768,12.5852,-38.321171,-130.78409,-32.190807,-7.2109551,-41.390343,12.750066,-15.555595,20.28606,-34.465515,-5.3720007,-32.075386,-5.6171069,-38.310829,-131.32875,-34.541889,-5.3989749,-16.145498,161.47623
2504000000,-17.166723,19.527794,-34.981571,24.068081,-32.166962,-7.7056003,-32.122372,-6.3386884,-35.047558,23.579638,-13.145918,-174.60367,-41.631306,11.193924,-38.17276,-132.27141,-32.149399,-7.5045228,-41.515366,11.3188,-15.512447,19.849541,-34.50235,-5.9641247,-32.182068,-6.514873,-38.162384,-132.90079,-34.577095,-5.98035,-16.132677,160.96582
2504500000,-17.130651,19.12619,-35.039188,23.144133,-32.108578,-8.0011597,-32.226902,-7.1350737,-35.106735,22.602037,-13.109808,-174.77419,-41.797817,9.6838274,-37.99099,-133.90022,-32.088692,-7.8090124,-41.672947,9.6847382,-15.466258,19.425379,-34.526848,-6.4183059,-32.291065,-7.3154855,-37.988274,-134.61751,-34.598423,-6.4425335,-16.117435,160.45398
2505000000,-17.092211,18.720743,-35.087383,22.084574,-32.0355,-8.3356056,-32.32357,-7.8370385,-35.159157,21.549007,-13.076819,-174.95338,-42.017136,8.1601162,-37.791988,-135.73601,-32.015446,-8.1545229,-41.887581,8.0625477,-15.418108,19.000223,-34.534477,-6.8160672,-32.38821,-7.9940414,-37.800198,-136.48154,-34.60714,-6.8486681,-16.103807,159.89519
2505500000,-17.052803,18.293282,-35.134098,21.001139,-31.942289,-8.753602,-32.411701,-8.4613018,-35.210133,20.466541,-13.04468,-175.11813,-42.28363,6.6646843,-37.578876,-137.86703,-31.922346,-8.5997753,-42.152519,6.5039182,-15.367163,18.575331,-34.517696,-7.2031379,-32.474976,-8.6088943,-37.599876,-138.60042,-34.587852,-7.2452307,-16.090843,159.32024
2506000000,-17.013908,17.84709,-35.18404,19.810162,-31.83917,-9.3093414,-32.491226,-9.0412722,-35.262398,19.29048,-13.015712,-175.28198,-42.587204,5.3299541,-37.367035,-140.2684,-31.821083,-9.1413174,-42.454136,5.0905633,-15.314939,18.149149,-34.480877,-7.6122999,-32.5536,-9.1714926,-37.393368,-140.98239,-34.551338,-7.67553,-16.078741,158.70743
2506500000,-16.975378,17.390415,-35.246433,18.532204,-31.739712,-9.9844294,-32.557583,-9.5117741,-35.325153,18.007669,-12.989157,-175.44963,-42.938175,4.1304669,-37.164005,-142.98062,-31.717537,-9.8110933,-42.808857,3.8831551,-15.26103,17.719975,-34.424782,-8.0737667,-32.617588,-9.6454973,-37.195068,-143.6033,-34.500801,-8.1607704,-16.069748,158.0735
2507000000,-16.940868,16.925009,-35.325729,17.275188,-31.634283,-10.784601,-32.59996,-9.9602985,-35.401756,16.753767,-12.962444,-175.58784,-43.339352,3.2530711,-36.992893,-145.97556,-31.612522,-10.584605,-43.218105,2.9711034,-15.204972,17.284286,-34.357525,-8.6056175,-32.659256,-10.10468,-37.023212,-146.5408,-34.440971,-8.6911373,-16.065079,157.41389
2507500000,-16.902662,16.468828,-35.417549,16.003069,-31.534239,-11.708396,-32.625957,-10.460153,-35.488598,15.50126,-12.937536,-175.72911,-43.783913,2.8250186,-36.859394,-149.15364,-31.508671,-11.476856,-43.655628,2.5100319,-15.147409,16.846258,-34.27636,-9.2437181,-32.684349,-10.613743,-36.885761,-149.7075,-34.363426,-9.3061886,-16.064234,156.74617
2508000000,-16.870335,15.987387,-35.52076,14.776039,-31.442682,-12.720778,-32.644409,-11.027984,-35.589878,14.251793,-12.91223,-175.85088,-44.245361,2.9641275,-36.769535,-152.45309,-31.412374,-12.469487,-44.109219,2.5868111,-15.090693,16.399292,-34.190014,-9.9856377,-32.70031,-11.196004,-36.788509,-152.9873,-34.280769,-10.015032,-16.067848,156.0797
2508500000,-16.840292,15.492809,-35.636398,13.609844,-31.363615,-13.823748,-32.658016,-11.615232,-35.704624,13.085711,-12.885596,-175.95328,-44.704651,3.6066387,-36.713169,-155.75677,-31.327024,-13.571419,-44.567204,3.216352,-15.030658,15.954694,-34.102531,-10.8272,-32.71542,-11.804867,-36.728325,-156.30981,-34.193016,-10.827962,-16.074839,155.40808
2509000000,-16.819735,14.980374,-35.758736,12.514789,-31.297964,-14.980994,-32.669724,-12.20496,-35.826374,11.965956,-12.860463,-176.06816,-45.137547,4.9491019,-36.692493,-159.08459,-31.252808,-14.747545,-44.995499,4.386549,-14.970926,15.495942,-34.017662,-11.732715,-32.728203,-12.416249,-36.704395,-159.65182,-34.105141,-11.710366,-16.0835,154.74977
2509500000,-16.804243,14.481985,-35.889111,11.5196,-31.244865,-16.166048,-32.672066,-12.80762,-35.954227,10.967206,-12.831988,-176.17259,-45.498798,6.8558817,-36.696861,-162.32832,-31.192244,-15.942534,-45.372669,6.1745358,-14.909732,15.030226,-33.931759,-12.670403,-32.734711,-13.027355,-36.711403,-162.95746,-34.01952,-12.65826,-16.094152,154.09659
2510000000,-16.799168,13.994806,-36.022774,10.628716,-31.2013,-17.349916,-32.667454,-13.43457,-36.090294,10.052998,-12.80159,-176.26532,-45.781502,9.1560822,-36.721527,-165.49683,-31.146015,-17.169178,-45.684814,8.3890257,-14.849435,14.552847,-33.845356,-13.67685,-32.732071,-13.653564,-36.739609,-166.15942,-33.928165,-13.654917,-16.107986,153.43675
2510500000,-16.805872,13.518044,-36.161915,9.903554,-31.16947,-18.542988,-32.655766,-14.103819,-36.229099,9.3009577,-12.772178,-176.37502,-45.979912,11.690603,-36.763493,-168.61188,-31.110714,-18.414564,-45.920254,10.88449,-14.790668,14.056643,-33.756008,-14.715132,-32.720951,-14.334435,-36.789627,-169.29834,-33.836269,-14.702689,-16.121197,152.81435
2511000000,-16.816093,13.08878,-36.289196,9.3715267,-31.148031,-19.722795,-32.644093,-14.846598,-36.356865,8.7429209,-12.742124,-176.47867,-46.061348,14.357934,-36.819187,-171.69069,-31.090057,-19.63447,-46.042606,13.609223,-14.732504,13.548113,-33.660564,-15.843924,-32.711742,-15.053676,-36.852493,-172.37161,-33.740997,-15.845797,-16.137806,152.18738
2511500000,-16.827473,12.70746,-36.378498,8.9308443,-31.133327,-20.854103,-32.63554,-15.591129,-36.453564,8.3062363,-12.710488,-176.5705,-46.02681,16.801081,-36.886433,-174.74771,-31.080244,-20.841066,-46.03825,16.283148,-14.677166,13.028258,-33.565269,-17.054468,-32.705925,-15.794779,-36.927761,-175.4314,-33.64526,-17.088575,-16.15666,151.57507
2512000000,-16.840708,12.363235,-36.442997,8.4608459,-31.118032,-21.940931,-32.626472,-16.303978,-36.520481,7.8284736,-12.678277,-176.67825,-45.914555,18.820387,-36.969467,-177.79272,-31.070169,-21.945038,-45.927624,18.551008,-14.629623,12.481416,-33.47887,-18.374847,-32.697109,-16.497059,-37.020966,-178.45787,-33.558792,-18.435804,-16.17819,150.97884
2512500000,-16.851028,12.036504,-36.491333,7.8517075,-31.112839,-23.049364,-32.613117,-16.974749,-36.575516,7.2571359,-12.646672,-176.78903,-45.747395,20.486666,-37.073154,179.18541,-31.071539,-23.075464,-45.760857,20.467588,-14.584721,11.962651,-33.393684,-19.75738,-32.684341,-17.173244,-37.131359,178.56096,-33.474655,-19.834211,-16.19932,150.41344
2513000000,-16.859201,11.713729,-36.532803,7.1934085,-31.105883,-24.115742,-32.585316,-17.62171,-36.616444,6.6005821,-12.614168,-176.89018,-45.525242,21.501617,-37.195656,176.22815,-31.071701,-24.122498,-45.521111,21.741394,-14.544044,11.449306,-33.31675,-21.236288,-32.657524,-17.816408,-37.262768,175.66386,-33.401203,-21.328747,-16.221209,149.86246
2513500000,-16.867548,11.394287,-36.571224,6.3830891,-31.098206,-25.174461,-32.542446,-18.295547,-36.657528,5.8228812,-12.582096,-176.99651,-45.292782,21.850464,-37.340839,173.4003,-31.069429,-25.151775,-45.258949,22.171158,-14.507115,10.953974,-33.252338,-22.760574,-32.614777,-18.484503,-37.411594,172.89432,-33.339668,-22.865427,-16.242889,149.3311
2514000000,-16.879875,11.068278,-36.623234,5.5140018,-31.088236,-26.235355,-32.483002,-19.056492,-36.707355,4.9889765,-12.549355,-177.10446,-45.096252,21.555319,-37.493752,170.67197,-31.066072,-26.169846,-45.018322,21.953274,-14.470446,10.486613,-33.200348,-24.336527,-32.557182,-19.233784,-37.560539,170.27007,-33.290325,-24.451668,-16.265902,148.80264
2514500000,-16.892237,10.767498,-36.69096,4.5853229,-31.08292,-27.309988,-32.413834,-19.905375,-36.773521,4.0803475,-12.516953,-177.21857,-44.963093,20.758396,-37.655197,168.04309,-31.063419,-27.205149,-44.868008,21.050667,-14.435359,10.032629,-33.160316,-25.930538,-32.48893,-20.093088,-37.719799,167.70856,-33.253441,-26.049835,-16.287128,148.30618
2515000000,-16.906797,10.482364,-36.783756,3.7503157,-31.083168,-28.400309,-32.337273,-20.892237,-36.859718,3.2355034,-12.485424,-177.33087,-44.930973,19.825165,-37.824905,165.56923,-31.062302,-28.236683,-44.812248,20.026983,-14.399889,9.6011696,-33.13348,-27.52236,-32.414738,-21.062542,-37.882107,165.28148,-33.233276,-27.637272,-16.306932,147.82646
2515500000,-16.926373,10.217748,-36.870617,3.0186591,-31.087229,-29.494659,-32.261265,-22.016804,-36.941967,2.4723125,-12.454054,-177.44447,-44.947567,18.99308,-37.989735,163.2262,-31.063099,-29.270527,-44.815674,18.992268,-14.363256,9.1882963,-33.116768,-29.046022,-32.337513,-22.17613,-38.040863,162.96063,-33.21883,-29.178455,-16.323875,147.37108
2516000000,-16.952574,9.9763222,-36.964134,2.3163953,-31.100641,-30.571665,-32.190784,-23.275312,-37.031082,1.740165,-12.420365,-177.54317,-45.01688,18.175508,-38.155636,160.85806,-31.06889,-30.300896,-44.889225,17.99242,-14.325311,8.790843,-33.099133,-30.568054,-32.26667,-23.437723,-38.192028,160.64392,-33.205067,-30.688364,-16.339684,146.90234
2516500000,-16.982689,9.7997818,-37.069233,1.7170992,-31.120075,-31.61376,-32.135971,-24.658302,-37.13287,1.0872126,-12.386735,-177.64645,-45.131599,17.526426,-38.329678,158.58972,-31.081469,-31.300554,-45.012966,17.256184,-14.285048,8.3936157,-33.083775,-32.104622,-32.211906,-24.819597,-38.352505,158.3833,-33.195141,-32.203785,-16.352222,146.47769
2517000000,-17.013519,9.6823444,-37.164505,1.3562448,-31.138779,-32.607769,-32.099834,-26.096132,-37.22805,0.68148845,-12.352922,-177.76425,-45.275284,16.950062,-38.490067,156.5188,-31.09129,-32.274452,-45.16515,16.67205,-14.244617,7.9996066,-33.078251,-33.659157,-32.172581,-26.259193,-38.513752,156.30383,-33.191956,-33.742481,-16.362232,146.04048
2517500000,-17.050211,9.625493,-37.244541,1.0596567,-31.167744,-33.504791,-32.076992,-27.581081,-37.310268,0.29085195,-12.31681,-177.87335,-45.509651,16.717165,-38.656483,154.47276,-31.111032,-33.167484,-45.420483,16.453615,-14.203283,7.6207314,-33.083092,-35.182732,-32.150188,-27.750509,-38.666401,154.25372,-33.193848,-35.250458,-16.369967,145.60158
2518000000,-17.083052,9.6481943,-37.298969,0.83981347,-31.181162,-34.306538,-32.071007,-29.07477,-37.375999,-0.01730217,-12.280677,-178.00011,-45.755951,17.072306,-38.818676,152.5448,-31.11591,-33.989491,-45.675243,16.840822,-14.161199,7.2547326,-33.086159,-36.675529,-32.145222,-29.240147,-38.816776,152.27762,-33.19891,-36.719849,-16.374208,145.16946
2518500000,-17.111891,9.7461796,-37.334679,0.61580569,-31.178892,-35.10791,-32.083241,-30.552645,-37.431625,-0.35141554,-12.244179,-178.13455,-45.984676,17.899729,-38.958847,150.6525,-31.108873,-34.814861,-45.901718,17.761646,-14.117954,6.8962379,-33.092781,-38.149742,-32.160549,-30.706444,-38.9529,150.3515,-33.202435,-38.156845,-16.37516,144.70587
2519000000,-17.132982,9.8878622,-37.350639,0.36774603,-31.16596,-35.951973,-32.107445,-31.945072,-37.472431,-0.58288717,-12.206011,-178.27048,-46.195553,19.038841,-39.096458,148.80098,-31.092281,-35.682819,-46.106686,18.952242,-14.072548,6.5431943,-33.097702,-39.640209,-32.185047,-32.097,-39.084675,148.39288,-33.203285,-39.626675,-16.372719,144.22916
2519500000,-17.142511,10.065199,-37.346962,0.044158317,-31.148417,-36.847729,-32.137264,-33.256451,-37.494129,-0.86467475,-12.168237,-178.41934,-46.403206,20.763502,-39.228859,146.90868,-31.072104,-36.624542,-46.287743,20.614126,-14.023627,6.1945477,-33.103386,-41.166714,-32.21508,-33.394989,-39.218987,146.45084,-33.208549,-41.132759,-16.369312,143.73947
2520000000,-17.14365,10.245966,-37.334705,-0.39149624,-31.130251,-37.798477,-32.162548,-34.492966,-37.506744,-1.2138776,-12.131374,-178.58788,-46.522179,22.895063,-39.371689,145.04762,-31.053434,-37.614891,-46.397789,22.576756,-13.973551,5.8427095,-33.119728,-42.685505,-32.241714,-34.630608,-39.358593,144.53867,-33.218735,-42.661644,-16.36582,143.22813
2520500000,-17.13591,10.422169,-37.323391,-0.89372212,-31.114281,-38.758522,-32.18261,-35.712154,-37.51445,-1.5711849,-12.092607,-178.75346,-46.557678,25.192465,-39.514225,143.29572,-31.038315,-38.605194,-46.443615,24.743513,-13.921093,5.4781694,-33.142803,-44.205967,-32.263432,-35.83017,-39.4981,142.74092,-33.236649,-44.175533,-16.362167,142.6987
2521000000,-17.12398,10.591799,-37.310719,-1.4578518,-31.094994,-39.731804,-32.200176,-36.938148,-37.509274,-1.9440469,-12.057308,-178.95615,-46.502235,27.450033,-39.644234,141.61906,-31.022299,-39.610836,-46.419437,26.92247,-13.86701,5.0961843,-33.167545,-45.673386,-32.280807,-37.049503,-39.630798,141.04683,-33.257229,-45.673248,-16.360172,142.15506
2521500000,-17.102497,10.750373,-37.301689,-2.12133,-31.075026,-40.698429,-32.212791,-38.158112,-37.501118,-2.416688,-12.021399,-179.16693,-46.392296,29.540138,-39.761703,140.05907,-31.003073,-40.609535,-46.326637,28.938385,-13.812876,4.6862979,-33.190765,-47.182598,-32.293556,-38.252129,-39.753498,139.43689,-33.277737,-47.161568,-16.361393,141.59633
2522000000,-17.075197,10.896803,-37.301151,-2.7536569,-31.046589,-41.725166,-32.22089,-39.422283,-37.488842,-2.9149334,-11.986297,-179.39731,-46.239231,31.487156,-39.859127,138.51726,-30.978851,-41.659084,-46.198997,30.828909,-13.759009,4.2602615,-33.221088,-48.684814,-32.302189,-39.534775,-39.853432,137.8613,-33.306381,-48.684563,-16.364981,141.02875
2522500000,-17.040779,11.033361,-37.296711,-3.4263756,-31.0189,-42.790813,-32.229832,-40.747543,-37.471191,-3.4408338,-11.95416,-179.64499,-46.024071,33.138748,-39.937962,136.98143,-30.955017,-42.743271,-46.000088,32.681065,-13.709454,3.8159635,-33.260902,-50.17762,-32.310734,-40.845169,-39.926712,136.29681,-33.342323,-50.184986,-16.371244,140.45937
2523000000,-16.998247,11.150971,-37.297794,-4.1556001,-30.98633,-43.878979,-32.239929,-42.149014,-37.451744,-4.0994873,-11.925522,-179.90794,-45.802177,34.410152,-39.990425,135.37556,-30.927298,-43.824463,-45.794746,34.051102,-13.660195,3.3664851,-33.300762,-51.653294,-32.320782,-42.242794,-39.98542,134.61862,-33.381119,-51.696518,-16.37904,139.89735
2523500000,-16.949316,11.251966,-37.313511,-4.8513799,-30.951212,-45.059303,-32.259914,-43.645103,-37.452053,-4.7730041,-11.898778,179.83606,-45.582893,35.55262,-40.037323,133.62413,-30.895182,-45.00499,-45.571346,35.339863,-13.614222,2.9090252,-33.351151,-53.142426,-32.344177,-43.720585,-40.037266,132.83897,-33.429287,-53.221779,-16.388605,139.35661
2524000000,-16.89683,11.337173,-37.332016,-5.4475718,-30.918917,-46.299641,-32.298206,-45.179348,-37.451817,-5.3926492,-11.87739,179.56931,-45.335594,36.594612,-40.089489,131.79056,-30.866438,-46.232033,-45.326,36.38929,-13.571704,2.4474881,-33.41111,-54.611897,-32.381035,-45.262543,-40.088692,130.98189,-33.487366,-54.708183,-16.399418,138.80576
2524500000,-16.841919,11.398658,-37.335487,-5.9616728,-30.887072,-47.625465,-32.353722,-46.711117,-37.448364,-5.9538937,-11.856774,179.30704,-45.076984,37.310295,-40.142181,129.90317,-30.837748,-47.54311,-45.061577,37.140339,-13.528696,1.9959971,-33.480942,-56.019268,-32.437042,-46.789822,-40.151073,129.08182,-33.55616,-56.142391,-16.413105,138.27435
2525000000,-16.774305,11.456026,-37.334427,-6.4977808,-30.863531,-49.017109,-32.421993,-48.244514,-37.43195,-6.565033,-11.838408,179.04344,-44.847725,37.722187,-40.18634,127.96516,-30.81518,-48.908371,-44.828571,37.628983,-13.486624,1.5534271,-33.55154,-57.336918,-32.504665,-48.324745,-40.203358,127.17314,-33.630505,-57.487148,-16.429161,137.7507
2525500000,-16.701891,11.460785,-37.327927,-7.0309491,-30.843222,-50.500175,-32.510189,-49.759068,-37.421104,-7.1512628,-11.822593,178.79469,-44.623318,38.50507,-40.235931,125.98141,-30.794163,-50.358391,-44.603451,38.497482,-13.442756,1.0952388,-33.62075,-58.59864,-32.592403,-49.84697,-40.258678,125.23016,-33.706985,-58.763088,-16.44618,137.24963
2526000000,-16.623646,11.404257,-37.299026,-7.5133705,-30.840479,-52.070374,-32.620655,-51.236233,-37.399014,-7.7337065,-11.808935,178.53052,-44.353462,38.881069,-40.297009,123.95773,-30.784586,-51.909668,-44.315407,38.950199,-13.404303,0.62455034,-33.695305,-59.79916,-32.701267,-51.33762,-40.32375,123.22388,-33.784164,-59.976372,-16.46294,136.76933
2526500000,-16.535671,11.286646,-37.256851,-8.1400461,-30.848471,-53.6926,-32.74971,-52.621754,-37.36734,-8.4220037,-11.7971,178.27321,-44.100582,39.086601,-40.367691,122.00696,-30.791759,-53.52113,-44.043167,39.181606,-13.367966,0.16674988,-33.764908,-60.928074,-32.831295,-52.718128,-40.390705,121.30055,-33.853676,-61.114578,-16.481113,136.28549
2527000000,-16.443478,11.070404,-37.222805,-8.9294987,-30.879354,-55.326107,-32.901291,-53.878262,-37.337612,-9.1933336,-11.787766,178.01482,-43.875587,39.132877,-40.424046,120.11164,-30.816963,-55.163921,-43.804081,39.219467,-13.33374,-0.2865116,-33.832462,-62.045807,-32.98122,-53.988068,-40.44104,119.41396,-33.920197,-62.225956,-16.498253,135.82896
