!CSV A.01.01
!Keysight Technologies,N5222B,MY58422327,A.13.60.06
!Date: Monday, March 28, 2022 15:13:54
!Source: Standard

BEGIN CH1_DATA
Freq(Hz),S11(DB),S11(DEG),S12(DB),S12(DEG),S13(DB),S13(DEG),S14(DB),S14(DEG),S21(DB),S21(DEG),S22(DB),S22(DEG),S23(DB),S23(DEG),S24(DB),S24(DEG),S31(DB),S31(DEG),S32(DB),S32(DEG),S33(DB),S33(DEG),S34(DB),S34(DEG),S41(DB),S41(DEG),S42(DB),S42(DEG),S43(DB),S43(DEG),S44(DB),S44(DEG)
2500000000,-17.252512,22.422117,-34.861774,35.242325,-31.773157,-1.229435,-31.312178,6.969409,-34.897686,35.107895,-13.509676,-173.68092,-40.845451,10.588746,-39.189232,-118.05939,-31.738028,-1.297708,-40.787319,10.598435,-15.836645,24.646614,-34.532711,3.3424666,-31.371611,6.8089719,-39.199753,-118.10931,-34.614304,3.2092886,-16.235867,164.55945
2500500000,-17.240437,22.103628,-34.963375,34.053288,-31.7766,-1.8261491,-31.375538,5.6061225,-34.999336,33.9104,-13.462617,-173.80309,-40.967579,9.3086252,-39.088333,-119.54727,-31.743073,-1.91515,-40.909016,9.3512526,-15.784575,24.110544,-34.524361,2.7077456,-31.435398,5.4596148,-39.101334,-119.57212,-34.607738,2.5527086,-16.226475,164.16612
2501000000,-17.223917,21.804392,-35.068523,32.945965,-31.77536,-2.4180179,-31.447149,4.2801151,-35.110825,32.773411,-13.414009,-173.90761,-41.101849,7.910563,-38.979221,-121.15017,-31.743883,-2.4887588,-41.039608,7.9861345,-15.73181,23.572844,-34.5112,1.917541,-31.507559,4.1401963,-38.993176,-121.15784,-34.596912,1.767481,-16.215517,163.75548
2501500000,-17.201473,21.521748,-35.165031,31.931477,-31.774477,-2.9239407,-31.525049,3.0517402,-35.210251,31.731344,-13.367569,-174.02649,-41.257706,6.5421128,-38.886215,-122.79843,-31.745062,-3.0012093,-41.190784,6.6613007,-15.681613,23.030859,-34.510818,1.0604255,-31.586927,2.9287713,-38.895382,-122.80395,-34.596405,0.91856986,-16.201925,163.34236
2502000000,-17.177376,21.213783,-35.251064,30.929586,-31.769478,-3.3923569,-31.606596,1.8835135,-35.302776,30.729656,-13.321901,-174.14467,-41.424053,5.2575178,-38.794041,-124.40311,-31.739887,-3.4881802,-41.354816,5.3803391,-15.633533,22.496948,-34.519283,0.14006731,-31.666821,1.7598389,-38.795334,-124.40749,-34.608265,0.0098552667,-16.187889,162.91338
2502500000,-17.147495,20.894791,-35.331356,29.961241,-31.755199,-3.8551743,-31.693098,0.79036885,-35.389141,29.7651,-13.275058,-174.26573,-41.591949,3.9961641,-38.695759,-125.96829,-31.726274,-3.9418836,-41.529331,4.1085792,-15.589538,21.978094,-34.549034,-0.76603657,-31.749016,0.67026591,-38.693569,-125.94693,-34.636463,-0.88077891,-16.173418,162.45686
2503000000,-17.113434,20.544334,-35.401035,29.02561,-31.740639,-4.3078899,-31.775717,-0.22966954,-35.461781,28.839552,-13.231219,-174.41466,-41.760452,2.7627087,-38.584179,-127.56108,-31.710491,-4.3934107,-41.694679,2.8418775,-15.544087,21.483532,-34.587795,-1.5631993,-31.832182,-0.36600864,-38.578888,-127.56781,-34.674908,-1.6781639,-16.158068,161.99953
2503500000,-17.08346,20.155764,-35.456963,28.004662,-31.719681,-4.6948757,-31.859625,-1.169855,-35.519814,27.852419,-13.188212,-174.56871,-41.916763,1.4765588,-38.460941,-129.13277,-31.690947,-4.7806396,-41.847103,1.5339462,-15.499877,21.004499,-34.630703,-2.1985109,-31.914009,-1.313427,-38.454422,-129.1588,-34.716236,-2.304471,-16.142616,161.52477
2504000000,-17.050385,19.749084,-35.508739,26.966755,-31.683187,-5.0306439,-31.939095,-2.0370526,-35.575397,26.837305,-13.14623,-174.7224,-42.083748,0.066030882,-38.31279,-130.74309,-31.655567,-5.103991,-42.018524,0.11119945,-15.453916,20.543377,-34.660294,-2.744693,-31.993998,-2.2137313,-38.307743,-130.76697,-34.745937,-2.851532,-16.127176,161.01563
2504500000,-17.019476,19.328989,-35.556789,25.848204,-31.62925,-5.3386593,-32.01265,-2.8242652,-35.624104,25.762804,-13.107677,-174.89253,-42.259766,-1.5806351,-38.135799,-132.49001,-31.60216,-5.4262748,-42.196083,-1.5527265,-15.405151,20.096586,-34.672264,-3.1618531,-32.069202,-3.0319769,-38.13015,-132.51213,-34.76186,-3.286458,-16.109882,160.5027
2505000000,-16.985506,18.919432,-35.608097,24.646393,-31.557442,-5.6944962,-32.073677,-3.5572524,-35.674404,24.575304,-13.071779,-175.07466,-42.484016,-3.3361468,-37.942829,-134.42812,-31.531694,-5.7783055,-42.431915,-3.2676644,-15.355918,19.64513,-34.667446,-3.5313101,-32.133049,-3.7942424,-37.941456,-134.48494,-34.758778,-3.6800611,-16.094566,159.94409
2505500000,-16.95118,18.496689,-35.667294,23.436407,-31.467119,-6.1396437,-32.131622,-4.296875,-35.728748,23.376686,-13.037163,-175.24675,-42.764431,-5.1370645,-37.738491,-136.6656,-31.439352,-6.2173305,-42.69902,-5.0772462,-15.304143,19.191378,-34.638882,-3.9321723,-32.19315,-4.5244751,-37.74284,-136.717,-34.728764,-4.0643363,-16.079567,159.3678
2506000000,-16.915806,18.063099,-35.731018,22.13912,-31.363508,-6.6994696,-32.180363,-5.0020375,-35.788597,22.095232,-13.006017,-175.42328,-43.074749,-6.9023213,-37.537701,-139.10938,-31.336689,-6.7693539,-43.025272,-6.8495178,-15.251298,18.740652,-34.59087,-4.3905826,-32.246204,-5.2349052,-37.539623,-139.17773,-34.684406,-4.5244141,-16.065613,158.75728
2506500000,-16.879787,17.627184,-35.811733,20.797564,-31.254438,-7.3743377,-32.2192,-5.6525869,-35.865143,20.747301,-12.977778,-175.6073,-43.454155,-8.6110172,-37.346058,-141.88948,-31.229321,-7.4467196,-43.394768,-8.5184431,-15.197758,18.283031,-34.529533,-4.8991861,-32.291447,-5.8638463,-37.352993,-141.98206,-34.625084,-5.0400267,-16.054453,158.12738
2507000000,-16.846006,17.183104,-35.909443,19.497915,-31.144007,-8.1847544,-32.242672,-6.3098879,-35.95805,19.459934,-12.950057,-175.76262,-43.907478,-10.097553,-37.182575,-144.94926,-31.116068,-8.2542276,-43.847324,-10.054781,-15.14297,17.822975,-34.456497,-5.483717,-32.315636,-6.4959316,-37.190228,-145.02702,-34.552219,-5.6165204,-16.0478,157.4697
2507500000,-16.807209,16.743559,-36.017422,18.21406,-31.038492,-9.1378422,-32.257908,-7.0218363,-36.060635,18.200649,-12.925587,-175.92017,-44.419357,-11.191024,-37.05891,-148.20332,-31.007849,-9.2072353,-44.361477,-11.147856,-15.086814,17.360422,-34.37339,-6.173315,-32.329201,-7.191092,-37.063961,-148.28355,-34.468006,-6.2693677,-16.044315,156.80391
2508000000,-16.773277,16.26973,-36.136467,16.96895,-30.935974,-10.216308,-32.272366,-7.7907777,-36.178936,16.961628,-12.901535,-176.05707,-44.964596,-11.779157,-36.979328,-151.53412,-30.907665,-10.287583,-44.922695,-11.71275,-15.031626,16.891445,-34.288414,-6.9483681,-32.342232,-7.9441409,-36.977474,-151.58932,-34.38208,-7.0659738,-16.045187,156.13449
2508500000,-16.741879,15.782689,-36.269135,15.806789,-30.845903,-11.394355,-32.290123,-8.5768042,-36.3097,15.80896,-12.875833,-176.17297,-45.541649,-11.762977,-36.933155,-154.89371,-30.816343,-11.46186,-45.50132,-11.689156,-14.973057,16.427485,-34.204224,-7.8045516,-32.359138,-8.7225294,-36.93412,-154.94136,-34.299393,-7.9135852,-16.048525,155.46051
2509000000,-16.72002,15.274058,-36.407116,14.724215,-30.772795,-12.66151,-32.309429,-9.3369169,-36.447735,14.727541,-12.852007,-176.2995,-46.127659,-11.068837,-36.922859,-158.23563,-30.74362,-12.713797,-46.094486,-10.989495,-14.915752,15.954485,-34.123264,-8.7039375,-32.375145,-9.4725084,-36.92083,-158.26199,-34.21603,-8.80441,-16.053234,154.79243
2509500000,-16.703352,14.771523,-36.562725,13.751706,-30.716145,-13.952766,-32.327,-10.064569,-36.596237,13.746936,-12.825354,-176.41354,-46.674728,-9.6519938,-36.938473,-161.51573,-30.686087,-13.999485,-46.644833,-9.5919886,-14.857491,15.47439,-34.040527,-9.6056633,-32.388771,-10.194977,-36.936859,-161.56068,-34.130711,-9.7411203,-16.060392,154.12778
2510000000,-16.697441,14.278564,-36.719063,12.946584,-30.674007,-15.249556,-32.335102,-10.7858,-36.754715,12.915537,-12.796915,-176.51576,-47.173218,-7.6603537,-36.979076,-164.72762,-30.640291,-15.302677,-47.145046,-7.5527592,-14.798864,14.995422,-33.94915,-10.561696,-32.394115,-10.913421,-36.977196,-164.75191,-34.041935,-10.686696,-16.070427,153.4478
2510500000,-16.703674,13.805097,-36.880867,12.344209,-30.644693,-16.558029,-32.333416,-11.511771,-36.912483,12.273753,-12.769828,-176.62947,-47.621902,-5.2440515,-37.032551,-167.87717,-30.608109,-16.632551,-47.599072,-5.0061483,-14.741608,14.497153,-33.848846,-11.571528,-32.393593,-11.661336,-37.033321,-167.88358,-33.94318,-11.707781,-16.081367,152.79834
2511000000,-16.712141,13.387732,-37.025311,11.960205,-30.62808,-17.828909,-32.331753,-12.275618,-37.05526,11.859732,-12.741252,-176.73253,-47.955315,-2.2414408,-37.096992,-170.98036,-30.589413,-17.91256,-47.936932,-1.9016939,-14.68395,13.989051,-33.740097,-12.67545,-32.391869,-12.431034,-37.106415,-170.99025,-33.837757,-12.81194,-16.096266,152.13998
2511500000,-16.722221,13.012523,-37.130306,11.700283,-30.623476,-19.074339,-32.330967,-13.051791,-37.159924,11.563342,-12.710821,-176.82474,-48.164551,1.0945047,-37.177818,-174.06442,-30.584297,-19.172371,-48.13118,1.3356372,-14.628832,13.462003,-33.628063,-13.898865,-32.390495,-13.212694,-37.19117,-174.05997,-33.727264,-14.045552,-16.114384,151.49797
2512000000,-16.731903,12.669809,-37.205971,11.401811,-30.618826,-20.270151,-32.328362,-13.810833,-37.233376,11.252588,-12.679825,-176.92909,-48.234612,4.2552691,-37.277267,-177.06787,-30.578571,-20.352306,-48.219429,4.6254721,-14.581005,12.91383,-33.522614,-15.281242,-32.38596,-13.977232,-37.284111,-177.05739,-33.62542,-15.435295,-16.134993,150.87508
2512500000,-16.738262,12.337907,-37.263538,11.010886,-30.626015,-21.449619,-32.318394,-14.52207,-37.294754,10.856275,-12.648551,-177.0428,-48.212749,7.3169889,-37.39645,179.97791,-30.585598,-21.54755,-48.172657,7.6871228,-14.536448,12.385027,-33.426762,-16.75119,-32.379242,-14.683933,-37.402607,179.94972,-33.530006,-16.870943,-16.156134,150.28644
2513000000,-16.742769,12.006305,-37.306282,10.550744,-30.632458,-22.565472,-32.296852,-15.193486,-37.342903,10.384728,-12.617011,-177.15112,-48.054329,9.7660398,-37.533184,177.06964,-30.590229,-22.663185,-48.004578,10.101092,-14.495679,11.861657,-33.344574,-18.309383,-32.358471,-15.353647,-37.54081,177.04301,-33.447865,-18.422022,-16.178797,149.71097
2513500000,-16.747356,11.676319,-37.350578,9.9637175,-30.637674,-23.648853,-32.259521,-15.909138,-37.390816,9.7801447,-12.586324,-177.26544,-47.843945,11.374891,-37.684441,174.3186,-30.597446,-23.770277,-47.788921,11.562917,-14.458694,11.355451,-33.276802,-19.917873,-32.321011,-16.060806,-37.693081,174.27821,-33.381115,-20.027678,-16.201847,149.1571
2514000000,-16.757374,11.330528,-37.399323,9.3129139,-30.642733,-24.723528,-32.21233,-16.691952,-37.443489,9.1275568,-12.555438,-177.38,-47.614811,12.088496,-37.840977,171.67792,-30.602234,-24.850134,-47.568661,12.277105,-14.422446,10.873685,-33.223694,-21.543886,-32.270393,-16.836824,-37.849548,171.64899,-33.322601,-21.651821,-16.225922,148.60435
2514500000,-16.76712,11.008843,-37.461956,8.5845394,-30.647589,-25.811098,-32.152721,-17.542158,-37.510384,8.4122791,-12.525063,-177.49701,-47.454823,11.975579,-38.002495,169.1049,-30.60733,-25.930273,-47.404388,12.152706,-14.38913,10.405115,-33.181931,-23.194715,-32.210384,-17.702478,-38.010628,169.0948,-33.280552,-23.305563,-16.249323,148.09181
2515000000,-16.779421,10.699543,-37.541409,7.9432173,-30.656176,-26.896837,-32.089626,-18.501223,-37.591679,7.8031154,-12.49547,-177.60971,-47.387966,11.458074,-38.176182,166.63115,-30.614166,-27.009726,-47.343227,11.581577,-14.355663,9.9607601,-33.150463,-24.822678,-32.145569,-18.670574,-38.179005,166.65735,-33.252773,-24.942289,-16.271725,147.59969
2515500000,-16.79812,10.407048,-37.617172,7.4002247,-30.667963,-27.996412,-32.023529,-19.579224,-37.667099,7.2616892,-12.466385,-177.71916,-47.383095,10.866699,-38.341358,164.34384,-30.624788,-28.117998,-47.348522,11.053863,-14.321465,9.5386133,-33.128914,-26.40403,-32.079918,-19.75449,-38.33791,164.33768,-33.228741,-26.547913,-16.291332,147.13124
2516000000,-16.823843,10.14379,-37.697044,6.8541908,-30.684809,-29.066315,-31.960798,-20.776602,-37.746826,6.7205534,-12.434622,-177.81219,-47.453148,10.17872,-38.499237,162.03256,-30.641493,-29.187372,-47.405228,10.421933,-14.285739,9.1351805,-33.101723,-27.999292,-32.020077,-20.958599,-38.494614,162.01132,-33.203815,-28.13442,-16.309603,146.65356
2516500000,-16.852839,9.9500856,-37.787022,6.390265,-30.708786,-30.116743,-31.910036,-22.078894,-37.83926,6.3231039,-12.402167,-177.91287,-47.58942,9.4806767,-38.665714,159.80925,-30.663446,-30.228706,-47.530781,9.7729502,-14.248415,8.7369375,-33.079643,-29.64868,-31.96981,-22.257219,-38.662987,159.75406,-33.185081,-29.767183,-16.323915,146.22226
2517000000,-16.883202,9.8164654,-37.866653,6.1830812,-30.731834,-31.122269,-31.872084,-23.442822,-37.912544,6.1521702,-12.36998,-178.02786,-47.790501,8.8313999,-38.839287,157.73158,-30.68593,-31.231699,-47.717045,9.1042128,-14.210388,8.3462772,-33.071232,-31.320824,-31.933567,-23.616991,-38.832607,157.66229,-33.176754,-31.443535,-16.336199,145.78719
2517500000,-16.919127,9.7403116,-37.933743,6.0021949,-30.764395,-32.032032,-31.848217,-24.84655,-37.976818,5.9838877,-12.334908,-178.13452,-48.116295,8.4814539,-39.000389,155.71304,-30.718674,-32.141117,-48.054024,8.6814766,-14.171617,7.9767971,-33.075054,-32.9757,-31.907904,-25.01759,-38.992409,155.64458,-33.17905,-33.098793,-16.345192,145.35374
2518000000,-16.9508,9.7462978,-37.975864,5.9251618,-30.782928,-32.850857,-31.83762,-26.264851,-38.00885,5.8968921,-12.299789,-178.26131,-48.496147,8.765151,-39.150948,153.77194,-30.736431,-32.9711,-48.443726,9.0499249,-14.130982,7.618341,-33.08466,-34.58847,-31.897324,-26.435028,-39.150665,153.68851,-33.187378,-34.708027,-16.350315,144.92117
2518500000,-16.977802,9.8242817,-37.998074,5.8463387,-30.7852,-33.656723,-31.841326,-27.672834,-38.030384,5.793313,-12.265153,-178.39813,-48.896324,9.9057217,-39.3008,151.9119,-30.740002,-33.790298,-48.85828,10.241638,-14.088114,7.270762,-33.092918,-36.185043,-31.903362,-27.840738,-39.300339,151.81816,-33.196495,-36.292942,-16.351128,144.46577
2519000000,-16.997271,9.9399195,-38.001007,5.7507734,-30.778278,-34.502083,-31.857203,-29.017595,-38.027771,5.7077184,-12.228833,-178.5332,-49.30249,11.410455,-39.440678,150.04005,-30.732908,-34.641319,-49.267017,11.756211,-14.044094,6.9331603,-33.104969,-37.785778,-31.920031,-29.191429,-39.440014,149.91164,-33.208092,-37.912582,-16.348837,143.9912
2519500000,-17.005444,10.094611,-37.979767,5.6151309,-30.765018,-35.39867,-31.880087,-30.277908,-38.007286,5.5484228,-12.193382,-178.68184,-49.718513,13.941916,-39.576153,148.19096,-30.721548,-35.547283,-49.686405,14.358099,-13.995401,6.5977454,-33.122192,-39.419086,-31.941896,-30.441214,-39.577896,148.06538,-33.227898,-39.538357,-16.343761,143.50223
2520000000,-17.006369,10.248023,-37.946453,5.3573775,-30.751492,-36.347759,-31.897917,-31.477692,-37.969936,5.316009,-12.15865,-178.84317,-50.056503,17.47632,-39.715282,146.38641,-30.711927,-36.483757,-49.985371,17.884214,-13.94451,6.2595482,-33.147648,-41.035992,-31.959509,-31.634472,-39.709934,146.20827,-33.254456,-41.16888,-16.338221,142.9845
2520500000,-16.999304,10.402933,-37.906769,5.0595717,-30.73797,-37.288494,-31.907866,-32.646534,-37.927448,5.048039,-12.122758,-178.99953,-50.272911,21.722984,-39.855618,144.6841,-30.70002,-37.441071,-50.199371,22.098181,-13.89098,5.9081364,-33.182541,-42.640682,-31.968609,-32.797344,-39.851391,144.50974,-33.288208,-42.759804,-16.332575,142.44165
2521000000,-16.98675,10.546936,-37.853577,4.6837401,-30.721327,-38.264603,-31.914442,-33.822601,-37.871128,4.6389341,-12.089816,-179.18881,-50.330509,26.260803,-39.981823,143.10022,-30.684231,-38.401043,-50.249035,26.67001,-13.835524,5.538403,-33.219673,-44.206367,-31.973001,-33.973022,-39.979725,142.91071,-33.325226,-44.318283,-16.328253,141.87183
2521500000,-16.965269,10.682251,-37.798588,4.1827273,-30.699081,-39.241539,-31.912012,-35.008499,-37.812359,4.1285257,-12.055735,-179.38042,-50.22422,30.802422,-40.092407,141.65541,-30.664938,-39.368641,-50.137878,31.331202,-13.779272,5.1373892,-33.254902,-45.772484,-31.970224,-35.145344,-40.088161,141.48994,-33.361046,-45.877178,-16.328503,141.28336
2522000000,-16.937456,10.800936,-37.741817,3.6565316,-30.67124,-40.2897,-31.900564,-36.267426,-37.754868,3.5720954,-12.022587,-179.59016,-50.00721,35.190556,-40.16713,140.25381,-30.637018,-40.40163,-49.906086,35.719261,-13.723452,4.716146,-33.297623,-47.398602,-31.960903,-36.413273,-40.164745,140.0762,-33.403675,-47.481506,-16.332548,140.67958
2522500000,-16.90346,10.907029,-37.671467,3.0111783,-30.645519,-41.392189,-31.892897,-37.590359,-37.685753,2.9025664,-11.991953,-179.81963,-49.620937,38.989521,-40.2169,138.79713,-30.609737,-41.489098,-49.524014,39.534267,-13.670957,4.2720838,-33.350849,-48.988094,-31.952871,-37.753136,-40.212055,138.61598,-33.457478,-49.085098,-16.340006,140.07228
2523000000,-16.861176,10.991696,-37.60743,2.2098808,-30.61484,-42.526764,-31.886887,-39.016171,-37.627129,2.0737326,-11.964274,179.9379,-49.205204,41.97493,-40.239552,137.22574,-30.581017,-42.622334,-49.096951,42.629433,-13.61961,3.8208954,-33.411484,-50.571613,-31.947666,-39.182537,-40.234425,137.02097,-33.515121,-50.6637,-16.351313,139.47527
2523500000,-16.813807,11.057652,-37.56559,1.3527434,-30.583031,-43.756107,-31.89554,-40.564896,-37.591873,1.1850696,-11.938016,179.7025,-48.763878,44.68573,-40.251461,135.49359,-30.551443,-43.859425,-48.633984,45.26989,-13.570518,3.356472,-33.484634,-52.149979,-31.955896,-40.722038,-40.245075,135.27148,-33.586983,-52.249763,-16.366009,138.90291
2524000000,-16.763775,11.113185,-37.538792,0.49927115,-30.561287,-45.045475,-31.922567,-42.152138,-37.568153,0.33213827,-11.916431,179.45448,-48.254089,46.865314,-40.254002,133.60655,-30.527662,-45.153446,-48.132099,47.388035,-13.52597,2.8825233,-33.568512,-53.685532,-31.982761,-42.309326,-40.256233,133.35915,-33.67157,-53.789101,-16.382915,138.32816
2524500000,-16.712133,11.140879,-37.509758,-0.3171902,-30.53956,-46.420856,-31.969189,-43.742767,-37.548595,-0.5115695,-11.895319,179.21239,-47.716118,48.381859,-40.265789,131.60542,-30.508591,-46.521656,-47.579918,48.925255,-13.481198,2.4160392,-33.668491,-55.146202,-32.030628,-43.879749,-40.272133,131.37125,-33.768803,-55.246994,-16.403057,137.78183
2525000000,-16.648682,11.175052,-37.484425,-1.1578144,-30.528654,-47.829472,-32.030266,-45.31839,-37.529217,-1.3677735,-11.875903,178.96706,-47.221676,49.166252,-40.276089,129.51801,-30.497038,-47.928455,-47.087631,49.572529,-13.438106,1.9552437,-33.7714,-56.505688,-32.091877,-45.45805,-40.291256,129.26469,-33.872402,-56.593128,-16.42535,137.25586
2525500000,-16.58145,11.160312,-37.470654,-1.9975185,-30.524061,-49.284081,-32.110977,-46.882282,-37.521637,-2.1974654,-11.858574,178.73041,-46.740902,50.130112,-40.294804,127.32955,-30.492912,-49.38343,-46.611843,50.426128,-13.39353,1.4803853,-33.87738,-57.768288,-32.173378,-47.01619,-40.313232,127.08363,-33.978077,-57.856312,-16.44767,136.75378
2526000000,-16.507414,11.100252,-37.45343,-2.7603617,-30.528807,-50.823036,-32.215668,-48.375271,-37.511127,-2.9484763,-11.843142,178.48167,-46.22319,50.340729,-40.325226,125.06198,-30.498459,-50.932152,-46.104435,50.597607,-13.355157,0.98999631,-33.986923,-58.917923,-32.275761,-48.522827,-40.351593,124.84556,-34.089394,-59.011887,-16.470379,136.28195
2526500000,-16.422895,10.983896,-37.429871,-3.5922549,-30.547138,-52.410801,-32.338779,-49.786301,-37.490025,-3.756182,-11.829105,178.23228,-45.766163,50.120602,-40.371502,122.80235,-30.520102,-52.5023,-45.65102,50.310383,-13.319944,0.51289463,-34.089607,-59.968277,-32.398628,-49.944195,-40.397057,122.61758,-34.191917,-60.054581,-16.492998,135.80966
2527000000,-16.333368,10.774216,-37.417465,-4.4823327,-30.580826,-54.006493,-32.483597,-51.06514,-37.477077,-4.5919971,-11.817685,177.97952,-45.368717,49.723785,-40.414043,120.59513,-30.556919,-54.086834,-45.245125,49.829384,-13.286986,0.047975577,-34.188332,-60.961971,-32.541969,-51.217926,-40.437191,120.41012,-34.288563,-61.036594,-16.514412,135.37149
