!CSV A.01.01
!Keysight Technologies,N5222B,MY58422327,A.13.60.06
!Date: Monday, March 28, 2022 15:14:38
!Source: Standard

BEGIN CH1_DATA
Freq(Hz),S11(DB),S11(DEG),S12(DB),S12(DEG),S13(DB),S13(DEG),S14(DB),S14(DEG),S21(DB),S21(DEG),S22(DB),S22(DEG),S23(DB),S23(DEG),S24(DB),S24(DEG),S31(DB),S31(DEG),S32(DB),S32(DEG),S33(DB),S33(DEG),S34(DB),S34(DEG),S41(DB),S41(DEG),S42(DB),S42(DEG),S43(DB),S43(DEG),S44(DB),S44(DEG)
2500000000,-17.28467,22.274769,-34.761955,35.063103,-31.804552,-2.1399231,-31.330618,7.0339184,-34.794178,34.947201,-13.514911,-173.71521,-40.719376,10.786303,-39.108173,-116.68206,-31.768959,-2.243398,-40.679955,10.796241,-15.8375,24.564312,-34.60553,3.5554087,-31.384672,6.8696995,-39.115932,-116.7598,-34.678875,3.517719,-16.220566,164.61174
2500500000,-17.273306,21.968193,-34.866848,33.850727,-31.802845,-2.753782,-31.393419,5.6792951,-34.898888,33.701233,-13.467864,-173.83156,-40.844612,9.4391594,-39.013294,-118.21004,-31.7728,-2.8613701,-40.805328,9.4682522,-15.78478,24.027241,-34.591446,2.9052126,-31.447687,5.5070763,-39.018925,-118.28955,-34.663105,2.8841646,-16.211079,164.21352
2501000000,-17.257305,21.680698,-34.98193,32.690735,-31.799576,-3.3533041,-31.463915,4.364368,-35.015778,32.532051,-13.418938,-173.93164,-40.981991,7.9993477,-38.910816,-119.82608,-31.774479,-3.4489186,-40.941845,8.0551767,-15.732104,23.489283,-34.575584,2.1148536,-31.519796,4.1821308,-38.916115,-119.90401,-34.645748,2.0777547,-16.200243,163.80121
2501500000,-17.236235,21.409702,-35.085499,31.667917,-31.80191,-3.8924327,-31.543739,3.1518862,-35.122604,31.473219,-13.371912,-174.04756,-41.142746,6.612639,-38.820618,-121.50407,-31.776247,-3.973784,-41.10223,6.7183394,-15.682501,22.946669,-34.565937,1.2420504,-31.600113,2.9565175,-38.828239,-121.5708,-34.637978,1.1825052,-16.187338,163.38614
2502000000,-17.212938,21.111607,-35.181232,30.701584,-31.796751,-4.3894348,-31.623205,1.9850793,-35.223114,30.473795,-13.325118,-174.16306,-41.323414,5.2904139,-38.729942,-123.13657,-31.774288,-4.4555154,-41.272823,5.4735498,-15.635194,22.413399,-34.57196,0.30190399,-31.680248,1.7789357,-38.738022,-123.21091,-34.644512,0.23230474,-16.173698,162.95628
2502500000,-17.183395,20.804399,-35.265446,29.773325,-31.787373,-4.8600326,-31.706402,0.8988241,-35.315773,29.531231,-13.277658,-174.28273,-41.49519,4.0897164,-38.636253,-124.74226,-31.762365,-4.9168468,-41.437428,4.2827759,-15.590919,21.896566,-34.597858,-0.64128697,-31.765905,0.70251727,-38.643753,-124.78364,-34.670975,-0.71435052,-16.159937,162.50116
2503000000,-17.149717,20.469734,-35.337486,28.875431,-31.777836,-5.3072467,-31.788548,-0.11283457,-35.39217,28.648106,-13.233471,-174.43329,-41.666145,2.9112687,-38.527802,-126.3723,-31.748571,-5.358212,-41.600281,3.1037259,-15.546281,21.404579,-34.638573,-1.4818412,-31.848391,-0.32058567,-38.531853,-126.40069,-34.714806,-1.5547447,-16.145205,162.04388
2503500000,-17.119005,20.095127,-35.390812,27.912729,-31.76066,-5.6956577,-31.869194,-1.05994,-35.451195,27.715353,-13.190644,-174.58649,-41.819561,1.6776296,-38.406761,-127.97713,-31.728174,-5.7401733,-41.746758,1.8004507,-15.503081,20.929125,-34.685478,-2.1365092,-31.932629,-1.2619134,-38.406506,-127.98217,-34.758179,-2.2283213,-16.12965,161.57063
2504000000,-17.08523,19.702682,-35.440777,26.894947,-31.73127,-6.0090294,-31.947792,-1.937705,-35.505871,26.745592,-13.148159,-174.7404,-41.980804,0.30627456,-38.265434,-129.61824,-31.696093,-6.0660481,-41.900623,0.39694142,-15.457211,20.474554,-34.719807,-2.693759,-32.010883,-2.1402202,-38.264145,-129.6227,-34.793762,-2.7759438,-16.114271,161.06528
2504500000,-17.052336,19.295559,-35.487759,25.793447,-31.678667,-6.31567,-32.021164,-2.7558296,-35.551098,25.704105,-13.108922,-174.91014,-42.149792,-1.3131248,-38.095036,-131.411,-31.642948,-6.3787575,-42.072121,-1.2339382,-15.40888,20.036873,-34.737705,-3.1290784,-32.086224,-2.9455519,-38.09222,-131.38878,-34.814327,-3.2206385,-16.09647,160.55511
2505000000,-17.016373,18.893223,-35.539707,24.61211,-31.611275,-6.6688375,-32.08416,-3.495436,-35.598984,24.563292,-13.07328,-175.09509,-42.368027,-3.0490274,-37.908989,-133.36478,-31.576685,-6.7329516,-42.284451,-3.0408263,-15.359252,19.589636,-34.737282,-3.4983971,-32.149765,-3.6782444,-37.904381,-133.3448,-34.818596,-3.5848081,-16.080387,159.99963
2505500000,-16.979898,18.473404,-35.595516,23.430178,-31.52602,-7.0815654,-32.139839,-4.2288771,-35.647842,23.388214,-13.038936,-175.26825,-42.63039,-4.8532171,-37.710175,-135.60039,-31.489925,-7.1663628,-42.554607,-4.9184947,-15.306595,19.143257,-34.711246,-3.8671439,-32.207016,-4.3949742,-37.703777,-135.57503,-34.79174,-3.9710534,-16.064337,159.42232
2506000000,-16.943468,18.035994,-35.657055,22.184963,-31.425486,-7.622859,-32.189396,-4.9415479,-35.703594,22.142443,-13.008031,-175.44623,-42.934544,-6.7089691,-37.51263,-138.08778,-31.392632,-7.6876597,-42.867714,-6.777565,-15.25299,18.693834,-34.665085,-4.2722263,-32.255829,-5.086833,-37.50602,-138.04968,-34.74942,-4.3744359,-16.050154,158.80917
2506500000,-16.905966,17.595718,-35.733715,20.871,-31.321699,-8.2476206,-32.229713,-5.5923667,-35.773319,20.819221,-12.980294,-175.62752,-43.309036,-8.5212088,-37.32637,-140.86816,-31.288477,-8.3273945,-43.255295,-8.5802307,-15.198597,18.238544,-34.601288,-4.758029,-32.297382,-5.7345152,-37.319839,-140.83322,-34.688721,-4.8432755,-16.038578,158.17793
2507000000,-16.871634,17.145657,-35.822586,19.619064,-31.209024,-9.0298796,-32.25378,-6.2434921,-35.856728,19.548599,-12.95294,-175.78494,-43.765305,-10.100781,-37.163319,-143.94118,-31.177387,-9.093998,-43.706818,-10.118925,-15.142435,17.780922,-34.526157,-5.3077083,-32.31916,-6.3785887,-37.157997,-143.90927,-34.617119,-5.387465,-16.030764,157.51712
2507500000,-16.83275,16.699556,-35.916893,18.372252,-31.097025,-9.9408369,-32.268177,-6.9579854,-35.947285,18.288702,-12.928563,-175.94193,-44.288643,-11.275814,-37.039715,-147.1937,-31.06941,-9.9943008,-44.233936,-11.231929,-15.085841,17.31744,-34.436996,-5.9657898,-32.330952,-7.0876274,-37.034397,-147.15005,-34.529995,-6.0489616,-16.026442,156.84618
2508000000,-16.799295,16.221439,-36.021961,17.124638,-30.993418,-10.99962,-32.283283,-7.7312832,-36.052711,17.032518,-12.904373,-176.07832,-44.846306,-11.868545,-36.956272,-150.55481,-30.965837,-11.036801,-44.795227,-11.842512,-15.030186,16.844778,-34.345295,-6.7246442,-32.342808,-7.8598795,-36.955296,-150.51115,-34.439335,-6.8058624,-16.026381,156.17245
2508500000,-16.769127,15.734806,-36.140621,15.92995,-30.900822,-12.16979,-32.30135,-8.5121517,-36.169331,15.811772,-12.878665,-176.19211,-45.434048,-11.796667,-36.914726,-153.92265,-30.872173,-12.183871,-45.379402,-11.739141,-14.971588,16.376453,-34.25721,-7.5696683,-32.359447,-8.6431274,-36.914143,-153.90236,-34.349281,-7.6580091,-16.029381,155.49397
2509000000,-16.747616,15.224376,-36.272243,14.780017,-30.825634,-13.412656,-32.319172,-9.2787704,-36.299747,14.629297,-12.854744,-176.31688,-46.020168,-11.081835,-36.911259,-157.28566,-30.792891,-13.421413,-45.980442,-10.991369,-14.914141,15.899728,-34.169727,-8.4893713,-32.376183,-9.4102764,-36.911411,-157.27089,-34.260746,-8.5743465,-16.033878,154.82143
2509500000,-16.731184,14.727081,-36.418072,13.739525,-30.764555,-14.714838,-32.333717,-9.9926624,-36.448078,13.549572,-12.827909,-176.43036,-46.574982,-9.6518707,-36.937252,-160.57018,-30.729269,-14.707666,-46.52639,-9.4226961,-14.856134,15.4206,-34.080952,-9.438797,-32.389378,-10.145127,-36.935421,-160.55986,-34.174187,-9.5196142,-16.041315,154.14922
2510000000,-16.725546,14.241179,-36.572994,12.830201,-30.718227,-16.013992,-32.338432,-10.72155,-36.608707,12.614603,-12.799165,-176.53123,-47.069801,-7.5927782,-36.984547,-163.78072,-30.679979,-16.03318,-47.008667,-7.3707271,-14.797407,14.936462,-33.989948,-10.423483,-32.395397,-10.880588,-36.981922,-163.77078,-34.081692,-10.509379,-16.051464,153.46581
2510500000,-16.731874,13.774397,-36.738728,12.141653,-30.687462,-17.329277,-32.338066,-11.467729,-36.776688,11.900846,-12.771296,-176.64331,-47.510197,-5.0689692,-37.047005,-166.91209,-30.645145,-17.352627,-47.436462,-4.8394861,-14.740686,14.435022,-33.891891,-11.462893,-32.396198,-11.647604,-37.045773,-166.90565,-33.984921,-11.54542,-16.062748,152.81425
2511000000,-16.740377,13.359799,-36.886238,11.690391,-30.667591,-18.626493,-32.334797,-12.254274,-36.930271,11.448927,-12.742487,-176.74939,-47.852715,-1.9147069,-37.123142,-169.97038,-30.626028,-18.674326,-47.764011,-1.6858708,-14.683202,13.921393,-33.788483,-12.590369,-32.395973,-12.424396,-37.120502,-169.98448,-33.88271,-12.685238,-16.077852,152.15508
2511500000,-16.749836,12.988009,-36.99876,11.377537,-30.66114,-19.893551,-32.334389,-13.041144,-37.049885,11.150537,-12.712057,-176.84253,-48.033237,1.4454188,-37.213558,-173.01997,-30.618933,-19.968966,-47.941463,1.5732552,-14.62844,13.396328,-33.682709,-13.81624,-32.39769,-13.194302,-37.209335,-173.03287,-33.77726,-13.918086,-16.096186,151.51262
2512000000,-16.759356,12.646924,-37.075619,11.061266,-30.654926,-21.100927,-32.332878,-13.795618,-37.134739,10.863985,-12.681216,-176.9532,-48.095264,4.6161819,-37.320068,-175.9904,-30.614229,-21.154362,-47.99147,4.5941415,-14.58115,12.845784,-33.585701,-15.19601,-32.39415,-13.935958,-37.316444,-176.02492,-33.681465,-15.299081,-16.117393,150.88799
2512500000,-16.766161,12.316566,-37.138195,10.632931,-30.659544,-22.307425,-32.326778,-14.501793,-37.200268,10.525648,-12.650905,-177.06688,-48.041611,7.6080375,-37.439415,-178.92978,-30.621002,-22.359314,-47.94836,7.5483041,-14.536756,12.316053,-33.490051,-16.616348,-32.387314,-14.637253,-37.436855,-178.98297,-33.588287,-16.729071,-16.138739,150.29486
2513000000,-16.771317,11.988659,-37.185856,10.160669,-30.668934,-23.458452,-32.304218,-15.182066,-37.245762,10.092566,-12.619718,-177.17441,-47.873222,10.003839,-37.578087,178.20505,-30.628342,-23.509722,-47.783588,9.819253,-14.497012,11.795442,-33.406418,-18.163168,-32.365189,-15.313927,-37.574417,178.14374,-33.508114,-18.251656,-16.161823,149.71674
2513500000,-16.776945,11.665943,-37.232342,9.5464048,-30.678436,-24.581133,-32.268475,-15.889405,-37.289799,9.5258389,-12.589508,-177.28418,-47.649937,11.530137,-37.733829,175.46785,-30.638462,-24.601278,-47.566071,11.263957,-14.460306,11.294273,-33.337444,-19.754642,-32.328373,-16.020338,-37.726643,175.38425,-33.438786,-19.81995,-16.185171,149.16098
2514000000,-16.78635,11.329896,-37.285225,8.8775749,-30.688139,-25.676113,-32.217945,-16.671518,-37.337154,8.8857279,-12.558602,-177.39563,-47.401089,12.188731,-37.890167,172.84436,-30.644909,-25.676205,-47.345188,11.899418,-14.42408,10.812757,-33.278351,-21.383749,-32.277859,-16.788492,-37.88525,172.77219,-33.378582,-21.435328,-16.209669,148.61037
2514500000,-16.795996,11.01613,-37.353767,8.1605854,-30.700838,-26.761061,-32.158371,-17.527723,-37.397137,8.2198248,-12.527999,-177.51077,-47.230061,11.932894,-38.054489,170.26468,-30.653425,-26.764034,-47.177887,11.699466,-14.390117,10.34712,-33.23204,-23.053722,-32.218136,-17.643454,-38.046883,170.19208,-33.330662,-23.078321,-16.233463,148.09856
2515000000,-16.808022,10.711289,-37.435482,7.5427675,-30.714872,-27.832476,-32.093719,-18.493778,-37.472015,7.6073632,-12.498047,-177.62323,-47.152969,11.281712,-38.227116,167.84103,-30.662508,-27.839184,-47.11235,11.119645,-14.356155,9.9016371,-33.199543,-24.719202,-32.152153,-18.610792,-38.21925,167.74709,-33.299881,-24.734716,-16.255238,147.60556
2515500000,-16.826332,10.422943,-37.514355,6.9990425,-30.732151,-28.886866,-32.02647,-19.547312,-37.542522,7.0352907,-12.468613,-177.73041,-47.143017,10.607962,-38.391399,165.52048,-30.675493,-28.922905,-47.099552,10.469975,-14.322564,9.4779949,-33.174534,-26.33712,-32.083714,-19.692934,-38.384727,165.41225,-33.274467,-26.346762,-16.273973,147.13412
2516000000,-16.851322,10.160719,-37.596489,6.4672513,-30.751305,-29.922037,-31.962891,-20.764835,-37.616566,6.4697976,-12.43641,-177.82666,-47.195934,9.7299986,-38.554092,163.2101,-30.694149,-29.987669,-47.163109,9.6439123,-14.28689,9.0699434,-33.150978,-27.96382,-32.021713,-20.896759,-38.548553,163.08521,-33.24707,-27.96583,-16.291725,146.64894
2516500000,-16.880037,9.9689579,-37.690601,6.0590458,-30.7736,-30.921291,-31.911339,-22.076982,-37.708824,6.0471487,-12.404009,-177.93106,-47.339985,8.7839966,-38.726204,160.99591,-30.718328,-31.016504,-47.292446,8.7334261,-14.250442,8.6694555,-33.13377,-29.636297,-31.971472,-22.213827,-38.723717,160.8309,-33.228271,-29.635878,-16.306501,146.21393
2517000000,-16.9104,9.8352985,-37.767185,5.9201002,-30.792049,-31.90102,-31.874027,-23.448576,-37.781868,5.8437219,-12.372164,-178.05078,-47.549034,7.9401307,-38.900219,158.91362,-30.740421,-32.001774,-47.498901,7.9128971,-14.213305,8.2813225,-33.130379,-31.322639,-31.933313,-23.577726,-38.89777,158.76678,-33.222702,-31.328213,-16.319782,145.77203
2517500000,-16.947008,9.7637386,-37.827095,5.7618561,-30.81959,-32.791584,-31.850231,-24.863152,-37.840557,5.6977921,-12.337833,-178.15874,-47.906448,7.3627486,-39.06712,156.88649,-30.77161,-32.91119,-47.862396,7.3952909,-14.174911,7.9167461,-33.136024,-32.972462,-31.906801,-24.986568,-39.062546,156.73642,-33.228252,-32.98296,-16.32954,145.33333
2518000000,-16.978527,9.7765274,-37.858253,5.6924376,-30.833876,-33.614346,-31.840343,-26.288431,-37.869736,5.5620308,-12.303461,-178.28416,-48.330997,7.6425991,-39.226227,154.93721,-30.788883,-33.723946,-48.281216,7.6942792,-14.134994,7.5651569,-33.146362,-34.572605,-31.897493,-26.415888,-39.223934,154.77719,-33.239071,-34.60202,-16.335854,144.90298
2518500000,-17.004921,9.8607483,-37.867558,5.5639553,-30.832233,-34.430344,-31.848518,-27.696493,-37.889172,5.4123392,-12.268814,-178.41687,-48.748009,8.858511,-39.377151,153.0632,-30.790604,-34.534012,-48.708492,8.8658133,-14.091888,7.2265878,-33.15881,-36.153378,-31.904125,-27.831774,-39.376701,152.88553,-33.249176,-36.193031,-16.337521,144.4478
2519000000,-17.023788,9.9815178,-37.861546,5.4394298,-30.823639,-35.295689,-31.868063,-29.042955,-37.882843,5.2806578,-12.233068,-178.5493,-49.18327,10.482273,-39.524166,151.21396,-30.78294,-35.395927,-49.124607,10.576335,-14.046627,6.8935027,-33.173172,-37.74934,-31.921944,-29.183428,-39.525436,151.01289,-33.262478,-37.815105,-16.335941,143.97757
2519500000,-17.031088,10.138824,-37.833832,5.2248445,-30.810177,-36.216301,-31.889961,-30.293543,-37.863007,5.08114,-12.197848,-178.69374,-49.620636,13.220135,-39.667274,149.37498,-30.770933,-36.30806,-49.55827,13.351779,-13.996997,6.5595164,-33.191711,-39.358791,-31.945705,-30.445469,-39.671787,149.18205,-33.283192,-39.425316,-16.331114,143.4926
2520000000,-17.031099,10.289085,-37.797806,4.8660483,-30.797251,-37.177025,-31.907694,-31.479385,-37.829586,4.7794847,-12.163666,-178.85371,-49.950584,16.793621,-39.815342,147.58357,-30.758396,-37.263016,-49.883282,16.844799,-13.945496,6.2216101,-33.220787,-40.96682,-31.963755,-31.632427,-39.821373,147.36597,-33.313858,-41.040478,-16.325523,142.98213
2520500000,-17.02269,10.441636,-37.758247,4.5165124,-30.783655,-38.143764,-31.91671,-32.64423,-37.788132,4.421124,-12.127584,-179.00923,-50.159061,21.052746,-39.958134,145.9346,-30.745651,-38.219498,-50.091526,21.078959,-13.89139,5.8647842,-33.256737,-42.563122,-31.973137,-32.790615,-39.970055,145.70966,-33.350437,-42.614239,-16.319271,142.43703
2521000000,-17.009398,10.579228,-37.710442,4.039382,-30.769028,-39.138641,-31.921257,-33.818417,-37.738091,3.9824183,-12.094411,-179.19644,-50.195686,25.750488,-40.09214,144.38014,-30.731865,-39.207462,-50.13311,25.627369,-13.835643,5.4860859,-33.294899,-44.099129,-31.977711,-33.959057,-40.108097,144.14336,-33.386738,-44.170956,-16.314783,141.8721
2521500000,-16.987089,10.706451,-37.661018,3.4775701,-30.751215,-40.127773,-31.917557,-34.998604,-37.688469,3.4254825,-12.060344,-179.39024,-50.079494,30.234911,-40.209194,142.97856,-30.712225,-40.193333,-50.066105,30.079012,-13.779655,5.0792718,-33.329918,-45.648266,-31.975193,-35.145573,-40.232906,142.76326,-33.422142,-45.709991,-16.314985,141.28496
2522000000,-16.959991,10.82005,-37.615528,2.905683,-30.726635,-41.174244,-31.906654,-36.283249,-37.641087,2.8345382,-12.027061,-179.60097,-49.847759,34.693012,-40.287552,141.59813,-30.688828,-41.238655,-49.845913,34.590141,-13.723916,4.6553884,-33.370838,-47.240292,-31.965693,-36.430073,-40.308582,141.41795,-33.463814,-47.298462,-16.318384,140.67938
2522500000,-16.92746,10.91823,-37.559238,2.2643309,-30.70487,-42.260513,-31.899019,-37.6292,-37.585072,2.1692665,-11.99645,-179.82947,-49.43866,38.466904,-40.336761,140.1756,-30.668253,-42.3162,-49.457504,38.469585,-13.671784,4.2077394,-33.423267,-48.831749,-31.958715,-37.767391,-40.362186,140.01167,-33.51527,-48.886715,-16.326504,140.07254
2523000000,-16.887508,11.003758,-37.51231,1.460474,-30.678072,-43.378159,-31.894726,-39.067131,-37.534222,1.3583523,-11.968416,179.92946,-49.004478,41.274883,-40.354187,138.63176,-30.642004,-43.419472,-49.003548,41.56517,-13.621275,3.7540636,-33.480545,-50.399551,-31.954584,-39.210278,-40.380024,138.49295,-33.573208,-50.462132,-16.337456,139.47195
2523500000,-16.842304,11.075851,-37.479713,0.64662802,-30.651335,-44.583282,-31.905548,-40.596836,-37.500988,0.52560306,-11.942015,179.69753,-48.550938,43.711998,-40.359303,136.94647,-30.611635,-44.611259,-48.519337,44.21241,-13.572859,3.2914717,-33.548119,-51.982723,-31.966204,-40.757992,-40.386078,136.81459,-33.640282,-52.061218,-16.35194,138.89938
2524000000,-16.793884,11.143754,-37.44878,-0.12868713,-30.626196,-45.815823,-31.934538,-42.183212,-37.478046,-0.30279338,-11.920181,179.45068,-48.058514,45.634121,-40.359859,135.05949,-30.585175,-45.876335,-48.007458,46.158981,-13.529124,2.8229361,-33.631168,-53.522503,-31.995785,-42.343754,-40.386604,134.94026,-33.725048,-53.608719,-16.367981,138.32208
2524500000,-16.743076,11.188766,-37.418861,-0.91522956,-30.603466,-47.135101,-31.980394,-43.760616,-37.453239,-1.0901188,-11.898862,179.20648,-47.546734,47.00127,-40.369572,133.07678,-30.561781,-47.20789,-47.480591,47.434799,-13.484756,2.357862,-33.729008,-54.983639,-32.043468,-43.914974,-40.401749,132.9548,-33.823368,-55.058651,-16.387375,137.77484
2525000000,-16.680031,11.239145,-37.391083,-1.7523501,-30.585552,-48.55167,-32.042023,-45.331913,-37.427219,-1.9210768,-11.879418,178.96133,-47.081379,47.629139,-40.381302,130.99405,-30.546257,-48.618336,-47.002644,47.978149,-13.441648,1.8978881,-33.832024,-56.345432,-32.107948,-45.49358,-40.418449,130.88126,-33.92569,-56.437405,-16.409069,137.24416
2525500000,-16.611864,11.24216,-37.374222,-2.5840993,-30.573145,-50.011501,-32.12252,-46.88987,-37.415089,-2.73105,-11.86205,178.72502,-46.64782,48.495594,-40.39547,128.83115,-30.537352,-50.091377,-46.55526,48.775711,-13.396727,1.4245077,-33.939163,-57.630543,-32.189034,-47.050426,-40.434052,128.73518,-34.033154,-57.706444,-16.431557,136.73956
2526000000,-16.535933,11.190957,-37.357399,-3.3490467,-30.576448,-51.568398,-32.226643,-48.390537,-37.394802,-3.4673982,-11.846919,178.47643,-46.164795,48.70908,-40.419666,126.5888,-30.537489,-51.657478,-46.076584,48.986042,-13.358557,0.93409848,-34.050823,-58.796947,-32.292557,-48.542805,-40.45787,126.47006,-34.146137,-58.867523,-16.453939,136.26089
2526500000,-16.449867,11.073281,-37.3284,-4.1881847,-30.592072,-53.170986,-32.347225,-49.807186,-37.365311,-4.3476229,-11.833054,178.22891,-45.729195,48.563385,-40.456257,124.32967,-30.554384,-53.255756,-45.642342,48.739086,-13.323758,0.45646492,-34.157696,-59.834419,-32.415092,-49.951183,-40.493202,124.21387,-34.249866,-59.942692,-16.476707,135.78264
2527000000,-16.359552,10.857259,-37.309097,-5.0805259,-30.625818,-54.780567,-32.490211,-51.078232,-37.350891,-5.2431984,-11.821986,177.97548,-45.355579,48.214703,-40.495125,122.04314,-30.590479,-54.884899,-45.272217,48.343338,-13.291397,-0.0089684697,-34.256687,-60.821026,-32.555592,-51.223774,-40.532932,121.9406,-34.351357,-60.909157,-16.499149,135.33878
