!CSV A.01.01
!Keysight Technologies,N5222B,MY58422327,A.13.60.06
!Date: Monday, March 28, 2022 15:25:41
!Source: Standard

BEGIN CH1_DATA
Freq(Hz),S11(DB),S11(DEG),S12(DB),S12(DEG),S13(DB),S13(DEG),S14(DB),S14(DEG),S21(DB),S21(DEG),S22(DB),S22(DEG),S23(DB),S23(DEG),S24(DB),S24(DEG),S31(DB),S31(DEG),S32(DB),S32(DEG),S33(DB),S33(DEG),S34(DB),S34(DEG),S41(DB),S41(DEG),S42(DB),S42(DEG),S43(DB),S43(DEG),S44(DB),S44(DEG)
2500000000,-17.183552,25.623247,-34.149906,38.098076,-32.203499,22.340261,-34.582058,4.1004639,-34.191341,37.996662,-13.147395,-174.28371,-39.243828,26.114668,-40.504551,-76.544228,-32.172253,22.22401,-39.175831,26.052427,-15.7932,28.156864,-36.813499,-36.155304,-34.670048,3.8671212,-40.522263,-76.578842,-36.888866,-36.082474,-16.218645,163.8506
2500500000,-17.164705,25.291069,-34.23642,36.911423,-32.157677,21.576134,-34.68845,2.720192,-34.275429,36.780666,-13.103087,-174.44876,-39.355904,25.248846,-40.448925,-78.394714,-32.128525,21.455967,-39.286823,25.226131,-15.737447,27.55991,-36.890137,-36.641857,-34.780754,2.5513315,-40.462746,-78.401428,-36.965542,-36.570415,-16.214418,163.46373
2501000000,-17.143793,24.964743,-34.326889,35.740215,-32.111172,20.769024,-34.816353,1.4309919,-34.36797,35.604725,-13.057418,-174.60243,-39.47348,24.32263,-40.392445,-80.37941,-32.085037,20.656992,-39.401714,24.296255,-15.682344,26.965225,-36.946537,-37.267239,-34.905499,1.3270898,-40.40321,-80.403816,-37.021282,-37.194542,-16.209471,163.06624
2501500000,-17.118979,24.648954,-34.402824,34.645737,-32.069057,19.968939,-34.955135,0.30624163,-34.44677,34.507015,-13.014837,-174.77179,-39.604454,23.467035,-40.343811,-82.38636,-32.043678,19.861692,-39.527214,23.428751,-15.631119,26.36969,-37.006042,-37.979027,-35.037136,0.25087646,-40.352947,-82.426247,-37.075298,-37.902344,-16.201651,162.67259
2502000000,-17.095592,24.308071,-34.473755,33.533104,-32.026348,19.169096,-35.098244,-0.72445214,-34.518333,33.385864,-12.973515,-174.93816,-39.731617,22.678236,-40.287624,-84.378731,-32.002441,19.058243,-39.657333,22.639893,-15.583271,25.789707,-37.070892,-38.789539,-35.172386,-0.73436642,-40.295536,-84.448082,-37.134445,-38.718876,-16.193121,162.26678
2502500000,-17.068317,23.967388,-34.53875,32.42057,-31.988688,18.345392,-35.247517,-1.5842397,-34.586521,32.279655,-12.931994,-175.10184,-39.847984,21.973515,-40.22105,-86.434135,-31.967102,18.231434,-39.773872,21.89669,-15.53828,25.230974,-37.151684,-39.662544,-35.314693,-1.5802454,-40.230591,-86.527512,-37.207382,-39.59647,-16.183611,161.84271
2503000000,-17.037802,23.617775,-34.599346,31.308744,-31.960043,17.575932,-35.394463,-2.3136437,-34.64846,31.181799,-12.893222,-175.29099,-39.958591,21.211706,-40.145386,-88.621292,-31.94117,17.467243,-39.881214,21.099695,-15.493705,24.703142,-37.254463,-40.474224,-35.452457,-2.3383336,-40.161106,-88.740448,-37.30547,-40.471348,-16.172461,161.41269
2503500000,-17.01079,23.239777,-34.652252,30.126701,-31.93465,16.901823,-35.539307,-2.9041276,-34.699909,30.019949,-12.855085,-175.47993,-40.053764,20.359533,-40.05687,-90.846367,-31.917139,16.797028,-39.982079,20.262629,-15.450714,24.203648,-37.37534,-41.131329,-35.593227,-2.9635291,-40.077236,-90.994675,-37.422951,-41.198151,-16.160975,160.97081
2504000000,-16.979582,22.858191,-34.705387,28.903288,-31.895432,16.310791,-35.677559,-3.3795557,-34.75354,28.820896,-12.817552,-175.67133,-40.150867,19.397192,-39.956051,-93.284348,-31.88266,16.211178,-40.081173,19.297379,-15.405074,23.731264,-37.494152,-41.644352,-35.725307,-3.4588418,-39.981899,-93.402321,-37.541546,-41.775013,-16.149014,160.49896
2504500000,-16.948298,22.470465,-34.756603,27.634626,-31.840157,15.743816,-35.808365,-3.7368491,-34.806187,27.551659,-12.783049,-175.87909,-40.261215,18.218346,-39.847794,-95.966591,-31.830217,15.663138,-40.200356,18.097425,-15.35686,23.279831,-37.609436,-41.939247,-35.850948,-3.8267784,-39.875786,-96.045364,-37.656773,-42.141182,-16.134766,160.02417
2505000000,-16.911812,22.082985,-34.814873,26.272896,-31.775129,15.197062,-35.920708,-3.9440036,-34.861519,26.194248,-12.751693,-176.10101,-40.411583,17.002228,-39.744667,-98.896362,-31.76136,15.13938,-40.35677,16.902201,-15.305295,22.824005,-37.714973,-42.114605,-35.96225,-4.0733466,-39.779362,-98.972549,-37.764931,-42.357414,-16.122114,159.50671
2505500000,-16.873837,21.675306,-34.88324,24.922411,-31.683867,14.579515,-36.019878,-4.1205025,-34.926315,24.826393,-12.722398,-176.31146,-40.600353,15.769033,-39.663651,-102.1675,-31.669321,14.557024,-40.550793,15.675561,-15.250448,22.36861,-37.786381,-42.14349,-36.062462,-4.2555723,-39.695892,-102.21016,-37.846291,-42.414459,-16.108963,158.97818
2506000000,-16.83552,21.254124,-34.95599,23.509056,-31.583021,13.851355,-36.110203,-4.2511182,-34.996128,23.405973,-12.696239,-176.52431,-40.821018,14.563024,-39.605991,-105.66192,-31.562418,13.85654,-40.777256,14.517091,-15.1935,21.91264,-37.840195,-42.121113,-36.153179,-4.4152126,-39.637146,-105.68401,-37.903236,-42.39296,-16.09598,158.41615
2506500000,-16.796711,20.823809,-35.045506,22.030502,-31.473425,13.024393,-36.186676,-4.2492838,-35.085903,21.914518,-12.673332,-176.7395,-41.09045,13.499887,-39.589916,-109.42902,-31.449196,13.036947,-41.045143,13.463334,-15.134473,21.435862,-37.867306,-42.053127,-36.229362,-4.4015427,-39.622684,-109.44868,-37.942696,-42.348377,-16.084433,157.83969
2507000000,-16.761034,20.385466,-35.154266,20.618866,-31.358116,12.043541,-36.235607,-4.1628699,-35.192928,20.489922,-12.650711,-176.92923,-41.402878,12.648717,-39.626026,-113.34915,-31.333212,12.074256,-41.363831,12.738046,-15.075698,20.953354,-37.87365,-41.955887,-36.276772,-4.3302178,-39.658154,-113.34961,-37.95594,-42.301617,-16.074677,157.22931
2507500000,-16.721109,19.958923,-35.276199,19.250597,-31.252378,10.922675,-36.25808,-4.1064692,-35.315418,19.108866,-12.630555,-177.12102,-41.753517,12.245886,-39.721302,-117.32727,-31.222948,10.964891,-41.708111,12.438288,-15.016202,20.462923,-37.844189,-41.8605,-36.297176,-4.2736692,-39.750973,-117.30624,-37.941326,-42.244541,-16.067171,156.60577
2508000000,-16.685566,19.505833,-35.412762,17.967936,-31.157467,9.7092743,-36.27282,-4.0913091,-35.452415,17.776911,-12.610597,-177.29454,-42.111961,12.411414,-39.864693,-121.31494,-31.1227,9.7480774,-42.057945,12.628427,-14.959501,19.971779,-37.793163,-41.885948,-36.310116,-4.2915878,-39.893864,-121.21694,-37.897114,-42.233158,-16.062769,155.96469
2508500000,-16.650917,19.043762,-35.55761,16.775557,-31.07572,8.4104729,-36.275352,-4.0572062,-35.599564,16.549421,-12.589473,-177.44572,-42.448936,13.029952,-40.054592,-125.17182,-31.03463,8.4511585,-42.385986,13.342203,-14.899258,19.490623,-37.728073,-42.037216,-36.310989,-4.2692556,-40.079815,-125.07344,-37.840561,-42.347626,-16.060823,155.30531
2509000000,-16.625813,18.560419,-35.709682,15.638725,-31.007004,7.0635395,-36.266338,-3.9764452,-35.75494,15.427039,-12.570171,-177.61034,-42.731773,14.149329,-40.280872,-128.8916,-30.962822,7.0868726,-42.662544,14.440228,-14.839211,19.005123,-37.653149,-42.269405,-36.299919,-4.2136836,-40.30201,-128.80858,-37.775749,-42.518955,-16.061016,154.64052
2509500000,-16.605242,18.084652,-35.86805,14.63465,-30.951899,5.7018356,-36.226913,-3.8632653,-35.916809,14.425442,-12.548589,-177.76099,-42.962704,15.496523,-40.533863,-132.4715,-30.904131,5.7047749,-42.871223,15.820314,-14.777825,18.517878,-37.574642,-42.529064,-36.263519,-4.1091361,-40.555946,-132.39238,-37.703354,-42.727543,-16.064621,153.96782
2510000000,-16.594383,17.623714,-36.037018,13.736898,-30.906618,4.3174486,-36.158943,-3.7798574,-36.085808,13.55288,-12.525558,-177.8963,-43.12075,17.025068,-40.808228,-135.92197,-30.85675,4.3135953,-43.01228,17.270763,-14.715948,18.02553,-37.48196,-42.839905,-36.19656,-4.0446568,-40.82935,-135.8736,-37.620979,-42.97168,-16.072899,153.28212
2510500000,-16.595118,17.181124,-36.204952,13.061719,-30.871319,2.9208198,-36.058479,-3.798564,-36.254692,12.890561,-12.503593,-178.04547,-43.214218,18.639359,-41.099751,-139.20415,-30.820028,2.9009259,-43.100765,18.758904,-14.65507,17.515675,-37.377033,-43.16238,-36.103664,-4.1024337,-41.116955,-139.22046,-37.517437,-43.252319,-16.08287,152.63196
2511000000,-16.597099,16.793276,-36.356159,12.585483,-30.848587,1.5210251,-35.945705,-3.9858074,-36.406902,12.435068,-12.481004,-178.18111,-43.22934,20.182053,-41.407337,-142.46942,-30.795696,1.4738939,-43.114452,20.271954,-14.594121,16.992769,-37.254063,-43.55925,-35.994392,-4.30229,-41.426704,-142.50291,-37.391201,-43.601299,-16.097338,151.97523
2511500000,-16.599297,16.444202,-36.474831,12.220913,-30.839422,0.12845261,-35.822365,-4.3209863,-36.525883,12.100697,-12.456868,-178.30309,-43.171452,21.465021,-41.739872,-145.68416,-30.788403,0.063042395,-43.067829,21.526306,-14.534746,16.454126,-37.108894,-44.12595,-35.87738,-4.6539564,-41.760242,-145.74515,-37.242001,-44.091518,-16.115547,151.33391
2512000000,-16.602295,16.120615,-36.56559,11.854562,-30.836258,-1.2136172,-35.693108,-4.7723398,-36.616253,11.751904,-12.431713,-178.44035,-43.082577,22.424212,-42.088326,-148.75932,-30.782272,-1.2958884,-42.978634,22.377981,-14.483412,15.895329,-36.954487,-44.890522,-35.75565,-5.093235,-42.111465,-148.83971,-37.08152,-44.830288,-16.136757,150.71675
2512500000,-16.601885,15.815961,-36.63488,11.412404,-30.851122,-2.5459104,-35.561584,-5.3204036,-36.683086,11.314857,-12.407037,-178.57884,-42.956467,23.127209,-42.452469,-151.7429,-30.796164,-2.6406124,-42.867096,23.080441,-14.433586,15.359301,-36.803955,-45.78788,-35.630219,-5.6012244,-42.484047,-151.84758,-36.922417,-45.691475,-16.158171,150.13283
2513000000,-16.599121,15.511605,-36.687099,10.913857,-30.865931,-3.7969177,-35.416702,-5.9543705,-36.73444,10.803181,-12.381113,-178.70822,-42.814449,23.396408,-42.835377,-154.62846,-30.81148,-3.909761,-42.728069,23.333941,-14.387159,14.828571,-36.652893,-46.8661,-35.489178,-6.2193666,-42.873447,-154.73125,-36.764187,-46.75713,-16.180771,149.56146
2513500000,-16.596437,15.201949,-36.73518,10.256653,-30.884701,-5.0170565,-35.264874,-6.7607641,-36.782005,10.151531,-12.355934,-178.8427,-42.673607,23.207855,-43.233185,-157.3631,-30.829502,-5.1387134,-42.587318,23.161259,-14.344428,14.308523,-36.513447,-48.069759,-35.336651,-6.9872832,-43.2855,-157.44945,-36.618214,-47.948765,-16.204054,149.0139
2514000000,-16.597542,14.878135,-36.792294,9.5074949,-30.906071,-6.2028098,-35.112793,-7.7481728,-36.836342,9.4042549,-12.329724,-178.97954,-42.566376,22.687965,-43.631588,-159.95139,-30.850872,-6.3396564,-42.472389,22.616674,-14.301407,13.806555,-36.385162,-49.372044,-35.182648,-7.9316187,-43.688404,-159.97047,-36.483215,-49.268436,-16.228426,148.47569
2514500000,-16.599796,14.577954,-36.865265,8.6765747,-30.931017,-7.3607926,-34.96357,-8.8885336,-36.909302,8.5924702,-12.303672,-179.12195,-42.508167,21.84207,-44.042156,-162.61113,-30.874619,-7.5188518,-42.417858,21.784069,-14.260541,13.314559,-36.264618,-50.749962,-35.031689,-9.0457888,-44.103584,-162.53011,-36.35791,-50.679749,-16.251759,147.97458
2515000000,-16.602699,14.288687,-36.958988,7.9406328,-30.958927,-8.4888592,-34.82608,-10.191767,-37.000874,7.8586059,-12.278531,-179.26588,-42.503628,21.03315,-44.478031,-165.14693,-30.904486,-8.6676378,-42.415554,20.919708,-14.219021,12.841191,-36.159283,-52.212574,-34.892933,-10.330759,-44.537304,-164.94926,-36.248329,-52.162991,-16.272709,147.49509
2515500000,-16.613035,14.021542,-37.046272,7.3016677,-30.994297,-9.59375,-34.70208,-11.610259,-37.08934,7.1907277,-12.254403,-179.4102,-42.534618,20.318943,-44.925442,-167.61655,-30.938562,-9.7962065,-42.442295,20.116261,-14.177175,12.380693,-36.065445,-53.640697,-34.763733,-11.753922,-44.953098,-167.31084,-36.150887,-53.634476,-16.29072,147.0399
2516000000,-16.629234,13.787149,-37.144352,6.667829,-31.02866,-10.637206,-34.590927,-13.152642,-37.185444,6.5454493,-12.228425,-179.54193,-42.58746,19.644796,-45.394218,-170.14021,-30.976837,-10.859622,-42.502525,19.405632,-14.133934,11.92598,-35.963924,-55.108543,-34.653088,-13.299657,-45.395477,-169.7856,-36.047527,-55.129868,-16.306765,146.56337
2516500000,-16.648079,13.625101,-37.253613,6.1636987,-31.065706,-11.600472,-34.50346,-14.811668,-37.291714,6.0373883,-12.202795,-179.68188,-42.667007,19.012793,-45.907883,-172.42671,-31.017817,-11.847053,-42.585308,18.748192,-14.090489,11.468789,-35.861027,-56.721367,-34.56176,-14.960361,-45.898773,-172.12106,-35.948055,-56.752632,-16.319851,146.13235
2517000000,-16.666784,13.522724,-37.347904,5.8775959,-31.095774,-12.546869,-34.44014,-16.492512,-37.385223,5.7646103,-12.178209,-179.83478,-42.758057,18.444447,-46.428524,-174.3653,-31.051487,-12.811677,-42.687923,18.187065,-14.048019,11.01358,-35.774734,-58.452293,-34.496441,-16.646454,-46.408516,-174.09926,-35.862583,-58.513519,-16.331211,145.69247
2517500000,-16.68977,13.475563,-37.421677,5.5964899,-31.130487,-13.378835,-34.39082,-18.187857,-37.458733,5.4829907,-12.151613,-179.97215,-42.908836,18.089426,-46.953007,-176.19032,-31.092283,-13.640334,-42.83849,17.798582,-14.00561,10.575313,-35.705391,-60.231178,-34.448334,-18.348072,-46.926304,-175.96579,-35.793789,-60.320263,-16.340033,145.25102
2518000000,-16.707397,13.50726,-37.473053,5.3513422,-31.143888,-14.172117,-34.361958,-19.879656,-37.510136,5.2319441,-12.125241,179.87737,-43.052608,18.023031,-47.472202,-177.83772,-31.111374,-14.419838,-42.994404,17.73354,-13.964205,10.150861,-35.650864,-62.046799,-34.419426,-20.051834,-47.434315,-177.64851,-35.74474,-62.152637,-16.34577,144.81653
2518500000,-16.71961,13.6084,-37.511879,5.0378666,-31.141382,-14.998634,-34.354523,-21.566769,-37.551971,4.9169965,-12.098696,179.72499,-43.174313,18.256592,-47.995754,-179.43639,-31.115318,-15.231595,-43.121891,17.969625,-13.921406,9.7399168,-35.610622,-63.852741,-34.409275,-21.718407,-47.948441,-179.29536,-35.706326,-63.936508,-16.34841,144.36087
2519000000,-16.723305,13.747014,-37.548565,4.6972904,-31.133602,-15.901495,-34.361572,-23.161144,-37.588181,4.6254535,-12.070966,179.57486,-43.29134,18.423962,-48.531441,179.16441,-31.111813,-16.111362,-43.256233,18.196873,-13.877082,9.3433924,-35.577099,-65.685928,-34.414932,-23.307135,-48.479969,179.21173,-35.67321,-65.757477,-16.346771,143.89316
2519500000,-16.715784,13.917515,-37.578629,4.3602538,-31.125792,-16.873922,-34.378857,-24.663002,-37.619915,4.2676558,-12.043225,179.41293,-43.417862,18.843801,-49.079918,177.95377,-31.107746,-17.039234,-43.387123,18.697611,-13.830106,8.9548721,-35.55751,-67.521027,-34.426682,-24.790375,-49.03986,177.93765,-35.653893,-67.572533,-16.342409,143.41473
2520000000,-16.698919,14.081081,-37.608868,3.9726288,-31.125504,-17.882824,-34.391159,-26.063736,-37.651806,3.8940523,-12.016655,179.23491,-43.51453,19.471399,-49.658245,177.11519,-31.108917,-18.01161,-43.488625,19.41515,-13.781533,8.5685921,-35.550938,-69.352623,-34.437519,-26.195904,-49.612644,176.97603,-35.64661,-69.407349,-16.336969,142.90871
2520500000,-16.672548,14.245307,-37.641388,3.6560769,-31.126877,-18.873207,-34.395309,-27.424063,-37.683403,3.5578601,-11.988475,179.0647,-43.607231,20.162024,-50.208466,176.78236,-31.111538,-18.968443,-43.573555,20.183561,-13.730452,8.1759224,-35.555084,-71.139709,-34.437847,-27.564089,-50.176899,176.43494,-35.648048,-71.211143,-16.330542,142.37457
2521000000,-16.640331,14.390886,-37.665253,3.3255055,-31.130617,-19.854733,-34.394245,-28.803034,-37.709042,3.2749052,-11.963151,178.86438,-43.67041,21.010597,-50.719303,176.81,-31.112833,-19.919724,-43.631084,21.027611,-13.677487,7.7716141,-35.562881,-72.892456,-34.437553,-28.99622,-50.707687,176.30562,-35.65517,-72.99543,-16.32515,141.81749
2521500000,-16.597269,14.518641,-37.679909,3.0458922,-31.127232,-20.834511,-34.38604,-30.197926,-37.725479,3.0107906,-11.937239,178.66333,-43.717754,21.902651,-51.133789,177.28847,-31.109415,-20.870474,-43.667755,21.91045,-13.623353,7.3402138,-35.567982,-74.646774,-34.427822,-30.39093,-51.157448,176.79533,-35.66082,-74.73159,-16.323719,141.22888
2522000000,-16.548006,14.620705,-37.679554,2.7965071,-31.120762,-21.863623,-34.371159,-31.716219,-37.725044,2.7934811,-11.911304,178.44916,-43.74192,22.99505,-51.405628,177.62141,-31.099691,-21.864935,-43.692421,22.914789,-13.569818,6.891005,-35.573284,-76.47477,-34.415287,-31.936333,-51.460312,177.08734,-35.670807,-76.572853,-16.326622,140.61916
2522500000,-16.491159,14.701045,-37.66003,2.4605772,-31.114843,-22.9177,-34.362625,-33.30003,-37.69944,2.4732614,-11.888236,178.21783,-43.712959,24.018404,-51.575535,177.45427,-31.091227,-22.89579,-43.66724,23.921455,-13.52009,6.4193635,-35.593906,-78.315132,-34.408348,-33.559219,-51.648602,176.95163,-35.692711,-78.417679,-16.334753,140.00327
2523000000,-16.42524,14.751507,-37.636662,1.9858645,-31.107662,-23.990114,-34.359829,-35.031189,-37.675938,2.0155101,-11.867474,177.97552,-43.67094,24.96175,-51.681038,176.38802,-31.079542,-23.981688,-43.635059,24.874161,-13.471149,5.9429641,-35.622211,-80.185371,-34.409988,-35.297966,-51.779053,175.94025,-35.72142,-80.290543,-16.347576,139.3998
2523500000,-16.351599,14.765633,-37.624008,1.46681,-31.10165,-25.124489,-34.377827,-36.868671,-37.666462,1.4848645,-11.847498,177.73915,-43.626762,25.952129,-51.814682,174.35373,-31.068707,-25.116871,-43.597107,25.917448,-13.424861,5.4619341,-35.669147,-82.094887,-34.436253,-37.15678,-51.934338,173.96173,-35.7687,-82.212395,-16.364054,138.82715
2524000000,-16.273909,14.739702,-37.620033,0.98929626,-31.094925,-26.300089,-34.424019,-38.751846,-37.658924,0.97180927,-11.832351,177.49063,-43.545647,26.901039,-52.017513,171.48788,-31.061951,-26.29961,-43.519089,26.995842,-13.382112,4.974678,-35.732895,-84.004715,-34.486412,-39.047249,-52.135967,171.3676,-35.835526,-84.10083,-16.383381,138.25378
2524500000,-16.195843,14.658792,-37.608582,0.57724899,-31.092245,-27.533604,-34.4981,-40.634041,-37.645344,0.51745653,-11.817127,177.24432,-43.433308,27.819576,-52.30154,168.41389,-31.058487,-27.556255,-43.405403,27.914385,-13.339725,4.496037,-35.820816,-85.858009,-34.564896,-40.920456,-52.421665,168.48901,-35.923771,-85.93544,-16.405914,137.71974
2525000000,-16.106752,14.54894,-37.586578,0.10211402,-31.09651,-28.827862,-34.589619,-42.497704,-37.626625,0.027309332,-11.803687,176.99454,-43.314861,28.513546,-52.631428,164.95679,-31.06484,-28.859114,-43.283211,28.624895,-13.298539,4.023263,-35.922543,-87.607117,-34.662827,-42.777294,-52.751839,165.07159,-36.027409,-87.661232,-16.43058,137.20764
2525500000,-16.017298,14.365687,-37.572987,-0.38951215,-31.106634,-30.158283,-34.706882,-44.354332,-37.612049,-0.50336516,-11.79268,176.75302,-43.198441,29.402372,-53.033192,161.0731,-31.074961,-30.201355,-43.162865,29.600462,-13.256124,3.5375597,-36.032513,-89.247887,-34.7859,-44.616459,-53.155163,161.22087,-36.134594,-89.263397,-16.454952,136.72647
2526000000,-15.925615,14.104474,-37.541885,-0.83684736,-31.129454,-31.597872,-34.860168,-46.153374,-37.585133,-0.98177719,-11.78349,176.49927,-43.012886,30.082458,-53.562366,157.09459,-31.097942,-31.618624,-42.97028,30.313465,-13.219975,3.0393341,-36.157486,-90.795486,-34.942524,-46.412117,-53.681347,157.2928,-36.253784,-90.797615,-16.479153,136.2804
2526500000,-15.830682,13.774411,-37.504471,-1.4157268,-31.167751,-33.040154,-35.045612,-47.849312,-37.553753,-1.5592024,-11.776349,176.24446,-42.836571,30.509888,-54.154728,153.20641,-31.137501,-33.049667,-42.782242,30.774073,-13.187479,2.5633259,-36.283287,-92.161728,-35.133614,-48.081608,-54.256981,153.52818,-36.374756,-92.192657,-16.502607,135.83572
2527000000,-15.738099,13.355943,-37.475502,-2.0713456,-31.223265,-34.479668,-35.268974,-49.352226,-37.527641,-2.2038496,-11.771924,175.98589,-42.668484,30.800234,-54.746067,149.48331,-31.19504,-34.494251,-42.606499,31.017891,-13.15679,2.1072745,-36.403465,-93.452766,-35.358631,-49.541138,-54.843899,149.75113,-36.492928,-93.448631,-16.524059,135.42325
