!CSV A.01.01
!Keysight Technologies,N5222B,MY58422327,A.13.60.06
!Date: Monday, March 28, 2022 15:28:50
!Source: Standard

BEGIN CH1_DATA
Freq(Hz),S11(DB),S11(DEG),S12(DB),S12(DEG),S13(DB),S13(DEG),S14(DB),S14(DEG),S21(DB),S21(DEG),S22(DB),S22(DEG),S23(DB),S23(DEG),S24(DB),S24(DEG),S31(DB),S31(DEG),S32(DB),S32(DEG),S33(DB),S33(DEG),S34(DB),S34(DEG),S41(DB),S41(DEG),S42(DB),S42(DEG),S43(DB),S43(DEG),S44(DB),S44(DEG)
2500000000,-17.229021,25.806635,-34.251156,37.480713,-32.774117,25.140882,-34.526932,0.8082363,-34.276218,36.978924,-13.129727,-174.30844,-39.440067,27.52166,-40.730106,-82.173927,-32.739834,25.224976,-39.335026,27.332161,-15.847334,28.366955,-36.596615,-37.560898,-34.57214,0.71629649,-40.774803,-82.346489,-36.682343,-37.785557,-16.26889,163.47108
2500500000,-17.210373,25.46113,-34.349655,36.221828,-32.717125,24.273237,-34.675781,-0.51639158,-34.382168,35.703522,-13.088809,-174.48813,-39.552017,26.718994,-40.664356,-84.006676,-32.681309,24.319796,-39.44532,26.545963,-15.793906,27.769938,-36.685646,-38.000019,-34.718403,-0.62489921,-40.706322,-84.120132,-36.777752,-38.214241,-16.264465,163.07326
2501000000,-17.189182,25.125189,-34.455399,34.980198,-32.664284,23.36035,-34.837646,-1.699223,-34.496635,34.510387,-13.046478,-174.65128,-39.671181,25.873825,-40.605438,-85.960991,-32.629303,23.376469,-39.558208,25.710974,-15.741177,27.178715,-36.753773,-38.543419,-34.88195,-1.8707461,-40.630951,-86.05497,-36.849072,-38.7416,-16.260433,162.66504
2501500000,-17.165411,24.800785,-34.554741,33.83474,-32.620975,22.492487,-35.015137,-2.6864164,-34.603542,33.414036,-13.007398,-174.82672,-39.789085,25.11763,-40.559456,-87.943756,-32.586979,22.457781,-39.685734,24.947866,-15.692521,26.592052,-36.815903,-39.153473,-35.058765,-2.8883555,-40.571064,-88.044647,-36.916561,-39.314575,-16.254515,162.26051
2502000000,-17.143208,24.453096,-34.651012,32.718189,-32.578735,21.634903,-35.190022,-3.5642095,-34.699654,32.341282,-12.969067,-174.99571,-39.913601,24.394072,-40.498104,-89.891655,-32.549622,21.572231,-39.809334,24.192152,-15.6455,26.026926,-36.876263,-39.920078,-35.235577,-3.8010089,-40.498638,-90.029419,-36.979748,-40.023418,-16.248102,161.8455
2502500000,-17.117748,24.107483,-34.742756,31.642912,-32.547512,20.780121,-35.368355,-4.2607241,-34.786674,31.323965,-12.930854,-175.16118,-40.024971,23.752205,-40.425827,-91.903946,-32.525356,20.688103,-39.917381,23.530802,-15.602866,25.480251,-36.956406,-40.732258,-35.416008,-4.5332756,-40.42123,-92.044403,-37.059647,-40.786179,-16.241413,161.41495
2503000000,-17.089838,23.756847,-34.821228,30.599934,-32.52409,20.037939,-35.534973,-4.8283434,-34.861824,30.319736,-12.89537,-175.34926,-40.127277,23.051374,-40.350006,-94.001205,-32.509483,19.933802,-40.022217,22.798084,-15.559683,24.967167,-37.059498,-41.511307,-35.58741,-5.1116848,-40.337242,-94.221519,-37.158466,-41.522499,-16.233379,160.98366
2503500000,-17.065241,23.386522,-34.888306,29.507322,-32.496883,19.393488,-35.699703,-5.2694516,-34.919781,29.249603,-12.86076,-175.53616,-40.227512,22.265907,-40.255035,-96.139404,-32.491638,19.306246,-40.121952,21.98086,-15.516734,24.481905,-37.176903,-42.139309,-35.757149,-5.5602536,-40.237713,-96.399849,-37.270985,-42.125019,-16.224981,160.54175
2504000000,-17.036507,23.015369,-34.950012,28.382626,-32.453472,18.864119,-35.859161,-5.5903287,-34.978539,28.14015,-12.826253,-175.71727,-40.326023,21.406879,-40.142803,-98.418434,-32.454624,18.788363,-40.227444,21.106413,-15.471167,24.02215,-37.297783,-42.604126,-35.917686,-5.8558254,-40.124531,-98.767746,-37.385677,-42.587097,-16.215767,160.06847
2504500000,-17.006237,22.64439,-35.010654,27.179823,-32.387379,18.348139,-36.009666,-5.7834754,-35.032047,26.922352,-12.794856,-175.91261,-40.442112,20.376207,-40.015568,-100.96595,-32.390732,18.309158,-40.346035,20.058523,-15.422237,23.580961,-37.413719,-42.881504,-36.068058,-6.0326266,-40.005199,-101.35705,-37.497208,-42.866608,-16.203945,159.59325
2505000000,-16.970922,22.281733,-35.071095,25.88279,-32.306572,17.810814,-36.142269,-5.8154492,-35.087265,25.59428,-12.766294,-176.1145,-40.589737,19.352814,-39.890381,-103.79625,-32.305164,17.814627,-40.492527,19.003197,-15.371458,23.140541,-37.516998,-42.976929,-36.203888,-6.0513911,-39.885895,-104.25378,-37.595261,-42.978245,-16.194128,159.07422
2505500000,-16.932888,21.894886,-35.143234,24.560078,-32.200607,17.185553,-36.259811,-5.780293,-35.157402,24.24457,-12.738806,-176.30214,-40.759972,18.369287,-39.783764,-106.93858,-32.199284,17.194124,-40.673977,17.962231,-15.316127,22.70245,-37.587646,-42.945683,-36.320599,-5.9958639,-39.779305,-107.42994,-37.661053,-42.959393,-16.184334,158.54628
2506000000,-16.893579,21.494022,-35.219265,23.17432,-32.088528,16.430977,-36.368366,-5.6710124,-35.236118,22.839033,-12.713759,-176.4911,-40.95919,17.448353,-39.694462,-110.35832,-32.082195,16.433561,-40.88007,16.952965,-15.259137,22.261187,-37.63591,-42.848404,-36.42569,-5.880928,-39.697254,-110.88408,-37.704105,-42.887016,-16.174938,157.98662
2506500000,-16.853518,21.08511,-35.319771,21.734686,-31.973816,15.551226,-36.461811,-5.3483167,-35.337418,21.377897,-12.690687,-176.68629,-41.188736,16.583309,-39.636669,-114.00806,-31.966309,15.546747,-41.122334,16.119549,-15.200423,21.806448,-37.655064,-42.791805,-36.512642,-5.5623226,-39.653271,-114.541,-37.719467,-42.816669,-16.166563,157.41096
2507000000,-16.815174,20.663485,-35.440239,20.376617,-31.858505,14.5333,-36.507832,-4.9351053,-35.462845,20.015331,-12.667749,-176.85603,-41.457848,15.977781,-39.630173,-117.84195,-31.84955,14.506264,-41.405693,15.524419,-15.139707,21.340706,-37.657352,-42.647835,-36.55759,-5.1890092,-39.65398,-118.37342,-37.710495,-42.739136,-16.16124,156.80962
2507500000,-16.772158,20.250774,-35.57217,19.096388,-31.750916,13.389881,-36.519337,-4.5390491,-35.595562,18.73955,-12.646848,-177.03023,-41.750813,15.742952,-39.667721,-121.78469,-31.746624,13.357683,-41.707478,15.31045,-15.078916,20.866983,-37.624821,-42.553688,-36.570877,-4.8458686,-39.700848,-122.28424,-37.674919,-42.677845,-16.157562,156.19543
2508000000,-16.73423,19.805714,-35.714939,17.893179,-31.65719,12.160088,-36.506966,-4.2650561,-35.742443,17.546329,-12.625565,-177.18645,-42.036247,15.887271,-39.753235,-125.76068,-31.654276,12.127974,-42.006832,15.561685,-15.020066,20.389654,-37.564804,-42.524025,-36.563221,-4.5584249,-39.791561,-126.22424,-37.61496,-42.731991,-16.157238,155.56961
2508500000,-16.6973,19.354704,-35.862965,16.848867,-31.575026,10.862727,-36.469151,-3.9978614,-35.891411,16.494308,-12.603255,-177.32358,-42.312378,16.444395,-39.872303,-129.64796,-31.576681,10.859295,-42.284664,16.195932,-14.958218,19.919344,-37.485703,-42.606213,-36.536396,-4.3183956,-39.921177,-130.12022,-37.542522,-42.908707,-16.159412,154.92566
2509000000,-16.668489,18.880592,-36.008171,15.897237,-31.507196,9.5239706,-36.422878,-3.7756121,-36.039223,15.581634,-12.582894,-177.47629,-42.547783,17.373333,-40.026947,-133.5723,-31.509466,9.5595541,-42.517612,17.23349,-14.897237,19.437443,-37.392223,-42.874489,-36.49398,-4.0804844,-40.083714,-133.9464,-37.462662,-43.193745,-16.163689,154.28215
2509500000,-16.644466,18.41778,-36.156609,15.028949,-31.452778,8.1709385,-36.348198,-3.6062925,-36.178982,14.73716,-12.559894,-177.61824,-42.721264,18.496845,-40.209606,-137.37323,-31.454302,8.2688065,-42.683296,18.483263,-14.834801,18.95223,-37.285789,-43.201931,-36.422421,-3.8896554,-40.269836,-137.68605,-37.377014,-43.57769,-16.171259,153.63638
2510000000,-16.629456,17.963543,-36.305294,14.26244,-31.409182,6.8146076,-36.25053,-3.5020666,-36.31897,13.99286,-12.535177,-177.74617,-42.833496,19.741026,-40.420242,-141.15063,-31.405508,6.9492593,-42.792812,19.720594,-14.773003,18.462231,-37.181103,-43.656189,-36.325371,-3.7521718,-40.478859,-141.3728,-37.280796,-43.990242,-16.183182,152.98248
2510500000,-16.624445,17.520157,-36.447277,13.646075,-31.376059,5.4712925,-36.1287,-3.5233645,-36.453217,13.362712,-12.511393,-177.88887,-42.897087,20.994238,-40.654881,-144.89963,-31.36319,5.6342058,-42.84985,21.051411,-14.712421,17.96913,-37.069195,-44.153214,-36.201202,-3.759903,-40.709244,-145.05829,-37.170055,-44.452339,-16.195871,152.36252
2511000000,-16.620737,17.11916,-36.571148,13.162688,-31.352114,4.1357689,-35.99094,-3.7432635,-36.571613,12.884782,-12.487133,-178.0239,-42.90448,22.232401,-40.916935,-148.64906,-31.331276,4.3198647,-42.843948,22.32696,-14.651135,17.463707,-36.946308,-44.753506,-36.064713,-3.9715309,-40.959354,-148.70004,-37.049358,-45.023846,-16.211515,151.73767
2511500000,-16.618721,16.745274,-36.662785,12.760365,-31.339891,2.8152211,-35.850006,-4.1160793,-36.6567,12.447948,-12.461792,-178.14557,-42.852848,23.2428,-41.206863,-152.36772,-31.310959,3.0007627,-42.777298,23.362724,-14.591561,16.948629,-36.808834,-45.504303,-35.92223,-4.3228006,-41.235859,-152.34645,-36.921043,-45.727287,-16.230694,151.13023
2512000000,-16.618431,16.397078,-36.73494,12.271968,-31.324024,1.5366838,-35.700394,-4.6247182,-36.719875,11.979964,-12.435528,-178.28169,-42.769939,23.945309,-41.525974,-155.94969,-31.288134,1.7129911,-42.68623,23.956778,-14.538772,16.414192,-36.677513,-46.428516,-35.774597,-4.804863,-41.550388,-155.97098,-36.788895,-46.615425,-16.252697,150.54306
2512500000,-16.614992,16.057255,-36.791634,11.694755,-31.325457,0.2500954,-35.557045,-5.2057118,-36.764366,11.358625,-12.410041,-178.4185,-42.665096,24.423664,-41.858021,-159.43388,-31.283854,0.40058041,-42.589005,24.424515,-14.48595,15.903925,-36.543694,-47.477127,-35.626869,-5.3634481,-41.884251,-159.46599,-36.659904,-47.579674,-16.273884,149.99013
2513000000,-16.610916,15.713216,-36.836498,11.02724,-31.329197,-0.96036476,-35.399872,-5.8936229,-36.80336,10.651793,-12.384136,-178.54489,-42.532917,24.600613,-42.227737,-162.81335,-31.283192,-0.84620559,-42.456314,24.560131,-14.436041,15.394611,-36.420067,-48.60487,-35.468525,-6.0560331,-42.241432,-162.86897,-36.533783,-48.688442,-16.296436,149.45264
2513500000,-16.607801,15.362579,-36.880337,10.217001,-31.334257,-2.152812,-35.236397,-6.7266355,-36.840679,9.742897,-12.358554,-178.67308,-42.400963,24.367222,-42.621853,-166.05566,-31.286509,-2.0820196,-42.323631,24.335745,-14.388356,14.895188,-36.308071,-49.829155,-35.301689,-6.8935275,-42.618824,-166.07056,-36.411968,-49.893074,-16.31916,148.93431
2514000000,-16.611004,14.998908,-36.938908,9.3055601,-31.338045,-3.3226225,-35.070553,-7.7222681,-36.898968,8.7201366,-12.331439,-178.80447,-42.29089,23.798735,-43.022018,-169.06046,-31.291084,-3.2927961,-42.218498,23.76865,-14.340495,14.404338,-36.198307,-51.113209,-35.135471,-7.8968925,-43.005688,-169.18053,-36.304306,-51.15831,-16.341978,148.42233
2514500000,-16.615839,14.653394,-37.020241,8.3288736,-31.346352,-4.5018592,-34.906281,-8.902112,-36.988102,7.6512623,-12.304945,-178.93918,-42.232857,22.902533,-43.435394,-172.11688,-31.301723,-4.4900088,-42.158886,22.873468,-14.294407,13.919428,-36.100697,-52.464043,-34.971943,-9.0721636,-43.404881,-172.26357,-36.202057,-52.511494,-16.363796,147.94333
2515000000,-16.624422,14.332951,-37.122726,7.470582,-31.358572,-5.6692429,-34.752529,-10.241823,-37.105125,6.6936045,-12.278934,-179.0743,-42.228668,22.005096,-43.867756,-174.95096,-31.318104,-5.6964216,-42.154839,21.979633,-14.247732,13.444166,-36.009754,-53.886978,-34.816364,-10.415406,-43.829269,-175.22313,-36.111576,-53.932716,-16.38364,147.48322
2515500000,-16.641178,14.038055,-37.228706,6.686203,-31.375696,-6.8393626,-34.606209,-11.718688,-37.224571,5.8683004,-12.25316,-179.20932,-42.261703,21.205425,-44.29129,-177.69748,-31.340099,-6.8798304,-42.180656,21.193262,-14.201518,12.974208,-35.930626,-55.289173,-34.671761,-11.907707,-44.246857,-178.06932,-36.031586,-55.352501,-16.400352,147.04642
2516000000,-16.664783,13.785629,-37.344425,5.9365759,-31.403368,-7.9851241,-34.474518,-13.374477,-37.354904,5.1102095,-12.225112,-179.33376,-42.319813,20.419054,-44.729149,179.42723,-31.369574,-8.0195293,-42.239819,20.37566,-14.154152,12.511278,-35.845581,-56.725513,-34.542042,-13.588342,-44.685421,178.98389,-35.95303,-56.809097,-16.415424,146.5921
2516500000,-16.691494,13.61888,-37.476212,5.3359361,-31.432877,-9.0593147,-34.367859,-15.166381,-37.495674,4.5075917,-12.196911,-179.46678,-42.399731,19.711609,-45.209385,176.61084,-31.406101,-9.0895061,-42.324112,19.696781,-14.106873,12.037218,-35.763798,-58.238865,-34.436745,-15.380804,-45.164658,176.14177,-35.874252,-58.342262,-16.427622,146.18439
2517000000,-16.71838,13.523158,-37.594563,4.9717007,-31.464983,-10.130848,-34.284073,-17.020382,-37.62553,4.1624565,-12.169801,-179.61685,-42.495117,19.079777,-45.685024,174.13341,-31.440399,-10.129963,-42.424824,19.089464,-14.061577,11.567953,-35.696037,-59.913021,-34.358818,-17.232729,-45.662285,173.55943,-35.810997,-59.9776,-16.437202,145.76508
2517500000,-16.749554,13.503764,-37.698689,4.6258559,-31.506304,-11.064236,-34.228107,-18.953505,-37.738224,3.8458097,-12.140729,-179.7549,-42.652931,18.682178,-46.177494,171.68201,-31.482962,-11.023599,-42.579597,18.660267,-14.017363,11.117557,-35.648296,-61.601341,-34.303867,-19.160736,-46.162228,171.0965,-35.760769,-61.617775,-16.443699,145.33984
2518000000,-16.774294,13.574413,-37.78788,4.3736782,-31.53093,-11.936583,-34.199802,-20.87982,-37.831406,3.609256,-12.111818,-179.90709,-42.812042,18.590094,-46.69294,169.4281,-31.507305,-11.857646,-42.733791,18.603022,-13.973654,10.67816,-35.618679,-63.279785,-34.277908,-21.073963,-46.681252,168.8176,-35.727531,-63.260872,-16.447041,144.9198
2518500000,-16.791304,13.727491,-37.870998,4.102437,-31.544718,-12.81581,-34.198429,-22.783991,-37.919811,3.3710108,-12.082577,179.93239,-42.958687,18.793634,-47.20546,167.1116,-31.516825,-12.694388,-42.878578,18.810547,-13.929529,10.255505,-35.597294,-64.907982,-34.280579,-22.941601,-47.198418,166.68181,-35.698616,-64.832932,-16.447075,144.47067
2519000000,-16.796942,13.924157,-37.940762,3.8740563,-31.555233,-13.712604,-34.220448,-24.581142,-37.996655,3.160481,-12.052436,179.77412,-43.107075,19.102238,-47.728672,164.88779,-31.522284,-13.567819,-43.019234,19.139158,-13.88448,9.8460102,-35.579174,-66.515198,-34.303303,-24.707598,-47.722576,164.6223,-35.670528,-66.428169,-16.444809,144.00456
2519500000,-16.788578,14.14752,-38.006477,3.6691601,-31.56362,-14.634628,-34.254612,-26.242212,-38.064495,2.992341,-12.022807,179.60306,-43.250168,19.737619,-48.287937,162.7235,-31.527121,-14.485774,-43.155678,19.780069,-13.836427,9.4443989,-35.563839,-68.083275,-34.333309,-26.315722,-48.251122,162.63118,-35.650692,-68.021873,-16.44035,143.52641
2520000000,-16.76968,14.363633,-38.06459,3.4927409,-31.571611,-15.543929,-34.284695,-27.772388,-38.128757,2.8378618,-11.994686,179.41605,-43.355156,20.674097,-48.867268,160.86465,-31.532658,-15.408149,-43.252243,20.677683,-13.787193,9.0473175,-35.55423,-69.68502,-34.35984,-27.834736,-48.80304,160.80634,-35.635365,-69.627129,-16.436693,143.02451
2520500000,-16.740067,14.566067,-38.116299,3.3682771,-31.580982,-16.434307,-34.307133,-29.278309,-38.184044,2.7904468,-11.965187,179.23697,-43.420506,21.809111,-49.45293,159.32941,-31.537252,-16.30068,-43.308945,21.716078,-13.735948,8.6419573,-35.550827,-71.26178,-34.374767,-29.318871,-49.369358,159.3167,-35.627495,-71.234703,-16.432524,142.50516
2521000000,-16.703659,14.738756,-38.150394,3.3091247,-31.583334,-17.311029,-34.327484,-30.79538,-38.21582,2.7656863,-11.938296,179.02754,-43.429104,23.015579,-50.024136,158.18639,-31.541601,-17.187157,-43.319038,22.821156,-13.683225,8.2266302,-35.546299,-72.80822,-34.38905,-30.834593,-49.928444,158.14024,-35.622341,-72.832306,-16.428846,141.96828
2521500000,-16.657278,14.883937,-38.178936,3.2241087,-31.575575,-18.158627,-34.346081,-32.309387,-38.240395,2.7382889,-11.910424,178.81293,-43.385727,24.150194,-50.558517,157.50618,-31.534376,-18.07165,-43.286388,23.905458,-13.630103,7.7914276,-35.536484,-74.350357,-34.400089,-32.369938,-50.42683,157.45007,-35.611622,-74.399147,-16.429323,141.41209
2522000000,-16.603916,15.001036,-38.186348,3.2411404,-31.559183,-19.102509,-34.362816,-33.911373,-38.241859,2.7873135,-11.883365,178.58328,-43.303135,25.230896,-50.981251,156.89102,-31.516994,-18.999048,-43.212067,24.952993,-13.576889,7.3382616,-35.525826,-75.967155,-34.410286,-33.996075,-50.819931,156.76614,-35.60783,-76.082291,-16.433075,140.84003
2522500000,-16.544388,15.086766,-38.164371,3.1823094,-31.540169,-20.082058,-34.385063,-35.560303,-38.21328,2.7526085,-11.85854,178.3329,-43.171429,26.022211,-51.336239,156.22612,-31.49995,-19.989225,-43.092705,25.714041,-13.527181,6.8682923,-35.528664,-77.624702,-34.428493,-35.677929,-51.140877,155.74812,-35.612015,-77.758339,-16.440779,140.26526
2523000000,-16.476595,15.137564,-38.13409,2.9814646,-31.516659,-21.092878,-34.416008,-37.282104,-38.177715,2.527379,-11.836774,178.06834,-43.024979,26.46109,-51.596973,154.7977,-31.478027,-21.022184,-42.965382,26.153202,-13.478175,6.4005485,-35.533627,-79.330368,-34.456455,-37.451061,-51.388092,154.22006,-35.617535,-79.455086,-16.45145,139.70294
2523500000,-16.402637,15.157479,-38.10107,2.7651863,-31.494171,-22.208113,-34.462643,-39.081509,-38.144573,2.2521625,-11.817268,177.81206,-42.892838,26.694794,-51.870155,152.78181,-31.455635,-22.137445,-42.850384,26.509924,-13.43066,5.9240308,-35.550545,-81.086357,-34.508202,-39.313065,-51.645882,151.96182,-35.63567,-81.21022,-16.464535,139.16689
2524000000,-16.324835,15.144895,-38.061657,2.5080216,-31.473907,-23.390993,-34.533905,-40.891171,-38.108536,1.9294497,-11.802374,177.54204,-42.765617,26.785046,-52.188705,150.2429,-31.437185,-23.306627,-42.723949,26.637629,-13.387081,5.4417458,-35.583736,-82.827332,-34.583237,-41.187691,-51.958206,149.21466,-35.669903,-82.969376,-16.479185,138.63177
2524500000,-16.246399,15.085096,-38.004601,2.1979685,-31.454817,-24.666269,-34.627182,-42.672527,-38.066982,1.5915296,-11.788651,177.27881,-42.663471,26.730553,-52.578808,147.57166,-31.420942,-24.566639,-42.60265,26.640142,-13.342949,4.9679704,-35.636398,-84.522301,-34.683395,-43.020142,-52.311687,146.32825,-35.720882,-84.708588,-16.496101,138.12651
2525000000,-16.15593,14.998044,-37.948761,1.7313979,-31.448305,-25.980757,-34.734375,-44.439487,-38.017605,1.1325774,-11.776912,177.01387,-42.580772,26.527746,-52.940998,144.70695,-31.416386,-25.897009,-42.520206,26.418095,-13.299376,4.4994798,-35.693546,-86.146004,-34.800083,-44.803482,-52.665474,143.19632,-35.780281,-86.339333,-16.515083,137.63322
2525500000,-16.064114,14.845789,-37.901363,1.2113152,-31.444344,-27.368273,-34.863785,-46.216137,-37.981388,0.60918617,-11.767813,176.76244,-42.534451,26.674854,-53.333515,141.33833,-31.41539,-27.290251,-42.473717,26.58626,-13.254097,4.0133376,-35.754971,-87.72995,-34.937943,-46.589748,-53.071949,139.51346,-35.839657,-87.943268,-16.533859,137.16483
2526000000,-15.968128,14.610895,-37.845333,0.66236484,-31.458195,-28.881199,-35.022015,-47.924831,-37.933537,0.13660808,-11.760446,176.49837,-42.462166,26.705275,-53.811432,137.90445,-31.43117,-28.791389,-42.39502,26.573647,-13.215438,3.516017,-35.827877,-89.258316,-35.10421,-48.300964,-53.556267,135.86824,-35.917271,-89.521515,-16.552525,136.72778
2526500000,-15.866587,14.299187,-37.794258,-0.046481267,-31.491718,-30.421711,-35.211113,-49.564186,-37.889954,-0.48762846,-11.755543,176.23978,-42.411098,26.723742,-54.345585,134.62656,-31.465063,-30.307568,-42.33942,26.600054,-13.17978,3.0308728,-35.906494,-90.710686,-35.30254,-49.915535,-54.098503,132.30704,-35.999336,-91.002213,-16.570755,136.28722
2527000000,-15.767328,13.889749,-37.767159,-0.80596697,-31.546522,-31.963558,-35.433804,-51.011566,-37.858006,-1.2059816,-11.753313,175.97696,-42.377277,26.812834,-54.815342,131.41553,-31.520847,-31.829521,-42.304638,26.664463,-13.145919,2.5613883,-35.982063,-92.093109,-35.533085,-51.34951,-54.609928,128.8886,-36.087063,-92.420052,-16.587053,135.87589
