!CSV A.01.01
!Keysight Technologies,N5222B,MY58422327,A.13.60.06
!Date: Monday, March 28, 2022 15:29:58
!Source: Standard

BEGIN CH1_DATA
Freq(Hz),S11(DB),S11(DEG),S12(DB),S12(DEG),S13(DB),S13(DEG),S14(DB),S14(DEG),S21(DB),S21(DEG),S22(DB),S22(DEG),S23(DB),S23(DEG),S24(DB),S24(DEG),S31(DB),S31(DEG),S32(DB),S32(DEG),S33(DB),S33(DEG),S34(DB),S34(DEG),S41(DB),S41(DEG),S42(DB),S42(DEG),S43(DB),S43(DEG),S44(DB),S44(DEG)
2500000000,-17.336559,26.075855,-34.829067,37.211838,-32.985046,27.401917,-34.264072,2.1220748,-34.78233,37.519634,-13.115971,-174.02585,-39.198307,26.23558,-39.802357,-78.26712,-32.921009,26.929832,-39.154972,26.280951,-15.915443,28.284857,-36.555218,-34.832718,-34.2383,2.1881154,-39.810989,-79.462517,-36.577663,-34.928165,-16.317316,164.35219
2500500000,-17.313419,25.784258,-34.916401,36.14286,-32.914299,26.541336,-34.398453,0.77580404,-34.868427,36.308056,-13.073235,-174.20239,-39.283661,25.216904,-39.728603,-80.065254,-32.857555,26.068409,-39.237892,25.304148,-15.86216,27.710106,-36.603603,-35.26403,-34.374908,0.78919852,-39.761528,-81.261444,-36.628922,-35.49308,-16.312111,163.95259
2501000000,-17.286167,25.492998,-35.006096,35.115326,-32.848988,25.659893,-34.548786,-0.461346,-34.962215,35.133762,-13.028805,-174.36464,-39.378567,24.114309,-39.650822,-82.030151,-32.798481,25.174435,-39.338352,24.232204,-15.808905,27.140476,-36.633747,-35.890667,-34.521801,-0.49633917,-39.705139,-83.174492,-36.666954,-36.220219,-16.306694,163.54274
2501500000,-17.25428,25.20483,-35.077263,34.147823,-32.790783,24.801294,-34.71233,-1.5074067,-35.040985,34.023201,-12.987265,-174.54176,-39.48801,23.044815,-39.584801,-84.072441,-32.745525,24.292238,-39.447731,23.221327,-15.758235,26.575979,-36.667099,-36.645329,-34.682858,-1.5744314,-39.659367,-85.14151,-36.714836,-37.066154,-16.299002,163.14044
2502000000,-17.222107,24.878399,-35.134384,33.159794,-32.733456,23.968948,-34.872688,-2.4161603,-35.116425,32.918938,-12.947143,-174.71486,-39.612534,22.076712,-39.512115,-86.165993,-32.694118,23.421654,-39.57198,22.277073,-15.709129,26.028397,-36.711742,-37.528351,-34.84042,-2.5345979,-39.602562,-87.119179,-36.771458,-38.018074,-16.290415,162.72614
2502500000,-17.187462,24.537857,-35.182735,32.12973,-32.684906,23.127764,-35.036579,-3.1529784,-35.183704,31.798172,-12.906426,-174.8868,-39.730122,21.137159,-39.437225,-88.323792,-32.656273,22.538763,-39.689056,21.427828,-15.663167,25.495634,-36.780834,-38.489307,-34.99992,-3.3378382,-39.535355,-89.192719,-36.854572,-39.003979,-16.281437,162.29524
2503000000,-17.149351,24.173113,-35.222481,31.07412,-32.643799,22.359283,-35.18642,-3.751924,-35.242767,30.683567,-12.868853,-175.08272,-39.84687,20.250301,-39.370674,-90.60704,-32.627159,21.764515,-39.795944,20.58264,-15.616772,24.986185,-36.875751,-39.373306,-35.14769,-4.0050273,-39.47086,-91.369133,-36.962341,-39.922192,-16.271095,161.86627
2503500000,-17.116915,23.776964,-35.256905,29.900257,-32.599892,21.696774,-35.332039,-4.2013679,-35.290798,29.485704,-12.831795,-175.2809,-39.953609,19.302876,-39.292572,-92.928444,-32.599293,21.128401,-39.897045,19.671579,-15.570966,24.501705,-36.986828,-40.081642,-35.293331,-4.5625944,-39.395393,-93.538071,-37.095104,-40.660744,-16.259911,161.42973
2504000000,-17.08119,23.37151,-35.28566,28.669867,-32.537941,21.111757,-35.464336,-4.5652509,-35.342533,28.231787,-12.795779,-175.47575,-40.062294,18.268471,-39.210022,-95.354958,-32.549988,20.606516,-39.999901,18.669077,-15.523499,24.035006,-37.09758,-40.628372,-35.429741,-5.039629,-39.305225,-95.863487,-37.226933,-41.190548,-16.248117,160.95924
2504500000,-17.046503,22.956989,-35.311676,27.297836,-32.458866,20.542685,-35.5783,-4.7957697,-35.391766,26.88501,-12.763526,-175.6844,-40.18018,17.079554,-39.122375,-97.945778,-32.477886,20.108973,-40.110298,17.507933,-15.473705,23.590141,-37.201099,-41.009205,-35.555687,-5.3874469,-39.204334,-98.46405,-37.351578,-41.499283,-16.233582,160.48518
2505000000,-17.008713,22.544399,-35.355942,25.755577,-32.36097,19.950733,-35.671799,-4.9485555,-35.449738,25.410707,-12.733929,-175.90207,-40.33437,15.907504,-39.035236,-100.76051,-32.384987,19.593138,-40.257713,16.317785,-15.421302,23.145653,-37.297516,-41.241692,-35.663101,-5.6297302,-39.108379,-101.24932,-37.466171,-41.633179,-16.220568,159.96704
2505500000,-16.970818,22.108496,-35.414513,24.187862,-32.244312,19.233456,-35.750553,-5.0977778,-35.522263,23.964716,-12.706124,-176.10715,-40.515938,14.701648,-38.963375,-103.80758,-32.268784,18.965439,-40.431866,15.108628,-15.366034,22.700748,-37.366119,-41.37582,-35.758038,-5.8620386,-39.026455,-104.35851,-37.544376,-41.589752,-16.207651,159.43002
2506000000,-16.933798,21.663086,-35.488987,22.566414,-32.119728,18.395247,-35.817543,-5.2816744,-35.603794,22.437389,-12.681094,-176.31041,-40.724705,13.553688,-38.903927,-107.07436,-32.142586,18.194162,-40.632366,13.929382,-15.308717,22.255749,-37.411533,-41.447006,-35.845432,-6.0681453,-38.96806,-107.69392,-37.594696,-41.494877,-16.196297,158.85995
2506500000,-16.897827,21.215244,-35.593658,20.880739,-31.995367,17.439016,-35.876972,-5.3625627,-35.708832,20.848137,-12.658636,-176.51602,-40.9701,12.493535,-38.87281,-110.56982,-32.014774,17.289783,-40.87635,12.855551,-15.249035,21.799261,-37.435917,-41.498459,-35.925625,-6.1223302,-38.938644,-111.24305,-37.617344,-41.409241,-16.18737,158.2722
2507000000,-16.865705,20.768478,-35.724621,19.259979,-31.871351,16.321175,-35.911415,-5.400569,-35.838394,19.343792,-12.63638,-176.69319,-41.264965,11.699978,-38.881207,-114.24585,-31.885471,16.238028,-41.156479,12.014148,-15.188941,21.328257,-37.443138,-41.532074,-35.977367,-6.1255436,-38.950787,-115.00685,-37.617622,-41.285805,-16.181488,157.6591
2507500000,-16.830067,20.346457,-35.877926,17.737635,-31.761806,15.076673,-35.930084,-5.4800787,-35.984558,17.929041,-12.616252,-176.86784,-41.583771,11.271817,-38.932632,-118.04344,-31.767199,15.061474,-41.461727,11.512862,-15.12851,20.852343,-37.421936,-41.569695,-36.010147,-6.1356349,-39.014793,-118.89331,-37.586575,-41.183762,-16.178682,157.04028
2508000000,-16.798883,19.91403,-36.049965,16.338068,-31.665775,13.761308,-35.933674,-5.6097484,-36.14505,16.596878,-12.594824,-177.02208,-41.895279,11.252264,-39.031429,-121.86333,-31.661631,13.803086,-41.773113,11.43072,-15.069843,20.374069,-37.381256,-41.685486,-36.027939,-6.1615996,-39.125278,-122.78247,-37.528362,-41.201038,-16.178358,156.41566
2508500000,-16.768015,19.487997,-36.232853,15.119602,-31.583199,12.397421,-35.931503,-5.7563696,-36.312046,15.417238,-12.571569,-177.16048,-42.199028,11.644986,-39.174404,-125.6451,-31.566715,12.466367,-42.07737,11.771587,-15.008954,19.901419,-37.328861,-41.892048,-36.03376,-6.1813703,-39.283344,-126.63072,-37.45348,-41.335617,-16.181347,155.78441
2509000000,-16.743216,19.049765,-36.419136,14.026563,-31.516327,10.999744,-35.922531,-5.8751373,-36.483925,14.340865,-12.549926,-177.31279,-42.471512,12.468662,-39.35173,-129.3588,-31.485094,11.077381,-42.349514,12.508985,-14.948175,19.426582,-37.26823,-42.163055,-36.022701,-6.2100606,-39.484516,-130.37819,-37.371845,-41.571022,-16.18491,155.15764
2509500000,-16.720861,18.620794,-36.60688,13.06262,-31.463762,9.605773,-35.89534,-5.9727006,-36.657696,13.361162,-12.525195,-177.45418,-42.677887,13.579906,-39.558666,-132.97546,-31.419167,9.6598873,-42.565609,13.506083,-14.886181,18.949945,-37.201874,-42.482933,-35.996815,-6.2178826,-39.713299,-134.01147,-37.282673,-41.873833,-16.190762,154.52452
2510000000,-16.705919,18.195438,-36.793953,12.275801,-31.419971,8.2246294,-35.85041,-6.0536165,-36.841167,12.494896,-12.498909,-177.58957,-42.820721,14.80378,-39.78997,-136.4995,-31.362823,8.2225676,-42.728027,14.707614,-14.824093,18.468946,-37.123466,-42.816769,-35.94973,-6.2430754,-39.967369,-137.46599,-37.183559,-42.22015,-16.200356,153.88211
2510500000,-16.700798,17.77545,-36.97937,11.65599,-31.385399,6.8412962,-35.784595,-6.2054286,-37.023842,11.836453,-12.474194,-177.74164,-42.90731,16.098816,-40.035149,-139.95288,-31.320253,6.7740827,-42.833443,16.042732,-14.763607,17.97982,-37.028801,-43.196915,-35.878708,-6.3660645,-40.235485,-140.84233,-37.066441,-42.649414,-16.210968,153.27057
2511000000,-16.697365,17.389271,-37.149204,11.252977,-31.359417,5.4950027,-35.702999,-6.4533033,-37.194016,11.408463,-12.448724,-177.88452,-42.924435,17.411091,-40.301907,-143.36896,-31.289867,5.3284106,-42.862377,17.352869,-14.701688,17.482872,-36.918411,-43.650578,-35.792126,-6.6002975,-40.514732,-144.15825,-36.934193,-43.19569,-16.225595,152.65256
2511500000,-16.695932,17.035686,-37.284397,11.02132,-31.340975,4.1576495,-35.613518,-6.781878,-37.327454,11.125586,-12.422421,-178.01471,-42.870415,18.461119,-40.591099,-146.77524,-31.274426,3.9113667,-42.827881,18.458052,-14.641322,16.973486,-36.793705,-44.238567,-35.699337,-6.9280453,-40.822201,-147.4838,-36.789719,-43.893192,-16.243952,152.05302
2512000000,-16.696604,16.7048,-37.384262,10.750807,-31.323093,2.8414247,-35.514626,-7.1799068,-37.431576,10.861579,-12.394907,-178.16046,-42.765522,19.126959,-40.902565,-150.0739,-31.260105,2.5419557,-42.735363,19.232965,-14.587338,16.446766,-36.666798,-44.998341,-35.601055,-7.3369484,-41.150291,-150.67445,-36.648262,-44.816154,-16.264734,151.48045
2512500000,-16.695723,16.393305,-37.461506,10.413216,-31.321108,1.5238101,-35.402138,-7.6321173,-37.5075,10.498745,-12.368065,-178.30992,-42.644562,19.468641,-41.24229,-153.34492,-31.262615,1.1888651,-42.617966,19.720654,-14.532749,15.936603,-36.537579,-45.810429,-35.49144,-7.7820272,-41.499546,-153.7635,-36.512413,-45.822922,-16.284639,150.9431
2513000000,-16.692614,16.084204,-37.521168,9.9739876,-31.320478,0.26355317,-35.270882,-8.1796274,-37.571735,10.046202,-12.340767,-178.45079,-42.507912,19.325684,-41.606525,-156.51053,-31.267185,-0.081719518,-42.476986,19.697187,-14.481746,15.425605,-36.404732,-46.757278,-35.366238,-8.3004522,-41.867596,-156.78595,-36.379681,-46.999447,-16.304991,150.42534
2513500000,-16.690954,15.779428,-37.573452,9.3632755,-31.326139,-0.97417611,-35.126705,-8.8947611,-37.629345,9.4166784,-12.313929,-178.59769,-42.384647,18.714167,-41.998756,-159.52414,-31.271513,-1.3197297,-42.349293,19.192402,-14.433951,14.921296,-36.277988,-47.837696,-35.225662,-8.9551182,-42.251534,-159.61858,-36.258659,-48.27623,-16.324821,149.93344
2514000000,-16.693674,15.469045,-37.631458,8.6145582,-31.328102,-2.1858428,-34.975971,-9.8099785,-37.692799,8.7148743,-12.286883,-178.74632,-42.300533,17.782976,-42.393654,-162.35216,-31.275307,-2.5599051,-42.254215,18.325924,-14.385588,14.426965,-36.150894,-48.99258,-35.075928,-9.7920904,-42.637135,-162.35165,-36.148689,-49.597614,-16.343781,149.44231
2514500000,-16.695671,15.183625,-37.711052,7.777678,-31.336987,-3.3862042,-34.827457,-10.9123,-37.776718,7.9184818,-12.260153,-178.89928,-42.279247,16.539637,-42.803822,-165.15926,-31.282337,-3.8006601,-42.216274,17.138062,-14.339991,13.933443,-36.028557,-50.265354,-34.923775,-10.813453,-43.036964,-165.04442,-36.053452,-51.014282,-16.35989,148.98503
2515000000,-16.700432,14.919756,-37.814945,7.0331407,-31.348705,-4.5897617,-34.688583,-12.205311,-37.879078,7.2089214,-12.234257,-179.05026,-42.325905,15.297102,-43.225582,-167.80853,-31.295206,-5.0379086,-42.251053,15.9146,-14.294737,13.45255,-35.915646,-51.65517,-34.778709,-12.014379,-43.436558,-167.68501,-35.971588,-52.466007,-16.373499,148.54105
2515500000,-16.709908,14.67745,-37.918133,6.3329372,-31.368731,-5.7663031,-34.564678,-13.622316,-37.976051,6.5719457,-12.20852,-179.20404,-42.416798,14.146543,-43.643951,-170.4081,-31.316526,-6.2728524,-42.323009,14.767738,-14.249823,12.986188,-35.815666,-53.078308,-34.644306,-13.389529,-43.843307,-170.27693,-35.899273,-53.891956,-16.382952,148.10912
2516000000,-16.725388,14.478496,-38.036179,5.6373372,-31.392611,-6.8769183,-34.45599,-15.179806,-38.081219,5.8968582,-12.181338,-179.34799,-42.536488,13.087395,-44.092274,-173.08308,-31.345751,-7.4434071,-42.43557,13.736907,-14.204127,12.527541,-35.71888,-54.551983,-34.523342,-14.918406,-44.284,-173.07228,-35.824379,-55.321487,-16.390783,147.65128
2516500000,-16.741899,14.343934,-38.168873,5.0789785,-31.419823,-7.9359541,-34.366879,-16.854029,-38.208374,5.3070459,-12.154305,-179.49765,-42.69445,12.156216,-44.585373,-175.60606,-31.382099,-8.5538216,-42.59034,12.736966,-14.158261,12.065649,-35.629883,-56.146305,-34.425629,-16.556957,-44.758503,-175.74086,-35.747868,-56.829586,-16.395651,147.22969
2517000000,-16.757784,14.270729,-38.298313,4.7651734,-31.43676,-8.9808216,-34.303963,-18.580236,-38.335815,4.9675159,-12.128268,-179.66499,-42.882038,11.365088,-45.086704,-177.82928,-31.416252,-9.6222143,-42.769768,11.875203,-14.113455,11.608652,-35.55761,-57.814907,-34.352001,-18.272198,-45.259159,-178.21072,-35.681667,-58.428169,-16.399057,146.79063
2517500000,-16.777277,14.256783,-38.417267,4.501061,-31.460485,-9.9026546,-34.262806,-20.354677,-38.455772,4.6713853,-12.100995,-179.81833,-43.14222,10.772159,-45.593319,-179.94817,-31.456635,-10.546593,-43.027611,11.322829,-14.06879,11.171641,-35.506935,-59.526051,-34.296829,-20.040903,-45.787868,179.45428,-35.634365,-60.087074,-16.40024,146.34245
2518000000,-16.789791,14.312476,-38.515583,4.3622675,-31.466347,-10.792979,-34.245747,-22.13501,-38.557438,4.5191355,-12.073976,-179.98584,-43.415928,10.721915,-46.107124,178.03036,-31.478334,-11.383443,-43.29884,11.267614,-14.024137,10.745776,-35.470463,-61.16888,-34.267757,-21.831728,-46.348953,177.35449,-35.597939,-61.711189,-16.399996,145.89169
2518500000,-16.796741,14.430987,-38.600899,4.2291584,-31.45717,-11.74866,-34.253731,-23.860298,-38.648754,4.4388309,-12.047601,179.84456,-43.667255,11.154442,-46.634541,176.13156,-31.481909,-12.246552,-43.543873,11.689037,-13.978335,10.33261,-35.439949,-62.772774,-34.265686,-23.590931,-46.925919,175.43584,-35.56678,-63.324829,-16.396568,145.42
2519000000,-16.795343,14.582244,-38.676849,4.1698737,-31.444351,-12.767791,-34.282345,-25.481627,-38.726418,4.4084477,-12.019999,179.67972,-43.911858,11.717022,-47.176437,174.3593,-31.475355,-13.163182,-43.767109,12.291258,-13.931968,9.928566,-35.409782,-64.369286,-34.28302,-25.255245,-47.520065,173.71677,-35.543396,-64.93132,-16.390825,144.93069
2519500000,-16.782143,14.758173,-38.729069,4.0881062,-31.436014,-13.87181,-34.322311,-26.958858,-38.784657,4.3938127,-11.993269,179.50842,-44.145596,12.802395,-47.739815,172.56404,-31.465538,-14.151501,-43.986496,13.290734,-13.882018,9.5322371,-35.378517,-66.006592,-34.310474,-26.790709,-48.142784,172.33261,-35.523495,-66.568504,-16.383812,144.42746
2520000000,-16.761259,14.92899,-38.780182,3.9744885,-31.435978,-15.001471,-34.354549,-28.28393,-38.829212,4.3531232,-11.967212,179.32518,-44.335854,14.207369,-48.352306,171.13216,-31.459427,-15.193335,-44.161068,14.658055,-13.831551,9.1376476,-35.352566,-67.660583,-34.335079,-28.223942,-48.790951,171.2632,-35.512035,-68.191292,-16.377266,143.9034
2520500000,-16.730324,15.097593,-38.824196,3.9139388,-31.444132,-16.10635,-34.373108,-29.57906,-38.868366,4.3523812,-11.939025,179.15269,-44.461201,15.86454,-48.977509,170.13393,-31.458481,-16.25676,-44.271362,16.268042,-13.779742,8.7337961,-35.338215,-69.35788,-34.351952,-29.589535,-49.427666,170.84807,-35.509037,-69.809608,-16.370972,143.35852
2521000000,-16.693775,15.251744,-38.85289,3.8871989,-31.454937,-17.196476,-34.381149,-30.858908,-38.890514,4.3276229,-11.912883,178.94695,-44.515259,17.651625,-49.597286,169.64578,-31.462166,-17.328873,-44.321419,17.890188,-13.725766,8.3211832,-35.326374,-71.045921,-34.364803,-30.972107,-50.027256,170.84315,-35.506664,-71.401413,-16.365881,142.79839
2521500000,-16.645483,15.382865,-38.87624,3.8119164,-31.463608,-18.238983,-34.376888,-32.172066,-38.908054,4.2938099,-11.885561,178.73456,-44.517315,19.26387,-50.157864,169.66818,-31.462851,-18.390867,-44.312458,19.399475,-13.671831,7.8825011,-35.318573,-72.766518,-34.369591,-32.346134,-50.53931,171.30103,-35.505322,-72.982758,-16.364563,142.22139
2522000000,-16.58882,15.483158,-38.889664,3.8025815,-31.467627,-19.290895,-34.367786,-33.600117,-38.911221,4.305613,-11.858107,178.50499,-44.469181,20.908888,-50.628681,169.79964,-31.463192,-19.47274,-44.272526,20.845335,-13.61758,7.4333777,-35.319294,-74.553421,-34.366016,-33.834198,-50.949085,171.79135,-35.505264,-74.656479,-16.366949,141.62747
2522500000,-16.526466,15.542328,-38.880207,3.766077,-31.468147,-20.341379,-34.362232,-35.130054,-38.886837,4.2567878,-11.83379,178.2514,-44.364498,22.308609,-51.014374,169.86299,-31.464979,-20.575993,-44.174263,22.051653,-13.566275,6.9662347,-35.340736,-76.354248,-34.366776,-35.38974,-51.256504,172.01398,-35.518181,-76.336975,-16.373867,141.03204
2523000000,-16.456347,15.565791,-38.867092,3.6080308,-31.460752,-21.413204,-34.363964,-36.788406,-38.861328,4.0622334,-11.812632,177.98134,-44.256042,23.345589,-51.314579,169.52452,-31.462837,-21.671635,-44.080029,23.016474,-13.516142,6.4896908,-35.372822,-78.143555,-34.372559,-37.075275,-51.498138,171.63255,-35.539768,-78.050392,-16.383841,140.44737
2523500000,-16.380461,15.547519,-38.852589,3.4703228,-31.449644,-22.54332,-34.384418,-38.56818,-38.842377,3.8177013,-11.794023,177.71832,-44.141586,24.308949,-51.623604,168.42273,-31.461275,-22.832798,-43.980785,23.872538,-13.468238,6.0055547,-35.422726,-79.930405,-34.403004,-38.875587,-51.751118,170.43964,-35.577187,-79.767906,-16.396717,139.89471
2524000000,-16.302599,15.490883,-38.838333,3.3600008,-31.436806,-23.754292,-34.43298,-40.39772,-38.824043,3.5960345,-11.780735,177.44463,-44.016346,25.184063,-51.985958,166.78166,-31.456129,-24.027594,-43.874054,24.648708,-13.42406,5.516655,-35.491608,-81.653816,-34.458111,-40.714119,-52.049091,168.67929,-35.634136,-81.423347,-16.411955,139.33896
2524500000,-16.226143,15.397028,-38.804832,3.2538085,-31.423414,-25.057205,-34.511383,-42.234406,-38.789223,3.3810518,-11.768184,177.17841,-43.878525,25.945646,-52.425762,165.11594,-31.453289,-25.297922,-43.76025,25.367048,-13.380104,5.0377741,-35.577721,-83.268288,-34.540024,-42.5019,-52.461296,166.82883,-35.700825,-83.005539,-16.429844,138.81607
2525000000,-16.138895,15.286982,-38.756485,3.0638554,-31.418703,-26.469563,-34.607143,-44.018833,-38.747364,3.0847085,-11.757919,176.91362,-43.747765,26.46492,-52.859451,163.39848,-31.45899,-26.640898,-43.652924,25.879478,-13.336984,4.559577,-35.665913,-84.739235,-34.637241,-44.2705,-52.879265,164.93745,-35.774529,-84.45153,-16.449541,138.31438
2525500000,-16.049677,15.117496,-38.711315,2.8184609,-31.424599,-27.956846,-34.726078,-45.774925,-38.711079,2.761174,-11.749881,176.66478,-43.636223,27.304108,-53.374435,161.25337,-31.469347,-28.049471,-43.56184,26.74725,-13.293141,4.0694838,-35.75058,-86.112289,-34.752419,-46.018421,-53.354046,162.65845,-35.8414,-85.820152,-16.468832,137.84099
2526000000,-15.956672,14.872397,-38.650021,2.559123,-31.452129,-29.540504,-34.875412,-47.48336,-38.664776,2.4358747,-11.743919,176.40399,-43.460022,27.851631,-53.970554,159.48166,-31.496666,-29.560175,-43.406715,27.36269,-13.25605,3.5698743,-35.839039,-87.412781,-34.896172,-47.743351,-53.940601,160.71623,-35.9114,-87.16024,-16.487839,137.39426
2526500000,-15.858454,14.554759,-38.586037,2.1315815,-31.497807,-31.139315,-35.056034,-49.092003,-38.611095,1.9701777,-11.739672,176.14885,-43.302895,28.199255,-54.581619,157.97418,-31.542948,-31.068918,-43.26268,27.8276,-13.221779,3.0913539,-35.920094,-88.605156,-35.069069,-49.390556,-54.515221,159.03188,-35.975269,-88.400032,-16.506395,136.94765
2527000000,-15.761268,14.14082,-38.5298,1.6250268,-31.569094,-32.731426,-35.266224,-50.491821,-38.572174,1.4457705,-11.737844,175.89291,-43.16497,28.484776,-55.170731,156.60399,-31.607948,-32.599678,-43.124104,28.150759,-13.18924,2.6297481,-35.994556,-89.768661,-35.275856,-50.872311,-55.104004,157.53951,-36.037342,-89.639404,-16.523163,136.53256
