!CSV A.01.01
!Keysight Technologies,N5222B,MY58422327,A.13.60.06
!Date: Monday, March 28, 2022 15:30:58
!Source: Standard

BEGIN CH1_DATA
Freq(Hz),S11(DB),S11(DEG),S12(DB),S12(DEG),S13(DB),S13(DEG),S14(DB),S14(DEG),S21(DB),S21(DEG),S22(DB),S22(DEG),S23(DB),S23(DEG),S24(DB),S24(DEG),S31(DB),S31(DEG),S32(DB),S32(DEG),S33(DB),S33(DEG),S34(DB),S34(DEG),S41(DB),S41(DEG),S42(DB),S42(DEG),S43(DB),S43(DEG),S44(DB),S44(DEG)
2500000000,-17.325445,25.832844,-34.429562,37.955845,-32.97718,27.491922,-34.458008,2.2874858,-34.498398,37.61657,-13.103061,-174.24248,-39.057125,25.584768,-39.701927,-77.986145,-32.893532,27.38904,-38.973278,25.532635,-15.87534,28.081205,-36.846313,-33.777321,-34.526318,2.0704069,-39.646996,-78.619904,-36.93272,-33.860008,-16.371094,164.28769
2500500000,-17.304626,25.551905,-34.530361,36.732155,-32.906631,26.659073,-34.597733,0.9579618,-34.603764,36.432766,-13.062063,-174.42009,-39.148037,24.514042,-39.657372,-79.885002,-32.824322,26.542709,-39.063431,24.438234,-15.822297,27.497988,-36.909138,-34.162884,-34.667831,0.75796449,-39.599064,-80.502182,-36.994999,-34.239105,-16.365055,163.88272
2501000000,-17.279209,25.277256,-34.635929,35.560566,-32.839779,25.795744,-34.752941,-0.22284424,-34.70911,35.327705,-13.019958,-174.58095,-39.249165,23.35409,-39.614544,-81.892456,-32.760513,25.662699,-39.166847,23.265591,-15.769965,26.913282,-36.953732,-34.65736,-34.824898,-0.41673523,-39.554829,-82.487953,-37.041775,-34.738621,-16.360178,163.47163
2501500000,-17.248398,25.003412,-34.727001,34.503918,-32.779827,24.94232,-34.917034,-1.1722479,-34.800488,34.306431,-12.980653,-174.75159,-39.364349,22.208593,-39.584965,-83.95076,-32.705986,24.797525,-39.276295,22.140574,-15.721704,26.337696,-36.997257,-35.205276,-34.990238,-1.3478451,-39.525654,-84.547646,-37.088543,-35.276836,-16.353546,163.06744
2502000000,-17.218027,24.690193,-34.805706,33.445892,-32.722111,24.116692,-35.07444,-1.9586213,-34.882854,33.275585,-12.942037,-174.91774,-39.483025,21.110258,-39.551464,-86.003036,-32.654461,23.947025,-39.396221,21.071754,-15.675588,25.77989,-37.044617,-35.859055,-35.151848,-2.119683,-39.491787,-86.610939,-37.135647,-35.944805,-16.346508,162.65886
2502500000,-17.183344,24.363955,-34.87764,32.398857,-32.670307,23.280745,-35.229622,-2.5711589,-34.955631,32.243504,-12.903118,-175.07999,-39.594784,20.070898,-39.516064,-88.097893,-32.611057,23.103357,-39.507778,20.032419,-15.633291,25.243397,-37.10675,-36.576946,-35.30888,-2.7180231,-39.455868,-88.715645,-37.200207,-36.62936,-16.339256,162.23643
2503000000,-17.146055,24.017199,-34.935272,31.364342,-32.627441,22.513664,-35.365429,-3.078073,-35.016548,31.230326,-12.867426,-175.26456,-39.713257,19.006172,-39.482964,-90.276077,-32.573887,22.354401,-39.616154,18.956568,-15.590881,24.73801,-37.185635,-37.1992,-35.446423,-3.204241,-39.421284,-90.907478,-37.278503,-37.268951,-16.330791,161.81775
2503500000,-17.113749,23.636217,-34.982002,30.230602,-32.580589,21.854031,-35.49094,-3.4769261,-35.062298,30.130409,-12.831884,-175.44641,-39.82547,17.833481,-39.441265,-92.459541,-32.534702,21.724831,-39.72155,17.759995,-15.548508,24.263588,-37.271717,-37.637772,-35.57074,-3.5879219,-39.376698,-93.092033,-37.367886,-37.727436,-16.321135,161.39366
2504000000,-17.078674,23.243776,-35.028046,29.056543,-32.518909,21.27832,-35.602695,-3.8383927,-35.105007,28.983112,-12.796124,-175.62453,-39.946739,16.595467,-39.388248,-94.735878,-32.47665,21.182463,-39.843418,16.463377,-15.504071,23.817682,-37.345963,-37.992683,-35.6819,-3.9056947,-39.321293,-95.347153,-37.446117,-38.064812,-16.310051,160.93599
2504500000,-17.043505,22.847319,-35.071026,27.805326,-32.439438,20.685482,-35.703651,-4.1370473,-35.146008,27.753843,-12.763371,-175.81714,-40.084297,15.165288,-39.328377,-97.177132,-32.393993,20.661276,-39.986526,15.011144,-15.455454,23.391724,-37.411613,-38.182751,-35.779873,-4.1709409,-39.255505,-97.779152,-37.512711,-38.245407,-16.296005,160.48012
2505000000,-17.005777,22.457129,-35.118816,26.420074,-32.345325,20.072155,-35.786728,-4.3497143,-35.188194,26.382404,-12.733042,-176.01945,-40.266357,13.768479,-39.260475,-99.826019,-32.299099,20.061497,-40.170837,13.565454,-15.40464,22.962185,-37.458862,-38.289551,-35.857368,-4.382153,-39.187679,-100.44238,-37.561146,-38.339333,-16.283165,159.98109
2505500000,-16.966507,22.040649,-35.181816,25.01112,-32.232037,19.338182,-35.861774,-4.5798988,-35.24094,24.992702,-12.703306,-176.21162,-40.485882,12.368494,-39.2122,-102.72375,-32.178356,19.374222,-40.396126,12.150276,-15.349196,22.530745,-37.478626,-38.360111,-35.925896,-4.6141548,-39.135979,-103.33415,-37.575516,-38.38147,-16.269436,159.46449
2506000000,-16.928642,21.613359,-35.253933,23.523323,-32.116245,18.477488,-35.930859,-4.7896247,-35.30558,23.501534,-12.676276,-176.41052,-40.732388,11.034161,-39.173374,-105.87785,-32.056133,18.526443,-40.654018,10.819582,-15.292366,22.09671,-37.475185,-38.41827,-35.993828,-4.8617663,-39.099491,-106.48058,-37.571377,-38.437603,-16.255936,158.90953
2506500000,-16.890591,21.186846,-35.349094,21.975203,-31.999437,17.530157,-35.996693,-4.8946357,-35.39283,21.934196,-12.651713,-176.61761,-41.02298,9.8370771,-39.167408,-109.26197,-31.935549,17.574144,-40.949688,9.649415,-15.233679,21.648993,-37.453033,-38.55191,-36.057056,-4.9681597,-39.090187,-109.86362,-37.550488,-38.562878,-16.244385,158.33321
2507000000,-16.856495,20.76302,-35.465591,20.51479,-31.884201,16.434397,-36.033669,-4.9526968,-35.506001,20.451622,-12.628045,-176.80074,-41.357666,8.8686419,-39.199017,-112.82819,-31.816208,16.471342,-41.281513,8.7323303,-15.173512,21.190174,-37.421291,-38.695518,-36.093132,-5.0362916,-39.128613,-113.43396,-37.514183,-38.697392,-16.236288,157.72734
2507500000,-16.817078,20.361168,-35.596325,19.114075,-31.781103,15.242083,-36.050892,-5.0238118,-35.633377,19.072823,-12.606998,-176.98764,-41.721691,8.2659578,-39.286732,-116.49866,-31.709694,15.282768,-41.649899,8.1552639,-15.113014,20.728041,-37.362644,-38.853653,-36.109463,-5.1004577,-39.214558,-117.08716,-37.453621,-38.881104,-16.230913,157.10883
2508000000,-16.780672,19.943441,-35.737644,17.798147,-31.689722,13.977357,-36.059303,-5.127315,-35.771301,17.753679,-12.585976,-177.15428,-42.105896,8.0797567,-39.426353,-120.19008,-31.617813,14.006577,-42.027168,8.0455742,-15.054336,20.259424,-37.286892,-39.132084,-36.11665,-5.2185149,-39.351563,-120.7391,-37.38203,-39.201782,-16.22958,156.47783
2508500000,-16.744583,19.518438,-35.885605,16.609669,-31.613556,12.661806,-36.059887,-5.2564225,-35.912304,16.547319,-12.564122,-177.29965,-42.488731,8.3906612,-39.606785,-123.78313,-31.535717,12.697554,-42.40374,8.3696756,-14.99309,19.79962,-37.201355,-39.542858,-36.116474,-5.3545799,-39.526764,-124.3063,-37.302422,-39.610744,-16.231306,155.83638
2509000000,-16.714287,19.070391,-36.036514,15.472239,-31.54837,11.330324,-36.050331,-5.3801179,-36.058285,15.401658,-12.544108,-177.45605,-42.839447,9.2583857,-39.830002,-127.29242,-31.469748,11.355126,-42.743305,9.1800356,-14.93215,19.331303,-37.120701,-40.039722,-36.107826,-5.4628015,-39.742264,-127.77395,-37.222816,-40.110477,-16.235153,155.1985
2509500000,-16.687046,18.624075,-36.195591,14.44798,-31.495462,9.9937506,-36.024742,-5.4610291,-36.207455,14.3551,-12.521395,-177.59843,-43.137825,10.471046,-40.081463,-130.61092,-31.413111,10.005677,-43.03294,10.353401,-14.869712,18.862286,-37.036652,-40.569702,-36.082539,-5.5507464,-39.981506,-131.10095,-37.142437,-40.658813,-16.241982,154.5583
2510000000,-16.668886,18.172043,-36.362099,13.516245,-31.452259,8.6595345,-35.982227,-5.5687051,-36.364372,13.370884,-12.49631,-177.72694,-43.380123,11.924135,-40.35112,-133.7908,-31.36659,8.6346636,-43.267792,11.731521,-14.807513,18.392944,-36.954006,-41.12883,-36.037361,-5.6550245,-40.239426,-134.2813,-37.059711,-41.177193,-16.253292,153.91058
2510500000,-16.662058,17.723751,-36.531055,12.75915,-31.420862,7.3297033,-35.915363,-5.699707,-36.527878,12.553542,-12.471977,-177.87061,-43.564251,13.635259,-40.63884,-136.88443,-31.3337,7.2743812,-43.451199,13.32584,-14.745879,17.910795,-36.855549,-41.687958,-35.973362,-5.8180714,-40.51088,-137.36662,-36.962482,-41.745327,-16.266012,153.30042
2511000000,-16.658152,17.316008,-36.689415,12.21894,-31.39884,6.0206823,-35.840683,-5.9481153,-36.683739,11.932349,-12.447088,-178.00638,-43.659424,15.486628,-40.938465,-139.91167,-31.310431,5.9332943,-43.556469,15.024357,-14.68355,17.420679,-36.746361,-42.331322,-35.898972,-6.0860548,-40.790462,-140.44193,-36.852047,-42.329563,-16.283104,152.68829
2511500000,-16.657583,16.940454,-36.816025,11.801989,-31.386312,4.7331777,-35.754524,-6.2567396,-36.814613,11.44665,-12.420482,-178.13148,-43.667965,17.184258,-41.260288,-142.91698,-31.300085,4.6357298,-43.575123,16.60544,-14.622495,16.913292,-36.622429,-43.06842,-35.814056,-6.4253507,-41.098679,-143.45744,-36.728226,-43.063225,-16.303482,152.09999
2512000000,-16.658337,16.601274,-36.91423,11.365337,-31.371984,3.5158911,-35.662529,-6.6533513,-36.916763,10.933377,-12.393364,-178.27113,-43.605797,18.473917,-41.60265,-145.7164,-31.286797,3.3927965,-43.53857,17.926723,-14.567837,16.387466,-36.496483,-43.983875,-35.720577,-6.7936087,-41.422066,-146.3954,-36.601276,-43.980331,-16.325762,151.54362
2512500000,-16.657646,16.27869,-36.992153,10.846843,-31.370495,2.2970338,-35.558235,-7.0580883,-37.003548,10.374717,-12.366567,-178.41556,-43.515644,19.447153,-41.964806,-148.47102,-31.288422,2.1798756,-43.463058,18.939011,-14.513414,15.880635,-36.373146,-44.94046,-35.617275,-7.1805158,-41.773483,-149.25908,-36.481236,-44.913219,-16.345993,151.02306
2513000000,-16.654451,15.963841,-37.060848,10.259612,-31.370153,1.1532708,-35.433445,-7.5530043,-37.082417,9.7727289,-12.339487,-178.55225,-43.383701,19.980635,-42.341118,-151.0818,-31.28491,1.0216012,-43.343452,19.496508,-14.4624,15.374052,-36.248108,-46.026894,-35.487732,-7.6707926,-42.14901,-152.01128,-36.356098,-45.993195,-16.366638,150.5206
2513500000,-16.65184,15.647916,-37.128273,9.5603037,-31.366964,0.018465767,-35.292828,-8.2082663,-37.158989,9.0351486,-12.312381,-178.69336,-43.260395,20.001541,-42.729935,-153.53447,-31.282114,-0.098573081,-43.217571,19.602331,-14.413746,14.875039,-36.131195,-47.234192,-35.344074,-8.3094883,-42.542179,-154.58644,-36.23563,-47.158295,-16.385683,150.0359
2514000000,-16.653797,15.32347,-37.209316,8.7850075,-31.360294,-1.0886605,-35.144711,-9.0365791,-37.244328,8.252388,-12.284513,-178.83783,-43.158596,19.649448,-43.113361,-155.80836,-31.275528,-1.2293108,-43.120979,19.26755,-14.364676,14.388867,-36.012501,-48.488049,-35.19463,-9.1360493,-42.945446,-157.02098,-36.117371,-48.409481,-16.404282,149.55063
2514500000,-16.655621,15.026126,-37.30122,7.9762311,-31.355913,-2.2200861,-34.992611,-10.041615,-37.345665,7.4543796,-12.257553,-178.98767,-43.118687,18.905743,-43.530102,-158.11858,-31.271664,-2.35393,-43.082615,18.561543,-14.317878,13.90467,-35.905121,-49.820587,-35.042206,-10.16328,-43.364643,-159.36513,-36.00531,-49.750385,-16.421993,149.10263
2515000000,-16.659334,14.747485,-37.41053,7.3005152,-31.355959,-3.342617,-34.847759,-11.237539,-37.459419,6.7372141,-12.231142,-179.13333,-43.141014,18.184155,-43.958042,-160.24402,-31.269623,-3.4918816,-43.107769,17.83569,-14.270773,13.428459,-35.802719,-51.242455,-34.895611,-11.374566,-43.791622,-161.55533,-35.905231,-51.162395,-16.437454,148.67371
2515500000,-16.66864,14.488411,-37.513073,6.6757598,-31.360434,-4.4833026,-34.713726,-12.600025,-37.568062,6.1020889,-12.204892,-179.28204,-43.188484,17.508524,-44.390793,-162.28244,-31.273888,-4.6348233,-43.1684,17.217148,-14.223955,12.963955,-35.715202,-52.685272,-34.763096,-12.754928,-44.217113,-163.62701,-35.812725,-52.627674,-16.448803,148.26286
2516000000,-16.684416,14.265813,-37.620384,6.0470829,-31.371241,-5.5707598,-34.595261,-14.121185,-37.687824,5.4943604,-12.176872,-179.42102,-43.288834,16.861986,-44.837837,-164.31331,-31.285553,-5.7209439,-43.266407,16.634781,-14.176234,12.503188,-35.626495,-54.159172,-34.645908,-14.280655,-44.668846,-165.7637,-35.721798,-54.104851,-16.45776,147.83469
2516500000,-16.701572,14.110699,-37.742233,5.5514307,-31.383644,-6.6259637,-34.498688,-15.760939,-37.817585,5.0206046,-12.14849,-179.56641,-43.421734,16.339853,-45.329704,-166.13716,-31.297001,-6.7720714,-43.405003,16.166088,-14.129076,12.040721,-35.540642,-55.728077,-34.552734,-15.920102,-45.160744,-167.67007,-35.635601,-55.687782,-16.462934,147.45041
2517000000,-16.71917,14.014688,-37.854736,5.2475128,-31.392179,-7.6593032,-34.426987,-17.457226,-37.934132,4.8008199,-12.121153,-179.73123,-43.589569,15.937328,-45.808327,-167.63127,-31.30501,-7.8180661,-43.562717,15.861779,-14.083129,11.577002,-35.470997,-57.366226,-34.482296,-17.636326,-45.65316,-169.23676,-35.563019,-57.362888,-16.464575,147.04962
2517500000,-16.739748,13.979386,-37.951939,4.9810343,-31.406843,-8.5973978,-34.376724,-19.228601,-38.036816,4.6006269,-12.091987,-179.88695,-43.8204,15.987802,-46.302738,-168.94252,-31.320314,-8.7554893,-43.793312,15.895868,-14.036707,11.136071,-35.413834,-59.058262,-34.434113,-19.391813,-46.150219,-170.64357,-35.507572,-59.05542,-16.462814,146.63898
2518000000,-16.755499,14.019799,-38.026989,4.8122287,-31.40304,-9.5138998,-34.353168,-20.994701,-38.113895,4.4875913,-12.063087,179.94225,-44.045849,16.577131,-46.789272,-170.10609,-31.31842,-9.6657209,-44.004982,16.564064,-13.990841,10.704102,-35.369366,-60.7131,-34.413761,-21.153194,-46.639606,-171.85545,-35.461185,-60.744438,-16.458035,146.22426
2518500000,-16.764868,14.123426,-38.090363,4.5633111,-31.390926,-10.450582,-34.35907,-22.713833,-38.174255,4.3323069,-12.034511,179.76529,-44.219608,17.58547,-47.267242,-171.15067,-31.306057,-10.608734,-44.167393,17.533951,-13.943975,10.285279,-35.33313,-62.364635,-34.418827,-22.853783,-47.127201,-172.87309,-35.42152,-62.404797,-16.449444,145.77478
2519000000,-16.765844,14.264723,-38.145744,4.3731632,-31.375807,-11.466282,-34.381649,-24.325378,-38.223301,4.2036767,-12.004925,179.5869,-44.374229,18.711994,-47.75671,-172.06779,-31.292021,-11.622993,-44.304245,18.693773,-13.895969,9.87253,-35.296486,-64.021164,-34.441158,-24.44705,-47.603775,-173.86343,-35.389004,-64.096848,-16.43788,145.29791
2519500000,-16.754761,14.432231,-38.189213,4.1134429,-31.361319,-12.523556,-34.414318,-25.78838,-38.260181,3.9759963,-11.976401,179.39539,-44.490955,20.190788,-48.249443,-172.82587,-31.276978,-12.683885,-44.413548,20.049459,-13.845023,9.4650688,-35.267162,-65.726341,-34.472828,-25.891102,-48.091278,-174.55493,-35.362354,-65.811089,-16.424696,144.80363
2520000000,-16.736004,14.591765,-38.229645,3.809859,-31.350464,-13.602202,-34.44173,-27.126329,-38.296833,3.7067955,-11.949686,179.18646,-44.541634,21.828337,-48.761322,-173.28355,-31.270277,-13.768528,-44.456734,21.613289,-13.793329,9.0551367,-35.246895,-67.459534,-34.498909,-27.219566,-48.585991,-175.07881,-35.34679,-67.541328,-16.41214,144.27695
2520500000,-16.706766,14.745465,-38.270905,3.530596,-31.342442,-14.700376,-34.457245,-28.422308,-38.332279,3.4336431,-11.921495,178.98573,-44.537228,23.542255,-49.242134,-173.29568,-31.26391,-14.869799,-44.454727,23.136976,-13.740956,8.6379299,-35.239403,-69.17849,-34.512913,-28.511702,-49.0532,-175.21121,-35.341911,-69.247604,-16.400593,143.72261
2521000000,-16.672649,14.877701,-38.306282,3.2686632,-31.337505,-15.811094,-34.46627,-29.736151,-38.363567,3.1329274,-11.897378,178.75294,-44.459717,25.128254,-49.688381,-173.07817,-31.261269,-15.970251,-44.399471,24.656946,-13.686934,8.2096329,-35.238129,-70.879501,-34.522419,-29.814978,-49.48333,-175.17606,-35.342087,-70.945259,-16.391752,143.15236
2521500000,-16.62882,14.992603,-38.339348,3.0112765,-31.333143,-16.916571,-34.470497,-31.047062,-38.401264,2.8449056,-11.873335,178.51863,-44.346157,26.509769,-50.038868,-172.55112,-31.258371,-17.060658,-44.299065,26.019377,-13.632937,7.7557073,-35.238117,-72.568069,-34.521755,-31.117895,-49.835861,-174.88013,-35.341644,-72.633194,-16.386988,142.55928
2522000000,-16.578241,15.079614,-38.366119,2.8135881,-31.328094,-18.042044,-34.465691,-32.445717,-38.43,2.6597733,-11.850391,178.27379,-44.193039,27.759146,-50.308456,-172.31447,-31.251066,-18.179213,-44.172989,27.237135,-13.579355,7.2920289,-35.241852,-74.299049,-34.515965,-32.538754,-50.117111,-174.89034,-35.349377,-74.379463,-16.386339,141.95123
2522500000,-16.522335,15.139112,-38.377361,2.6005933,-31.323727,-19.192524,-34.464241,-33.938427,-38.444698,2.4235954,-11.830515,178.01604,-44.01297,28.59366,-50.517075,-172.52197,-31.247074,-19.322641,-44.00528,28.157141,-13.528724,6.8076777,-35.258858,-76.045784,-34.516171,-34.043007,-50.338631,-175.31508,-35.366882,-76.106239,-16.390074,141.34332
2523000000,-16.45882,15.172235,-38.392891,2.2746058,-31.32065,-20.353088,-34.468346,-35.540478,-38.461147,2.1162472,-11.81376,177.75008,-43.845287,29.13232,-50.694248,-173.40305,-31.24,-20.49218,-43.851002,28.766794,-13.480186,6.3191152,-35.281418,-77.798187,-34.522057,-35.650761,-50.547775,-176.51927,-35.392014,-77.870392,-16.39752,140.74838
2523500000,-16.38862,15.178864,-38.41711,2.0109713,-31.31702,-21.582232,-34.494495,-37.259205,-38.489323,1.8585345,-11.798356,177.49884,-43.690411,29.63933,-50.9426,-174.96559,-31.236683,-21.7286,-43.698193,29.339258,-13.433666,5.8249307,-35.317318,-79.572479,-34.548553,-37.371624,-50.81855,-178.20351,-35.431396,-79.648376,-16.408134,140.18004
2524000000,-16.315622,15.155982,-38.43671,1.8375459,-31.315077,-22.822075,-34.547897,-38.987251,-38.508305,1.6840105,-11.787167,177.24113,-43.530827,29.993769,-51.292873,-176.95055,-31.23457,-22.991888,-43.544765,29.799761,-13.391142,5.3262072,-35.374722,-81.296707,-34.603382,-39.108997,-51.193058,179.69789,-35.489975,-81.379951,-16.420803,139.60927
2524500000,-16.241072,15.096491,-38.440346,1.7762742,-31.317835,-24.14023,-34.622898,-40.671276,-38.516438,1.6101646,-11.776225,176.99321,-43.368061,30.242439,-51.728138,-178.80922,-31.238205,-24.331385,-43.386124,30.111439,-13.348484,4.834857,-35.445343,-82.952553,-34.680668,-40.773846,-51.665482,177.8092,-35.562546,-82.985771,-16.436474,139.07413
2525000000,-16.155735,15.018764,-38.427219,1.6912414,-31.330343,-25.519352,-34.714115,-42.291,-38.502674,1.5064697,-11.766151,176.74445,-43.234932,30.252956,-52.218613,179.40063,-31.250359,-25.718832,-43.245731,30.241964,-13.307416,4.3477325,-35.521221,-84.480942,-34.773315,-42.405159,-52.188221,176.14929,-35.640076,-84.493698,-16.454056,138.55269
2525500000,-16.067291,14.87606,-38.408257,1.5813752,-31.352394,-26.95376,-34.81945,-43.918064,-38.484093,1.390633,-11.757911,176.50499,-43.122154,30.620609,-52.821663,177.83665,-31.273809,-27.155706,-43.136986,30.692636,-13.265539,3.8505833,-35.598007,-85.933502,-34.878784,-43.998295,-52.821865,174.50645,-35.713196,-85.914879,-16.471352,138.06087
2526000000,-15.974314,14.659968,-38.364719,1.4796284,-31.392431,-28.428469,-34.952663,-45.45639,-38.443352,1.3077707,-11.751561,176.25294,-42.959469,30.777298,-53.498817,177.08743,-31.313414,-28.634647,-42.966312,30.974167,-13.229985,3.3449316,-35.675224,-87.289703,-35.009174,-45.546307,-53.521637,173.76671,-35.790497,-87.281601,-16.488556,137.5976
2526500000,-15.875833,14.36974,-38.302227,1.2033395,-31.447231,-29.898863,-35.107208,-46.931168,-38.386787,1.0567939,-11.747028,176.00192,-42.820068,30.792753,-54.143963,177.0024,-31.371887,-30.114157,-42.806316,31.040495,-13.198133,2.8591857,-35.751366,-88.582115,-35.159832,-47.032192,-54.180008,173.91447,-35.866619,-88.576042,-16.505716,137.12682
2527000000,-15.778032,13.981715,-38.249928,0.80854845,-31.523502,-31.357304,-35.289135,-48.207249,-38.334309,0.70378977,-11.744855,175.74593,-42.710285,30.765388,-54.689045,177.35802,-31.446659,-31.57132,-42.671886,31.000395,-13.167846,2.3914762,-35.824558,-89.844688,-35.342823,-48.352081,-54.750412,174.24141,-35.937016,-89.831078,-16.521593,136.68538
