!CSV A.01.01
!Keysight Technologies,N5222B,MY58422327,A.13.60.06
!Date: Monday, March 28, 2022 15:35:06
!Source: Standard

BEGIN CH1_DATA
Freq(Hz),S11(DB),S11(DEG),S12(DB),S12(DEG),S13(DB),S13(DEG),S14(DB),S14(DEG),S21(DB),S21(DEG),S22(DB),S22(DEG),S23(DB),S23(DEG),S24(DB),S24(DEG),S31(DB),S31(DEG),S32(DB),S32(DEG),S33(DB),S33(DEG),S34(DB),S34(DEG),S41(DB),S41(DEG),S42(DB),S42(DEG),S43(DB),S43(DEG),S44(DB),S44(DEG)
2500000000,-17.662174,22.231527,-32.925819,26.590588,-32.774529,-11.164591,-34.265896,6.9093728,-33.0233,26.358463,-13.459094,-173.33887,-41.861031,9.5035048,-40.910088,-136.71974,-32.781815,-10.960708,-41.710003,9.3679819,-15.59846,24.277914,-33.892509,-11.629062,-34.381351,6.2733517,-40.754608,-135.94864,-33.991718,-11.779251,-16.710852,165.25299
2500500000,-17.649794,21.998505,-33.023998,25.243227,-32.768051,-11.64133,-34.378418,5.5919948,-33.12038,25.058672,-13.413235,-173.47792,-41.993053,8.1869812,-40.800888,-138.01498,-32.775349,-11.423783,-41.84729,7.9765906,-15.555126,23.733477,-33.884464,-12.231926,-34.510284,5.0693564,-40.636879,-137.32278,-33.988693,-12.356797,-16.703325,164.89909
2501000000,-17.6341,21.76746,-33.130119,23.960724,-32.756763,-12.151499,-34.508438,4.3773699,-33.227413,23.814823,-13.366056,-173.60037,-42.139458,6.7138009,-40.676044,-139.38896,-32.759159,-11.89696,-42.006973,6.5030675,-15.511114,23.195629,-33.868908,-12.981064,-34.649628,3.9949336,-40.508278,-138.81285,-33.978886,-13.065856,-16.695221,164.54008
2501500000,-17.612528,21.546082,-33.235374,22.786079,-32.746208,-12.619987,-34.644741,3.3762372,-33.324013,22.697575,-13.321777,-173.73427,-42.317673,5.2765708,-40.562447,-140.83257,-32.746601,-12.368462,-42.190418,5.0761018,-15.469372,22.658815,-33.85519,-13.786469,-34.790836,3.1346858,-40.390121,-140.33907,-33.969421,-13.841796,-16.68395,164.18343
2502000000,-17.591158,21.286402,-33.333668,21.657724,-32.732075,-13.078832,-34.783592,2.4775679,-33.418201,21.602016,-13.278277,-173.86348,-42.513794,3.8515701,-40.444176,-142.25681,-32.730469,-12.821144,-42.395847,3.7406807,-15.428406,22.137747,-33.849655,-14.699633,-34.923241,2.3737516,-40.273262,-141.86433,-33.96479,-14.713494,-16.672052,163.82179
2502500000,-17.564873,21.021055,-33.430435,20.575233,-32.714466,-13.569107,-34.921577,1.7596641,-33.510059,20.533306,-13.234033,-173.99103,-42.722572,2.5079341,-40.320618,-143.67871,-32.71286,-13.299458,-42.603367,2.4982891,-15.389939,21.627476,-33.858543,-15.631991,-35.053211,1.7589657,-40.157951,-143.35539,-33.975903,-15.601739,-16.659193,163.44052
2503000000,-17.534443,20.732182,-33.520317,19.547419,-32.705261,-14.032394,-35.045872,1.1666063,-33.590717,19.52326,-13.193249,-174.13902,-42.933559,1.2586085,-40.181732,-145.11717,-32.705357,-13.750949,-42.817623,1.2741636,-15.351628,21.13999,-33.882145,-16.533329,-35.169109,1.2415189,-40.029091,-144.838,-33.995365,-16.456993,-16.644606,163.05908
2503500000,-17.50721,20.404457,-33.597439,18.505125,-32.702423,-14.415007,-35.163715,0.68189567,-33.659588,18.489492,-13.15293,-174.28328,-43.145607,-0.01491603,-40.031956,-146.52272,-32.701416,-14.120547,-43.019493,0.0062972759,-15.313753,20.668465,-33.906395,-17.316229,-35.27607,0.84423393,-39.894207,-146.28621,-34.018147,-17.208923,-16.629162,162.6685
2504000000,-17.477442,20.058813,-33.669998,17.489803,-32.687847,-14.690992,-35.266632,0.28689885,-33.724281,17.439953,-13.112236,-174.42332,-43.359913,-1.3708404,-39.860943,-147.93294,-32.686653,-14.361118,-43.234097,-1.2859802,-15.275167,20.216801,-33.930023,-18.073717,-35.367977,0.4864082,-39.734631,-147.71494,-34.034866,-17.934948,-16.612204,162.246
2504500000,-17.447996,19.699518,-33.735538,16.441605,-32.656269,-14.864181,-35.360069,-0.019859158,-33.784149,16.36792,-13.07367,-174.57646,-43.588264,-2.8728242,-39.659485,-149.45796,-32.653034,-14.501525,-43.45454,-2.7735538,-15.234405,19.783955,-33.944023,-18.745832,-35.447403,0.20421053,-39.544716,-149.23071,-34.046009,-18.588863,-16.592419,161.82419
2505000000,-17.415226,19.343611,-33.796345,15.345378,-32.606281,-15.055972,-35.430908,-0.24766448,-33.840771,15.215055,-13.03741,-174.74312,-43.857132,-4.4408512,-39.432644,-151.15521,-32.599682,-14.624448,-43.71294,-4.3542514,-15.192875,19.348471,-33.95422,-19.380363,-35.506222,0.0069952835,-39.329185,-150.88794,-34.048084,-19.210409,-16.572905,161.36017
2505500000,-17.381987,18.961096,-33.858875,14.216906,-32.526073,-15.253783,-35.488911,-0.49036452,-33.900494,14.057873,-13.000982,-174.90347,-44.153259,-6.0880604,-39.188534,-153.1196,-32.510761,-14.778632,-44.00832,-5.9929252,-15.148412,18.923723,-33.944698,-19.998468,-35.551239,-0.24385689,-39.094666,-152.81471,-34.034573,-19.846792,-16.551773,160.87192
2506000000,-17.351299,18.564798,-33.920963,13.032435,-32.430054,-15.563527,-35.538437,-0.73690188,-33.96027,12.83373,-12.967374,-175.07558,-44.488064,-7.7944393,-38.937473,-155.33075,-32.402676,-15.076977,-44.342865,-7.6694131,-15.10317,18.505415,-33.927147,-20.659813,-35.590786,-0.50014395,-38.84914,-154.98857,-34.010391,-20.503477,-16.531246,160.34328
2506500000,-17.320036,18.167423,-33.996761,11.771045,-32.320774,-15.97321,-35.578522,-0.89996964,-34.033123,11.540574,-12.936625,-175.26227,-44.875767,-9.6043606,-38.686527,-157.86568,-32.283447,-15.472399,-44.724674,-9.3976307,-15.055554,18.087606,-33.90263,-21.354052,-35.621864,-0.67081934,-38.600975,-157.47101,-33.979031,-21.200449,-16.511932,159.78799
2507000000,-17.293509,17.768703,-34.087528,10.56034,-32.194344,-16.52788,-35.595726,-1.0398771,-34.12183,10.267429,-12.906902,-175.42529,-45.34444,-11.44616,-38.454037,-160.76038,-32.149422,-16.054453,-45.186752,-11.124027,-15.005626,17.665939,-33.868752,-22.045912,-35.631947,-0.82678527,-38.37257,-160.28893,-33.944569,-21.932594,-16.495998,159.19371
2507500000,-17.262478,17.392378,-34.183735,9.3870974,-32.069622,-17.267063,-35.598213,-1.2507287,-34.216557,9.0477705,-12.880596,-175.59514,-45.894733,-13.033083,-38.250942,-163.90826,-32.016003,-16.789814,-45.725941,-12.617274,-14.954238,17.246649,-33.825172,-22.791925,-35.62606,-1.0465571,-38.170654,-163.38405,-33.899689,-22.723545,-16.483471,158.58501
2508000000,-17.236849,17.00033,-34.284401,8.2517433,-31.950525,-18.141689,-35.596695,-1.4779269,-34.320301,7.8566198,-12.855153,-175.74345,-46.546417,-14.221934,-38.094246,-167.22539,-31.888206,-17.682785,-46.354527,-13.761069,-14.902306,16.82078,-33.778862,-23.632259,-35.613171,-1.3029845,-38.00079,-166.64859,-33.852951,-23.592182,-16.474985,157.95959
2508500000,-17.212292,16.611855,-34.382786,7.1542315,-31.838449,-19.126554,-35.589176,-1.7120644,-34.428905,6.7361155,-12.829374,-175.8707,-47.296497,-14.830207,-37.976616,-170.67587,-31.769747,-18.694277,-47.06665,-14.257894,-14.847784,16.406971,-33.729317,-24.521141,-35.59856,-1.5520991,-37.87944,-170.04475,-33.809967,-24.516357,-16.470112,157.31982
2509000000,-17.19573,16.208044,-34.486137,6.0733228,-31.739891,-20.194813,-35.575764,-1.8968278,-34.540539,5.6555791,-12.805779,-176.00453,-48.117611,-14.413976,-37.902817,-174.14961,-31.665289,-19.8099,-47.852959,-13.868917,-14.791606,15.980162,-33.688038,-25.473255,-35.578365,-1.7915114,-37.795799,-173.48933,-33.768417,-25.47341,-16.467989,156.68446
2509500000,-17.182945,15.818242,-34.594849,5.0197535,-31.652395,-21.331324,-35.549301,-2.0513115,-34.658428,4.6187496,-12.779132,-176.12312,-48.963444,-12.926178,-37.866276,-177.5799,-31.571783,-20.942671,-48.64941,-12.335841,-14.734352,15.54603,-33.645248,-26.420855,-35.537018,-2.0020542,-37.749218,-176.90059,-33.732216,-26.438021,-16.469133,156.04509
2510000000,-17.179874,15.442417,-34.715206,4.0065389,-31.57575,-22.522554,-35.501495,-2.1895041,-34.786335,3.6613815,-12.750469,-176.22739,-49.806583,-10.222817,-37.858322,179.07198,-31.489605,-22.170395,-49.420177,-9.7824879,-14.675286,15.105573,-33.601238,-27.389057,-35.47979,-2.2095902,-37.732021,179.73105,-33.693367,-27.406185,-16.474749,155.40009
2510500000,-17.186775,15.08477,-34.84528,3.1224728,-31.512011,-23.751711,-35.429497,-2.3851569,-34.915535,2.8623853,-12.722944,-176.34229,-50.57354,-6.154109,-37.871616,175.80721,-31.420128,-23.436543,-50.130821,-5.9669275,-14.616961,14.643487,-33.552757,-28.368177,-35.40435,-2.4950306,-37.738525,176.43456,-33.649368,-28.383015,-16.481283,154.78839
2511000000,-17.195618,14.77448,-34.981182,2.4307353,-31.458683,-24.995838,-35.346245,-2.6681745,-35.041969,2.213254,-12.69413,-176.44434,-51.191902,-0.54883689,-37.902302,172.62859,-31.366461,-24.737474,-50.704548,-0.91583127,-14.558412,14.162223,-33.503654,-29.405569,-35.316658,-2.870373,-37.75882,173.20335,-33.601467,-29.396158,-16.492323,154.17566
2511500000,-17.204826,14.514615,-35.088959,1.8690023,-31.417488,-26.226471,-35.252148,-3.0340168,-35.141678,1.6807859,-12.663535,-176.53462,-51.508839,6.000524,-37.944241,169.47162,-31.326099,-26.027964,-51.01712,5.0380116,-14.502158,13.6679,-33.450569,-30.502634,-35.221489,-3.321815,-37.802906,169.98448,-33.550774,-30.466162,-16.506136,153.58167
2512000000,-17.214222,14.280485,-35.171959,1.3431488,-31.382406,-27.421051,-35.153572,-3.4624774,-35.218014,1.1481415,-12.631639,-176.63928,-51.511227,12.604687,-38.006149,166.41667,-31.29096,-27.272421,-51.018188,10.788978,-14.453012,13.148533,-33.40691,-31.703106,-35.116364,-3.8441317,-37.865051,166.87709,-33.505978,-31.628307,-16.522501,153.01067
2512500000,-17.219559,14.060425,-35.236858,0.7607379,-31.357832,-28.640547,-35.039154,-3.8790736,-35.272926,0.52807122,-12.599391,-176.74693,-51.253376,18.48111,-38.077049,163.39655,-31.272467,-28.520576,-50.82114,15.934299,-14.406343,12.651937,-33.368423,-32.89806,-35.006485,-4.4214334,-37.94046,163.80682,-33.466076,-32.797737,-16.53813,152.47305
2513000000,-17.222662,13.837212,-35.29591,0.12819795,-31.339642,-29.804409,-34.900417,-4.408699,-35.328819,-0.17881201,-12.566133,-176.84807,-50.764442,22.737011,-38.161377,160.44821,-31.261215,-29.709297,-50.439705,19.823698,-14.362411,12.159039,-33.334801,-34.100349,-34.879337,-5.0649405,-38.031979,160.82932,-33.429825,-34.005341,-16.554834,151.94968
2513500000,-17.226349,13.614487,-35.347393,-0.63042939,-31.322252,-30.92165,-34.744423,-5.0866737,-35.380249,-0.98202443,-12.533592,-176.95668,-50.217052,25.084291,-38.261066,157.59486,-31.24778,-30.832314,-49.977154,21.979826,-14.322034,11.679439,-33.308781,-35.314411,-34.746666,-5.8459759,-38.137981,158.04979,-33.401432,-35.223522,-16.571964,151.44984
2514000000,-17.234518,13.382338,-35.408394,-1.3922625,-31.301289,-32.038486,-34.582203,-5.9931011,-35.445274,-1.8127898,-12.499297,-177.07011,-49.73003,25.829098,-38.365135,154.82512,-31.229725,-31.918158,-49.583771,22.863577,-14.281081,11.214675,-33.282482,-36.520695,-34.60371,-6.8125324,-38.244579,155.32341,-33.375515,-36.439274,-16.589211,150.95679
2514500000,-17.242395,13.181739,-35.477409,-2.1914885,-31.278856,-33.17025,-34.421806,-7.083231,-35.523273,-2.6615272,-12.465502,-177.19008,-49.390251,25.437674,-38.470257,152.09886,-31.207857,-33.022419,-49.321976,22.77659,-14.242016,10.758412,-33.257027,-37.719181,-34.465588,-7.9144845,-38.350338,152.64285,-33.351151,-37.666073,-16.605284,150.50259
2515000000,-17.251499,13.002286,-35.555733,-2.9241099,-31.258747,-34.314426,-34.267246,-8.3697271,-35.612415,-3.4388309,-12.432289,-177.31053,-49.210781,24.886896,-38.582535,149.48228,-31.185965,-34.143509,-49.173351,22.451036,-14.202946,10.31524,-33.233551,-38.950542,-34.333687,-9.1522169,-38.461075,150.03781,-33.333092,-38.878807,-16.618505,150.06747
2515500000,-17.266691,12.847732,-35.62793,-3.5973058,-31.239325,-35.49556,-34.128006,-9.804553,-35.701756,-4.1204395,-12.399142,-177.43312,-49.122501,24.203983,-38.694191,146.91794,-31.165071,-35.29356,-49.111324,21.9844,-14.163965,9.884016,-33.211807,-40.161201,-34.208519,-10.527596,-38.566196,147.50833,-33.313534,-40.087013,-16.628128,149.6541
2516000000,-17.286629,12.729593,-35.708237,-4.306109,-31.227293,-36.677197,-34.001926,-11.399657,-35.792637,-4.781683,-12.363452,-177.54813,-49.135506,23.471054,-38.806427,144.33904,-31.149876,-36.45142,-49.132912,21.494062,-14.124205,9.4639893,-33.187489,-41.380157,-34.094936,-12.042508,-38.673058,144.91298,-33.288105,-41.281925,-16.635269,149.22577
2516500000,-17.30785,12.688676,-35.800495,-4.9386082,-31.22168,-37.843811,-33.897583,-13.105079,-35.892872,-5.3430929,-12.327676,-177.67389,-49.270504,22.95089,-38.939976,141.78925,-31.136621,-37.614243,-49.251186,21.120325,-14.083164,9.0442905,-33.161171,-42.655727,-34.002975,-13.674749,-38.799065,142.33458,-33.263462,-42.53162,-16.637917,148.83908
2517000000,-17.32716,12.703692,-35.888649,-5.3378701,-31.21106,-39.003677,-33.818985,-14.892951,-35.984928,-5.6780586,-12.292383,-177.81998,-49.477566,22.707355,-39.079819,139.41342,-31.122387,-38.783695,-49.44828,20.882025,-14.04353,8.6308975,-33.140785,-43.946701,-33.930389,-15.358459,-38.936897,139.9024,-33.240936,-43.824017,-16.637663,148.43591
2517500000,-17.349888,12.776378,-35.962666,-5.6928988,-31.21327,-40.108181,-33.765587,-16.728409,-36.058277,-5.9784727,-12.255406,-177.95833,-49.823132,23.341072,-39.220753,137.07121,-31.117979,-39.899204,-49.818386,21.400537,-14.00319,8.2379284,-33.12846,-45.250751,-33.875565,-17.099405,-39.074448,137.54086,-33.225655,-45.109112,-16.634212,148.02097
2518000000,-17.365822,12.915079,-36.011055,-5.9480357,-31.204716,-41.16618,-33.738083,-18.574787,-36.106518,-6.1862392,-12.218689,-178.11699,-50.160572,25.076447,-39.365337,134.8419,-31.106956,-40.977997,-50.195568,23.213219,-13.962025,7.8560104,-33.116062,-46.530956,-33.846424,-18.850824,-39.223354,135.23442,-33.210304,-46.384739,-16.627434,147.60561
2518500000,-17.377089,13.116809,-36.042904,-6.2377896,-31.186539,-42.231846,-33.736286,-20.367571,-36.136341,-6.4657331,-12.182318,-178.28741,-50.406792,27.660604,-39.506084,132.71234,-31.08502,-42.097054,-50.473049,25.905617,-13.919781,7.4871817,-33.102573,-47.796772,-33.8419,-20.585148,-39.375782,133.0737,-33.192715,-47.641502,-16.617699,147.15227
2519000000,-17.380011,13.348446,-36.057915,-6.533381,-31.160526,-43.382458,-33.755642,-22.0653,-36.150333,-6.7608552,-12.145201,-178.45979,-50.598534,30.696032,-39.642303,130.65077,-31.060211,-43.266998,-50.671101,29.084278,-13.876102,7.1290722,-33.084221,-49.114895,-33.85075,-22.227234,-39.522972,131.00949,-33.171776,-48.959812,-16.604776,146.67883
2519500000,-17.37339,13.607339,-36.056824,-6.9119239,-31.136639,-44.589096,-33.784859,-23.615891,-36.15136,-7.1445451,-12.109405,-178.64717,-50.675869,34.304321,-39.783703,128.65181,-31.036283,-44.521046,-50.781078,32.926308,-13.828118,6.7720413,-33.069706,-50.493874,-33.872368,-23.761019,-39.668026,129.04807,-33.151875,-50.333218,-16.59053,146.18193
2520000000,-17.358425,13.867406,-36.047722,-7.3996305,-31.1173,-45.852825,-33.809044,-25.046177,-36.153667,-7.636179,-12.075191,-178.85194,-50.598503,38.056782,-39.924526,126.70502,-31.021667,-45.825947,-50.727051,36.926998,-13.7797,6.4152989,-33.05983,-51.899178,-33.892704,-25.189484,-39.810249,127.10418,-33.138603,-51.762173,-16.577251,145.65866
2520500000,-17.335398,14.137301,-36.042152,-7.9424829,-31.104187,-47.129635,-33.825855,-26.428539,-36.159416,-8.1274424,-12.040236,-179.05411,-50.412865,41.557076,-40.061165,124.92401,-31.014265,-47.154453,-50.550514,40.609589,-13.728869,6.0516729,-33.060379,-53.338623,-33.905148,-26.58835,-39.9575,125.34093,-33.13559,-53.198685,-16.565279,145.10632
2521000000,-17.306139,14.405692,-36.036144,-8.4993467,-31.097919,-48.42577,-33.837254,-27.811811,-36.163471,-8.6031179,-12.009349,-179.29019,-50.134171,44.618687,-40.194748,123.22767,-31.012926,-48.46376,-50.268185,43.900459,-13.676183,5.6777334,-33.069756,-54.742989,-33.917645,-27.975939,-40.087025,123.7246,-33.13924,-54.630989,-16.555679,144.54355
2521500000,-17.265001,14.669752,-36.030796,-9.1015577,-31.093088,-49.707737,-33.842785,-29.182396,-36.164898,-9.085433,-11.978953,-179.52917,-49.809971,47.208618,-40.314865,121.69908,-31.016045,-49.776535,-49.94619,46.697742,-13.623043,5.2783685,-33.078209,-56.153515,-33.922424,-29.375902,-40.201187,122.2848,-33.146168,-56.070473,-16.550007,143.9624
2522000000,-17.214113,14.919859,-36.026314,-9.6874743,-31.086456,-51.016766,-33.843891,-30.640581,-36.160927,-9.5491896,-11.949892,-179.77939,-49.452251,49.541588,-40.400814,120.32572,-31.019712,-51.07275,-49.58416,49.266144,-13.569303,4.8639116,-33.091999,-57.581051,-33.926987,-30.826317,-40.280514,120.91849,-33.158764,-57.550602,-16.548405,143.36626
2522500000,-17.153721,15.146995,-36.013374,-10.312034,-31.081741,-52.342228,-33.846466,-32.162117,-36.140381,-10.040025,-11.924805,179.95886,-49.059338,51.312935,-40.456589,118.97105,-31.023483,-52.387981,-49.162613,51.104839,-13.518364,4.4327126,-33.118408,-59.002998,-33.935112,-32.340263,-40.325191,119.57242,-33.182793,-59.008381,-16.551229,142.7706
2523000000,-17.082447,15.342739,-36.003407,-11.047905,-31.075731,-53.683834,-33.858208,-33.784508,-36.117168,-10.6409,-11.90291,179.68848,-48.687126,52.571129,-40.482075,117.50741,-31.025183,-53.694973,-48.76619,52.435341,-13.467555,3.9958768,-33.148163,-60.414772,-33.95303,-33.947247,-40.338661,118.12367,-33.215508,-60.467052,-16.556786,142.18507
2523500000,-17.001867,15.506334,-36.002811,-11.742096,-31.069132,-55.099121,-33.893879,-35.495247,-36.10107,-11.316116,-11.88271,179.43033,-48.337948,53.794006,-40.483963,115.91742,-31.024807,-55.041988,-48.385971,53.745377,-13.418956,3.5496378,-33.186493,-61.806587,-33.987137,-35.621593,-40.326622,116.49184,-33.257687,-61.901302,-16.565489,141.62671
2524000000,-16.914675,15.632547,-36.010464,-12.405676,-31.067621,-56.534428,-33.951389,-37.195461,-36.094891,-11.957089,-11.867287,179.16595,-47.984818,54.848316,-40.477921,114.13798,-31.026567,-56.428234,-48.004818,54.828938,-13.372886,3.0976083,-33.233208,-63.146759,-34.049099,-37.280319,-40.311836,114.63117,-33.310631,-63.24271,-16.576021,141.06822
2524500000,-16.822891,15.700184,-36.010727,-13.019365,-31.068531,-58.046719,-34.031864,-38.825928,-36.079655,-12.550166,-11.85238,178.9104,-47.612228,55.778206,-40.478909,112.21651,-31.027891,-57.854736,-47.620544,55.636219,-13.326344,2.6486099,-33.285984,-64.41906,-34.12746,-38.857037,-40.309525,112.67878,-33.365345,-64.522377,-16.589518,140.54413
2525000000,-16.716732,15.722438,-36.002396,-13.614199,-31.077812,-59.608025,-34.123001,-40.387901,-36.059593,-13.186168,-11.839108,178.65657,-47.285122,56.366669,-40.478798,110.23875,-31.029081,-59.355968,-47.279869,56.141514,-13.279375,2.1989958,-33.332684,-65.635513,-34.219181,-40.361538,-40.313999,110.61398,-33.416431,-65.723923,-16.604597,140.04068
2525500000,-16.608273,15.650292,-35.993626,-14.236645,-31.092367,-61.205715,-34.232292,-41.899731,-36.042419,-13.846893,-11.827995,178.41846,-46.929989,57.342007,-40.494328,108.14655,-31.035564,-60.919666,-46.924374,57.090157,-13.230591,1.7291971,-33.378883,-66.815964,-34.320671,-41.791782,-40.325722,108.47898,-33.463577,-66.910759,-16.619223,139.55475
2526000000,-16.496691,15.475924,-35.970531,-14.852508,-31.115191,-62.901779,-34.356697,-43.305599,-36.016434,-14.492258,-11.819244,178.17053,-46.541016,57.789616,-40.526745,106.07169,-31.052456,-62.60693,-46.547569,57.437553,-13.187246,1.2399645,-33.426662,-67.950851,-34.434967,-43.17733,-40.359467,106.3355,-33.512951,-68.048149,-16.633324,139.09592
2526500000,-16.381721,15.209108,-35.939159,-15.572842,-31.155691,-64.625824,-34.498257,-44.6064,-35.983624,-15.205177,-11.811716,177.93069,-46.1852,58.078587,-40.566925,104.06533,-31.087049,-64.324928,-46.175659,57.684486,-13.147409,0.75531286,-33.473976,-69.048607,-34.561054,-44.482826,-40.403366,104.26508,-33.56049,-69.14978,-16.647446,138.62465
2527000000,-16.269426,14.830673,-35.916241,-16.367682,-31.213596,-66.374992,-34.653328,-45.737019,-35.956337,-16.026426,-11.806331,177.69139,-45.83876,58.214111,-40.603836,102.16973,-31.137825,-66.09108,-45.832134,57.843727,-13.109722,0.27348152,-33.515221,-70.122978,-34.706509,-45.659164,-40.452671,102.32301,-33.60548,-70.224869,-16.66062,138.17879
