!CSV A.01.01
!Keysight Technologies,N5222B,MY58422327,A.13.60.06
!Date: Monday, March 28, 2022 15:38:06
!Source: Standard

BEGIN CH1_DATA
Freq(Hz),S11(DB),S11(DEG),S12(DB),S12(DEG),S13(DB),S13(DEG),S14(DB),S14(DEG),S21(DB),S21(DEG),S22(DB),S22(DEG),S23(DB),S23(DEG),S24(DB),S24(DEG),S31(DB),S31(DEG),S32(DB),S32(DEG),S33(DB),S33(DEG),S34(DB),S34(DEG),S41(DB),S41(DEG),S42(DB),S42(DEG),S43(DB),S43(DEG),S44(DB),S44(DEG)
2500000000,-17.636789,22.763727,-32.963329,25.737595,-33.015694,-11.031819,-34.197781,6.3634958,-33.069679,25.609102,-13.463849,-173.56467,-41.819099,7.6015506,-40.906281,-133.19591,-32.9352,-11.567104,-41.731148,7.6943936,-15.622726,24.197865,-33.911015,-11.116009,-34.236645,6.2967968,-40.636726,-133.7682,-33.959431,-11.279546,-16.687202,164.70969
2500500000,-17.626846,22.547266,-33.056538,24.455156,-33.008869,-11.416808,-34.306728,5.1121893,-33.165848,24.380022,-13.417884,-173.70198,-42.001827,6.064374,-40.770729,-134.53444,-32.934502,-11.950027,-41.899536,6.1883993,-15.578458,23.659483,-33.904984,-11.694288,-34.339111,5.056282,-40.52417,-135.19005,-33.95845,-11.878182,-16.679136,164.35896
2501000000,-17.610649,22.340315,-33.156971,23.22541,-32.99292,-11.843226,-34.427006,3.9710178,-33.268539,23.186434,-13.371081,-173.82254,-42.203934,4.4790239,-40.631927,-136.06841,-32.923046,-12.346546,-42.09483,4.5752063,-15.533077,23.124962,-33.892784,-12.429724,-34.455837,3.9148767,-40.401852,-136.72964,-33.954678,-12.621196,-16.66983,163.99982
2501500000,-17.58761,22.144419,-33.253273,22.081676,-32.978775,-12.246922,-34.550133,3.0211012,-33.365974,22.101254,-13.32688,-173.95259,-42.440964,3.013793,-40.512703,-137.71898,-32.912525,-12.729893,-42.317162,3.0668359,-15.490741,22.589506,-33.881062,-13.242148,-34.574059,2.9405253,-40.291,-138.35895,-33.950497,-13.418929,-16.658268,163.64244
2502000000,-17.562647,21.910639,-33.343842,20.970795,-32.958366,-12.646255,-34.669918,2.1459742,-33.454868,21.053661,-13.28355,-174.07712,-42.698372,1.6887505,-40.399254,-139.34566,-32.89666,-13.121531,-42.565651,1.6950736,-15.44878,22.068405,-33.878056,-14.144073,-34.687584,2.0435441,-40.188679,-139.95874,-33.952709,-14.287387,-16.645937,163.27641
2502500000,-17.530531,21.654345,-33.434612,19.898676,-32.93634,-13.077578,-34.787029,1.3945109,-33.541344,20.031454,-13.239303,-174.19977,-42.957218,0.55437511,-40.293304,-140.94995,-32.881115,-13.522628,-42.809593,0.49635407,-15.409972,21.556976,-33.88969,-15.078139,-34.800655,1.281058,-40.091602,-141.53508,-33.969223,-15.18245,-16.633017,162.88844
2503000000,-17.493032,21.362175,-33.512733,18.859558,-32.922634,-13.48013,-34.89505,0.70710242,-33.614243,19.065475,-13.197891,-174.34538,-43.218124,-0.4270573,-40.187611,-142.51607,-32.866844,-13.894992,-43.060516,-0.62407392,-15.371065,21.069458,-33.915939,-15.973533,-34.905384,0.53506851,-39.982128,-143.07568,-33.995041,-16.054768,-16.619209,162.50314
2503500000,-17.460926,21.013378,-33.579227,17.816713,-32.911911,-13.80162,-35.003521,0.087796323,-33.672371,18.063881,-13.157422,-174.49002,-43.45332,-1.3922461,-40.066418,-143.97678,-32.856697,-14.213758,-43.291733,-1.6948493,-15.333227,20.60001,-33.949528,-16.768814,-35.015697,-0.10201855,-39.860645,-144.49307,-34.025497,-16.819193,-16.604136,162.1058
2504000000,-17.427059,20.641293,-33.645607,16.76825,-32.88736,-14.020278,-35.110657,-0.43959972,-33.726093,17.055122,-13.116012,-174.63045,-43.682632,-2.4374008,-39.924221,-145.43506,-32.836697,-14.404254,-43.520714,-2.880003,-15.294517,20.1493,-33.976418,-17.512903,-35.119648,-0.65309131,-39.716286,-145.90521,-34.051414,-17.550623,-16.588255,161.6772
2504500000,-17.395586,20.258839,-33.702324,15.682702,-32.846741,-14.148194,-35.210072,-0.84701943,-33.773788,16.023161,-13.07726,-174.78876,-43.919197,-3.6127436,-39.748871,-146.94614,-32.792076,-14.534162,-43.757915,-4.2263031,-15.254484,19.720549,-33.99873,-18.154175,-35.21875,-1.0890397,-39.535213,-147.36621,-34.070038,-18.204229,-16.56917,161.24631
2505000000,-17.361441,19.876928,-33.757053,14.527083,-32.783379,-14.305367,-35.291702,-1.1340843,-33.812214,14.869303,-13.040084,-174.96088,-44.16386,-4.9248118,-39.544006,-148.62338,-32.729538,-14.670533,-44.019951,-5.616631,-15.211999,19.289452,-34.011303,-18.732906,-35.302986,-1.4265712,-39.324871,-149.06929,-34.080193,-18.775923,-16.551098,160.77618
2505500000,-17.32696,19.472107,-33.811382,13.358296,-32.694283,-14.459169,-35.362633,-1.4048411,-33.853085,13.66743,-13.004433,-175.12741,-44.465542,-6.3113666,-39.313999,-150.55482,-32.639717,-14.819074,-44.323421,-7.1537924,-15.167149,18.86717,-34.003292,-19.309494,-35.376339,-1.7057759,-39.088898,-151.01048,-34.070942,-19.374828,-16.531183,160.2834
2506000000,-17.294195,19.053051,-33.871273,12.119508,-32.584568,-14.745543,-35.421082,-1.6472391,-33.897511,12.360737,-12.971233,-175.30629,-44.774647,-7.8911123,-39.075195,-152.79875,-32.530079,-15.085323,-44.650482,-8.7944813,-15.120078,18.449846,-33.981956,-19.91176,-35.441376,-1.965807,-38.846977,-153.27803,-34.04821,-19.995668,-16.51145,159.74855
2506500000,-17.262733,18.631632,-33.942078,10.785562,-32.463524,-15.119172,-35.470299,-1.7846476,-33.95771,10.960553,-12.941565,-175.49529,-45.143177,-9.6276121,-38.835499,-155.39622,-32.4063,-15.463162,-45.038994,-10.567988,-15.071974,18.028904,-33.954868,-20.582989,-35.488403,-2.101613,-38.615383,-155.88602,-34.020138,-20.663208,-16.493225,159.18449
2507000000,-17.236824,18.208597,-34.028629,9.5033388,-32.327557,-15.652835,-35.49239,-1.9069638,-34.03931,9.5800686,-12.912631,-175.66386,-45.613892,-11.387115,-38.620945,-158.33417,-32.268494,-16.008081,-45.517258,-12.344954,-15.021808,17.602716,-33.92025,-21.269602,-35.507004,-2.2501309,-38.40731,-158.81615,-33.985176,-21.378536,-16.479296,158.58427
2507500000,-17.206978,17.815176,-34.120136,8.2603464,-32.189407,-16.361202,-35.495541,-2.1122365,-34.132347,8.2445469,-12.887191,-175.83615,-46.189873,-12.803793,-38.447559,-161.50899,-32.128784,-16.719242,-46.10162,-13.846677,-14.970805,17.179476,-33.873653,-22.030876,-35.508751,-2.4864531,-38.236858,-161.99872,-33.941666,-22.157768,-16.468822,157.96887
2508000000,-17.182449,17.416658,-34.220753,7.0583434,-32.051651,-17.216724,-35.491734,-2.3851907,-34.234848,6.9883771,-12.862183,-175.99216,-46.842861,-13.732739,-38.314892,-164.80473,-31.996017,-17.587175,-46.781715,-14.942709,-14.919922,16.755424,-33.826008,-22.869442,-35.502586,-2.7773101,-38.106998,-165.32414,-33.896175,-23.006914,-16.462299,157.33975
2508500000,-17.158903,17.020844,-34.322308,5.9074221,-31.927828,-18.221533,-35.491791,-2.6577008,-34.341732,5.7844105,-12.837171,-176.12431,-47.612411,-14.140063,-38.220726,-168.20226,-31.868673,-18.567858,-47.549713,-15.351606,-14.864867,16.331751,-33.781345,-23.788208,-35.501972,-3.0873792,-38.017689,-168.71519,-33.854568,-23.924534,-16.46002,156.69569
2509000000,-17.142517,16.612701,-34.429871,4.7554126,-31.811832,-19.319031,-35.490147,-2.8912082,-34.450821,4.5953984,-12.814519,-176.26492,-48.441364,-13.474401,-38.166508,-171.60805,-31.751209,-19.656485,-48.388004,-14.796366,-14.809866,15.904422,-33.739204,-24.745266,-35.500156,-3.3537669,-37.965366,-172.13518,-33.818207,-24.878479,-16.46019,156.05829
2509500000,-17.129065,16.224199,-34.544266,3.6592517,-31.707878,-20.530319,-35.474434,-3.0430787,-34.567802,3.4357979,-12.789481,-176.39394,-49.282017,-11.700644,-38.147251,-174.99939,-31.644701,-20.839991,-49.270042,-12.876258,-14.752931,15.466908,-33.70507,-25.696667,-35.486832,-3.5515864,-37.950199,-175.51167,-33.785854,-25.812689,-16.463472,155.42465
2510000000,-17.124306,15.842269,-34.670303,2.6012611,-31.615108,-21.76634,-35.437561,-3.1544883,-34.698223,2.3443456,-12.763111,-176.50333,-50.103672,-8.4378929,-38.155853,-178.33786,-31.550413,-22.086718,-50.122013,-9.6380186,-14.695713,15.028197,-33.668011,-26.66021,-35.451591,-3.6976156,-37.960392,-178.79964,-33.751495,-26.756533,-16.47073,154.78247
2510500000,-17.12929,15.477834,-34.801628,1.6553754,-31.538641,-23.097891,-35.374397,-3.3036914,-34.834805,1.3835416,-12.737913,-176.6232,-50.882446,-3.9179895,-38.184807,178.37817,-31.469673,-23.405066,-50.927696,-4.9541149,-14.639657,14.564836,-33.628109,-27.605886,-35.393528,-3.9130228,-37.993023,177.93433,-33.713318,-27.70867,-16.478888,154.17316
2511000000,-17.134825,15.163076,-34.935764,0.87097484,-31.477617,-24.463263,-35.295372,-3.5309815,-34.968941,0.60086119,-12.711912,-176.72487,-51.462185,2.3609958,-38.233448,175.157,-31.403591,-24.753759,-51.512436,1.4904715,-14.583748,14.094029,-33.583073,-28.580914,-35.319984,-4.1797385,-38.039455,174.76614,-33.667355,-28.669197,-16.490812,153.56335
2511500000,-17.141182,14.881088,-35.051533,0.23750831,-31.436108,-25.831272,-35.202259,-3.8549869,-35.084286,-0.069973558,-12.683488,-176.81113,-51.718479,9.540513,-38.302895,171.9754,-31.351946,-26.115509,-51.761303,8.6695051,-14.529259,13.607769,-33.536591,-29.620373,-35.237942,-4.5141835,-38.104145,171.60115,-33.618793,-29.717081,-16.505991,152.97247
2512000000,-17.148741,14.622781,-35.15057,-0.3667348,-31.403236,-27.147526,-35.094109,-4.2491102,-35.184158,-0.71772945,-12.653797,-176.91188,-51.588436,16.320107,-38.395763,168.93227,-31.313265,-27.447214,-51.641781,15.520562,-14.482244,13.104646,-33.493019,-30.75555,-35.143181,-4.891994,-38.192051,168.53766,-33.575279,-30.844517,-16.523424,152.40215
2512500000,-17.153057,14.370503,-35.229263,-1.0298557,-31.385254,-28.470467,-34.981739,-4.7185874,-35.270679,-1.3990897,-12.624022,-177.01173,-51.189194,22.05924,-38.500954,165.97624,-31.291265,-28.811825,-51.261066,21.366674,-14.435686,12.622482,-33.452721,-31.868427,-35.034962,-5.315239,-38.291485,165.54506,-33.533718,-31.972454,-16.540579,151.86417
2513000000,-17.157394,14.116425,-35.302502,-1.7434944,-31.376158,-29.710035,-34.845787,-5.2624454,-35.352402,-2.115175,-12.592553,-177.10397,-50.600365,25.877623,-38.618675,163.07864,-31.279703,-30.084389,-50.667824,25.411701,-14.392839,12.144846,-33.41412,-33.038757,-34.903465,-5.8313904,-38.407093,162.65211,-33.496456,-33.140873,-16.558823,151.34303
2513500000,-17.16206,13.867328,-35.378811,-2.5127845,-31.369553,-30.882561,-34.70158,-5.9680266,-35.435333,-2.8716068,-12.560898,-177.20824,-50.020794,27.818424,-38.747719,160.33919,-31.273808,-31.30966,-50.076767,27.351063,-14.352434,11.677646,-33.380135,-34.223763,-34.758759,-6.5176597,-38.540699,159.85176,-33.464706,-34.332062,-16.577709,150.84581
2514000000,-17.173111,13.611617,-35.46104,-3.3152506,-31.357485,-31.994781,-34.552299,-6.8529081,-35.525169,-3.6474004,-12.528437,-177.31352,-49.517826,28.286371,-38.880466,157.72675,-31.266579,-32.472183,-49.567585,27.918217,-14.311541,11.229102,-33.35033,-35.419083,-34.609909,-7.3706927,-38.676868,157.20949,-33.435093,-35.547443,-16.59667,150.35112
2514500000,-17.183838,13.394352,-35.552307,-4.0994673,-31.3445,-33.111179,-34.40604,-7.8690395,-35.624722,-4.3975902,-12.496402,-177.42218,-49.163979,27.841408,-39.009087,155.15581,-31.258749,-33.611595,-49.220058,27.479671,-14.272565,10.789649,-33.322227,-36.616524,-34.463223,-8.4091768,-38.808613,154.66322,-33.40905,-36.768799,-16.614309,149.89685
2515000000,-17.196447,13.201754,-35.655418,-4.8096075,-31.331835,-34.208691,-34.260811,-9.0403757,-35.733727,-5.0354967,-12.464787,-177.52776,-48.996307,27.279879,-39.144318,152.70857,-31.248915,-34.741367,-48.994156,26.885166,-14.232959,10.361341,-33.296684,-37.847256,-34.319958,-9.5773745,-38.941975,152.25121,-33.389374,-37.977329,-16.629742,149.4635
2515500000,-17.21438,13.036247,-35.752712,-5.4136539,-31.3116,-35.343788,-34.120361,-10.372747,-35.829632,-5.5689855,-12.432858,-177.63538,-48.886536,26.7985,-39.265095,150.3497,-31.237219,-35.891331,-48.878506,26.387442,-14.192252,9.9483118,-33.274593,-39.04987,-34.185535,-10.91678,-39.066326,149.88811,-33.371506,-39.177605,-16.641516,149.05318
2516000000,-17.237158,12.911916,-35.851906,-5.990025,-31.294458,-36.457661,-33.991245,-11.845164,-35.926327,-6.0814624,-12.398249,-177.73544,-48.841785,26.283779,-39.399071,147.86017,-31.229851,-37.023659,-48.825417,25.803177,-14.149922,9.5405369,-33.247559,-40.25069,-34.064693,-12.410127,-39.191383,147.46144,-33.350224,-40.382946,-16.651451,148.63235
2516500000,-17.260983,12.863574,-35.957802,-6.4678164,-31.283014,-37.593658,-33.882572,-13.461715,-36.025188,-6.5068173,-12.363133,-177.84428,-48.857487,25.893475,-39.540203,145.47888,-31.224009,-38.156246,-48.859566,25.29315,-14.106382,9.131238,-33.223694,-41.508175,-33.965855,-14.006103,-39.329407,145.08711,-33.329365,-41.640476,-16.657295,148.25267
2517000000,-17.284018,12.876208,-36.049088,-6.6906819,-31.264542,-38.746101,-33.796238,-15.151134,-36.109478,-6.7192655,-12.328252,-177.97772,-48.891598,25.396,-39.681065,143.26984,-31.211111,-39.283924,-48.940887,24.75259,-14.063328,8.7195902,-33.203876,-42.805779,-33.887177,-15.661432,-39.485207,142.82632,-33.319057,-42.92902,-16.659613,147.86205
2517500000,-17.31214,12.956123,-36.120472,-6.9020076,-31.258463,-39.873032,-33.728352,-16.922298,-36.176361,-6.9427767,-12.291105,-178.10085,-49.092754,25.407461,-39.82177,141.07867,-31.210012,-40.387325,-49.167507,24.844547,-14.019911,8.321209,-33.191769,-44.10318,-33.8237,-17.363102,-39.635105,140.57941,-33.309467,-44.18689,-16.659498,147.46848
2518000000,-17.332685,13.117216,-36.161335,-7.0374918,-31.241558,-40.959045,-33.687489,-18.718967,-36.216343,-7.1034994,-12.253495,-178.24626,-49.288677,26.159819,-39.975597,138.97124,-31.197853,-41.454647,-49.411446,25.799124,-13.976931,7.9320259,-33.179726,-45.360126,-33.785515,-19.087234,-39.785084,138.51057,-33.300495,-45.413227,-16.654589,147.07994
2518500000,-17.34647,13.352814,-36.18124,-7.229887,-31.216648,-42.093094,-33.671917,-20.494942,-36.236229,-7.3062134,-12.21634,-178.40579,-49.47081,27.47797,-40.122189,136.96764,-31.177156,-42.56176,-49.606174,27.300911,-13.933254,7.5494313,-33.164242,-46.591621,-33.768669,-20.786234,-39.932487,136.509,-33.286335,-46.575275,-16.64473,146.65732
2519000000,-17.34955,13.629915,-36.186131,-7.475019,-31.192118,-43.312466,-33.67662,-22.179447,-36.232216,-7.5794168,-12.178206,-178.57108,-49.631138,28.972557,-40.259972,135.05132,-31.153496,-43.727882,-49.787296,29.248537,-13.888287,7.1725764,-33.146278,-47.880177,-33.770542,-22.413826,-40.06955,134.56306,-33.267273,-47.818089,-16.631042,146.21143
2519500000,-17.339487,13.933132,-36.176254,-7.8351126,-31.172142,-44.563919,-33.69376,-23.745445,-36.221859,-7.9747581,-12.140675,-178.75397,-49.768379,31.262583,-40.404289,133.15636,-31.13212,-44.973763,-49.924446,31.84236,-13.841306,6.8037162,-33.126232,-49.203175,-33.780663,-23.922688,-40.204456,132.63692,-33.246994,-49.091232,-16.614521,145.74049
2520000000,-17.319183,14.234676,-36.161209,-8.3121176,-31.161636,-45.860378,-33.7075,-25.18429,-36.207672,-8.4974136,-12.105798,-178.95874,-49.827587,33.948856,-40.54538,131.28636,-31.122789,-46.247303,-49.936134,34.715897,-13.793674,6.43782,-33.112122,-50.551674,-33.790558,-25.348324,-40.342674,130.77132,-33.223454,-50.408051,-16.598633,145.23145
2520500000,-17.287724,14.524807,-36.147781,-8.8425961,-31.160191,-47.135933,-33.715736,-26.601503,-36.198811,-9.0677433,-12.070971,-179.16248,-49.774105,36.622742,-40.687263,129.59518,-31.118591,-47.503281,-49.859913,37.671413,-13.744164,6.0673242,-33.104942,-51.946552,-33.791252,-26.72267,-40.491673,129.05551,-33.211079,-51.798004,-16.583399,144.69449
2521000000,-17.249689,14.789398,-36.139996,-9.4334688,-31.158085,-48.397976,-33.721729,-28.012461,-36.200027,-9.6696711,-12.040682,-179.39583,-49.676453,39.275768,-40.81802,128.02203,-31.116955,-48.748169,-49.707222,40.408577,-13.69239,5.686429,-33.103245,-53.36581,-33.789146,-28.118935,-40.618732,127.47656,-33.201447,-53.188541,-16.569977,144.13486
2521500000,-17.199169,15.031377,-36.135128,-10.03852,-31.155386,-49.625641,-33.72385,-29.408995,-36.203693,-10.28616,-12.01058,-179.63353,-49.519329,41.831104,-40.939533,126.60556,-31.114159,-49.944408,-49.513493,42.821609,-13.64053,5.2857308,-33.102734,-54.779343,-33.782135,-29.507288,-40.74152,126.07725,-33.1954,-54.601082,-16.560923,143.5507
2522000000,-17.141642,15.238137,-36.129696,-10.624998,-31.147202,-50.860142,-33.718582,-30.871355,-36.201984,-10.85417,-11.982372,-179.8801,-49.314663,44.260201,-41.025196,125.29863,-31.104441,-51.162617,-49.275959,45.151913,-13.588263,4.8711767,-33.109726,-56.238525,-33.773712,-30.996977,-40.826618,124.76247,-33.203407,-56.087543,-16.556871,142.94749
2522500000,-17.078005,15.413625,-36.116936,-11.237449,-31.136147,-52.135159,-33.717239,-32.400707,-36.192181,-11.450231,-11.957844,179.86143,-49.044937,46.47892,-41.078018,124.04375,-31.092899,-52.425835,-48.977966,47.144943,-13.539311,4.4398394,-33.129227,-57.681892,-33.764748,-32.526478,-40.873928,123.49964,-33.217281,-57.520199,-16.55653,142.33997
2523000000,-17.005175,15.556366,-36.10236,-11.941981,-31.121864,-53.454018,-33.718494,-34.013367,-36.182915,-12.126249,-11.936419,179.59679,-48.761906,48.293056,-41.084312,122.68446,-31.074287,-53.719078,-48.692757,48.791073,-13.490084,4.0034537,-33.152428,-59.098,-33.75943,-34.199173,-40.886509,122.12814,-33.24015,-58.95715,-16.559748,141.74033
2523500000,-16.925026,15.665956,-36.098518,-12.668247,-31.106213,-54.826015,-33.740189,-35.744068,-36.186485,-12.815409,-11.916434,179.34625,-48.457626,50.007496,-41.059483,121.14622,-31.055672,-55.101208,-48.396526,50.453091,-13.442739,3.5601823,-33.18293,-60.514351,-33.778828,-35.965721,-40.873142,120.55127,-33.272617,-60.374119,-16.566095,141.16129
2524000000,-16.840464,15.734372,-36.10675,-13.354558,-31.094139,-56.261963,-33.783867,-37.474503,-36.195148,-13.475256,-11.900887,179.08807,-48.139656,51.497845,-41.029644,119.31671,-31.040192,-56.524399,-48.075371,51.967613,-13.398411,3.1134284,-33.218536,-61.890667,-33.822964,-37.744205,-40.847549,118.69932,-33.312996,-61.73164,-16.575737,140.57581
2524500000,-16.75445,15.754705,-36.109272,-14.000944,-31.083235,-57.759277,-33.848179,-39.19294,-36.198544,-14.076481,-11.885774,178.83888,-47.780167,52.817421,-41.014637,117.28791,-31.024239,-58.047192,-47.723179,53.227661,-13.353066,2.67204,-33.258614,-63.208088,-33.888794,-39.482597,-40.839722,116.68143,-33.349262,-63.041008,-16.589136,140.01819
2525000000,-16.657234,15.74816,-36.105919,-14.652639,-31.080608,-59.330193,-33.930134,-40.843811,-36.196033,-14.678077,-11.872051,178.59059,-47.448601,53.721176,-41.009453,115.11636,-31.017969,-59.649246,-47.385883,54.059532,-13.30816,2.2312393,-33.299957,-64.529137,-33.972897,-41.190601,-40.844337,114.52424,-33.387554,-64.348541,-16.605955,139.47925
2525500000,-16.557924,15.669452,-36.111221,-15.290944,-31.080618,-60.946194,-34.031185,-42.457424,-36.195778,-15.28833,-11.860743,178.35379,-47.089523,55.090149,-41.025963,112.86684,-31.017754,-61.298573,-47.036137,55.36731,-13.261967,1.7780399,-33.345833,-65.819641,-34.07716,-42.84827,-40.864136,112.30613,-33.427048,-65.628387,-16.624205,138.96725
2526000000,-16.455294,15.515415,-36.104851,-15.839668,-31.095251,-62.669704,-34.152527,-43.995403,-36.183655,-15.832387,-11.851354,178.1048,-46.697758,55.747425,-41.072357,110.59791,-31.028826,-63.067604,-46.627472,56.116135,-13.220132,1.3094435,-33.398567,-67.07972,-34.202717,-44.404648,-40.906704,110.09684,-33.476349,-66.864037,-16.643036,138.48987
2526500000,-16.346792,15.286691,-36.086685,-16.471643,-31.12277,-64.431023,-34.291595,-45.439018,-36.162506,-16.466393,-11.843734,177.86192,-46.312359,56.190338,-41.136917,108.46583,-31.059778,-64.878258,-46.235458,56.501957,-13.180654,0.84963101,-33.452148,-68.284218,-34.350071,-45.848061,-40.964531,108.02586,-33.524448,-68.05191,-16.662073,138.0137
2527000000,-16.236864,14.959765,-36.07,-17.151018,-31.166721,-66.223137,-34.453686,-46.692688,-36.149632,-17.184496,-11.838887,177.62093,-45.952091,56.531666,-41.198978,106.51464,-31.107054,-66.728439,-45.870335,56.670647,-13.142777,0.39509976,-33.507412,-69.440346,-34.516514,-47.09037,-41.027252,106.09364,-33.576252,-69.210884,-16.680605,137.5686
