!CSV A.01.01
!Keysight Technologies,N5222B,MY58422327,A.13.60.06
!Date: Monday, March 28, 2022 15:39:06
!Source: Standard

BEGIN CH1_DATA
Freq(Hz),S11(DB),S11(DEG),S12(DB),S12(DEG),S13(DB),S13(DEG),S14(DB),S14(DEG),S21(DB),S21(DEG),S22(DB),S22(DEG),S23(DB),S23(DEG),S24(DB),S24(DEG),S31(DB),S31(DEG),S32(DB),S32(DEG),S33(DB),S33(DEG),S34(DB),S34(DEG),S41(DB),S41(DEG),S42(DB),S42(DEG),S43(DB),S43(DEG),S44(DB),S44(DEG)
2500000000,-17.611177,22.654762,-32.937778,24.793287,-32.925087,-12.026157,-34.214321,7.7412724,-33.004986,24.889894,-13.428477,-173.41138,-41.405437,14.063877,-42.00108,-135.82759,-32.863918,-12.606555,-41.380436,14.060379,-15.622133,23.980293,-33.924809,-14.110969,-34.244663,7.4635816,-41.806744,-136.8242,-34.009079,-14.154143,-16.708771,164.9137
2500500000,-17.603945,22.412149,-33.037693,23.536062,-32.925499,-12.510855,-34.319996,6.4592428,-33.100311,23.618732,-13.383002,-173.56416,-41.577034,12.74825,-41.863796,-137.2173,-32.867592,-13.090558,-41.545742,12.822441,-15.578432,23.439577,-33.927505,-14.724399,-34.352478,6.1702662,-41.677387,-138.25688,-34.013569,-14.780562,-16.70042,164.56435
2501000000,-17.590303,22.183765,-33.145237,22.343029,-32.919914,-13.010092,-34.437336,5.2795324,-33.206051,22.407059,-13.336545,-173.6974,-41.776573,11.399091,-41.726578,-138.71365,-32.866985,-13.586925,-41.731674,11.51093,-15.533485,22.906174,-33.925537,-15.488271,-34.474171,5.0045815,-41.54406,-139.80023,-34.010571,-15.54869,-16.691473,164.20757
2501500000,-17.57111,21.966433,-33.242645,21.258263,-32.917183,-13.466375,-34.559174,4.2783756,-33.304821,21.306452,-13.292777,-173.83932,-42.004936,10.182105,-41.607452,-140.3062,-32.870159,-14.033974,-41.946655,10.275194,-15.49123,22.371576,-33.92469,-16.310793,-34.597916,4.0120649,-41.432079,-141.42841,-34.012932,-16.371162,-16.680157,163.85495
2502000000,-17.549477,21.715231,-33.33445,20.172319,-32.91288,-13.874944,-34.683014,3.378799,-33.397095,20.239849,-13.250131,-173.97699,-42.239845,9.1291027,-41.486961,-141.85948,-32.865826,-14.465389,-42.168182,9.1297989,-15.449758,21.852854,-33.93055,-17.220726,-34.720215,3.1088676,-41.324734,-142.96352,-34.020885,-17.274746,-16.668079,163.49088
2502500000,-17.522261,21.450558,-33.424263,19.149694,-32.903877,-14.274098,-34.801708,2.6183815,-33.485973,19.22361,-13.206738,-174.11261,-42.469433,8.2353907,-41.376839,-143.33238,-32.864204,-14.869501,-42.396038,8.1356258,-15.411201,21.34425,-33.953186,-18.157497,-34.840748,2.3455305,-41.215828,-144.45262,-34.043079,-18.206837,-16.655149,163.11089
2503000000,-17.490984,21.156347,-33.505379,18.185423,-32.896687,-14.650661,-34.910004,1.9436766,-33.563126,18.267138,-13.16673,-174.27084,-42.697762,7.3982568,-41.252777,-144.78281,-32.863014,-15.263009,-42.620518,7.2312613,-15.372609,20.857838,-33.987175,-19.043161,-34.950329,1.6462768,-41.093834,-145.89952,-34.078796,-19.074619,-16.640755,162.73334
2503500000,-17.463419,20.817381,-33.572811,17.207302,-32.889282,-14.95446,-35.014343,1.3822106,-33.624268,17.278418,-13.127301,-174.42499,-42.907314,6.5434504,-41.118248,-146.12709,-32.863171,-15.557165,-42.843052,6.3085976,-15.334822,20.38722,-34.027565,-19.8008,-35.057278,1.0318187,-40.965286,-147.23889,-34.119255,-19.83835,-16.625278,162.34782
2504000000,-17.433516,20.465136,-33.635876,16.2372,-32.874535,-15.145844,-35.113613,0.87440687,-33.683289,16.284779,-13.087638,-174.57362,-43.129799,5.6306162,-40.955273,-147.46931,-32.851681,-15.735443,-43.065594,5.3350039,-15.296439,19.938513,-34.06216,-20.513416,-35.156055,0.48752606,-40.808769,-148.54034,-34.151867,-20.551035,-16.608702,161.92574
2504500000,-17.405107,20.105223,-33.686958,15.220006,-32.837383,-15.268494,-35.205814,0.43359908,-33.730953,15.253481,-13.050198,-174.73465,-43.35141,4.5995245,-40.74593,-148.86726,-32.817322,-15.821039,-43.294998,4.2785506,-15.256529,19.506582,-34.088516,-21.154493,-35.250137,0.059956368,-40.606705,-149.96062,-34.180798,-21.180643,-16.588291,161.50262
2505000000,-17.373804,19.750187,-33.732376,14.125437,-32.78392,-15.397364,-35.277634,0.12356237,-33.773418,14.133897,-13.014917,-174.91,-43.60162,3.5004764,-40.507065,-150.45992,-32.764252,-15.903131,-43.536839,3.1962276,-15.214892,19.077082,-34.109634,-21.722969,-35.327065,-0.28300089,-40.376122,-151.52141,-34.199581,-21.747957,-16.568516,161.03593
2505500000,-17.340687,19.375414,-33.780884,13.004185,-32.697163,-15.515296,-35.343987,-0.19602831,-33.816265,12.981158,-12.980212,-175.07634,-43.885597,2.3355198,-40.237206,-152.36687,-32.678799,-16.010345,-43.823109,1.9315139,-15.170613,18.656082,-34.109943,-22.313469,-35.393856,-0.59596342,-40.115356,-153.37119,-34.199131,-22.319197,-16.546984,160.54185
2506000000,-17.309135,18.989262,-33.828186,11.805141,-32.584,-15.753292,-35.399811,-0.49072301,-33.861504,11.730364,-12.948092,-175.2533,-44.197781,1.0711808,-39.960838,-154.59383,-32.571674,-16.219103,-44.134132,0.62213224,-15.125443,18.242069,-34.099636,-22.897919,-35.450981,-0.88955218,-39.844349,-155.55948,-34.190052,-22.918667,-16.526144,160.00763
2506500000,-17.277407,18.599487,-33.887077,10.525355,-32.462086,-16.105049,-35.440468,-0.69788939,-33.920139,10.402368,-12.919258,-175.44167,-44.571899,-0.18599889,-39.685028,-157.15263,-32.447258,-16.554131,-44.520107,-0.80060285,-15.078566,17.826008,-34.084019,-23.511908,-35.494209,-1.0773085,-39.572716,-158.1089,-34.172832,-23.546137,-16.507032,159.44589
2507000000,-17.249432,18.209402,-33.95908,9.2508945,-32.319656,-16.653437,-35.458664,-0.88571811,-33.993561,9.1193123,-12.891415,-175.60796,-45.040234,-1.2703285,-39.432037,-160.1156,-32.304367,-17.040257,-45.003185,-2.0257082,-15.029387,17.412518,-34.056808,-24.16004,-35.511486,-1.2659013,-39.321903,-161.0425,-34.144852,-24.189062,-16.491425,158.84592
2507500000,-17.216442,17.840235,-34.03788,7.9958825,-32.176228,-17.375151,-35.459213,-1.1592172,-34.072052,7.8495002,-12.866835,-175.77858,-45.595676,-1.891416,-39.218124,-163.35504,-32.158722,-17.75816,-45.590748,-2.7778876,-14.978318,16.999332,-34.020031,-24.851465,-35.514702,-1.5224942,-39.109509,-164.24475,-34.105961,-24.866785,-16.479269,158.23016
2508000000,-17.187906,17.4589,-34.124279,6.7433519,-32.039223,-18.286287,-35.461731,-1.4896882,-34.15979,6.5811014,-12.842346,-175.92857,-46.219872,-1.878203,-39.043797,-166.77954,-32.017185,-18.624996,-46.250324,-2.8017485,-14.927287,16.581598,-33.979542,-25.622391,-35.512375,-1.8474076,-38.940029,-167.65981,-34.061035,-25.615181,-16.471664,157.59955
2508500000,-17.159836,17.072844,-34.216911,5.5468593,-31.911774,-19.35161,-35.462639,-1.8001213,-34.253197,5.3672996,-12.8175,-176.05687,-46.870174,-0.98393655,-38.914249,-170.32861,-31.887835,-19.673286,-46.954742,-1.8722842,-14.872242,16.171371,-33.938038,-26.465427,-35.512611,-2.1806934,-38.815548,-171.17615,-34.021954,-26.465548,-16.468107,156.95404
2509000000,-17.138474,16.663078,-34.3167,4.3748937,-31.798525,-20.515394,-35.456909,-2.0589135,-34.351425,4.1666613,-12.794817,-176.19435,-47.523235,0.96771252,-38.82851,-173.9406,-31.770527,-20.817665,-47.649914,0.38411537,-14.817142,15.748955,-33.900871,-27.337906,-35.508457,-2.4420581,-38.734837,-174.71008,-33.982075,-27.336969,-16.466833,156.31412
2509500000,-17.120586,16.260996,-34.422684,3.2312949,-31.703701,-21.751574,-35.439182,-2.2567549,-34.460583,2.9770331,-12.769601,-176.31793,-48.09359,3.9841204,-38.784145,-177.51074,-31.669624,-22.062458,-48.249214,3.7557709,-14.759735,15.32123,-33.865509,-28.21525,-35.492123,-2.6604111,-38.688957,-178.22922,-33.945889,-28.232744,-16.469208,155.67278
2510000000,-17.112278,15.864762,-34.542198,2.1188438,-31.620546,-23.021742,-35.401627,-2.4210384,-34.584381,1.8240697,-12.742915,-176.42506,-48.56078,7.8099575,-38.77169,179.02353,-31.584803,-23.377041,-48.709164,7.9955263,-14.701391,14.88813,-33.827343,-29.077721,-35.456017,-2.8385322,-38.674301,178.35277,-33.907558,-29.102644,-16.47575,155.02011
2510500000,-17.115236,15.471436,-34.670521,1.1222296,-31.554165,-24.361763,-35.340446,-2.6337769,-34.71706,0.81045562,-12.717339,-176.53824,-48.896915,12.387261,-38.780125,175.60573,-31.515373,-24.726357,-49.00985,12.782175,-14.644136,14.432171,-33.782722,-29.937212,-35.39922,-3.0554073,-38.680313,174.99219,-33.863941,-29.991686,-16.483246,154.4037
2511000000,-17.119997,15.12333,-34.797764,0.27446246,-31.502823,-25.723198,-35.263775,-2.968529,-34.849083,-0.053575695,-12.690394,-176.63991,-49.021225,17.378796,-38.809566,172.30605,-31.463818,-26.098513,-49.091866,17.967813,-14.586246,13.960458,-33.728161,-30.85886,-35.326202,-3.350188,-38.702778,171.68918,-33.814301,-30.936327,-16.494993,153.78514
2511500000,-17.127024,14.81018,-34.906269,-0.43532103,-31.46936,-27.059448,-35.179417,-3.3336091,-34.967953,-0.76564407,-12.661824,-176.72447,-48.916264,22.235775,-38.850845,168.98039,-31.429882,-27.477129,-48.933041,22.754665,-14.530642,13.47432,-33.673935,-31.848875,-35.243477,-3.702914,-38.744255,168.40782,-33.761093,-31.929485,-16.511101,153.18747
2512000000,-17.137669,14.526485,-34.997726,-1.1416332,-31.440756,-28.338854,-35.079464,-3.7734995,-35.069675,-1.4687226,-12.631816,-176.82228,-48.631172,26.196041,-38.921715,165.75838,-31.402828,-28.767689,-48.622143,26.550861,-14.482064,12.965118,-33.618755,-32.952183,-35.148472,-4.115037,-38.80806,165.20538,-33.710094,-33.031677,-16.529346,152.61633
2512500000,-17.145868,14.267252,-35.083118,-1.9016062,-31.427629,-29.616688,-34.972668,-4.2321663,-35.159794,-2.1993129,-12.601027,-176.92232,-48.233154,29.216032,-39.005138,162.57669,-31.392626,-30.069048,-48.233036,29.39526,-14.435257,12.473849,-33.570713,-34.038837,-35.037842,-4.5763559,-38.882702,162.03658,-33.66478,-34.13739,-16.547483,152.08119
2513000000,-17.152985,14.011111,-35.160477,-2.6652682,-31.419586,-30.81418,-34.84251,-4.802012,-35.244331,-2.9347665,-12.568785,-177.01669,-47.750404,31.022835,-39.107182,159.47639,-31.386402,-31.271013,-47.776001,31.131548,-14.392006,11.99105,-33.524044,-35.190773,-34.908066,-5.1385837,-38.983597,158.95398,-33.62138,-35.284012,-16.565996,151.56564
2513500000,-17.160576,13.769604,-35.244286,-3.492322,-31.409859,-31.957766,-34.699177,-5.5382414,-35.329758,-3.7143657,-12.536243,-177.1179,-47.299011,31.567923,-39.228645,156.52661,-31.382656,-32.42942,-47.339455,31.654058,-14.351443,11.518121,-33.485146,-36.369682,-34.765694,-5.872169,-39.100517,155.98058,-33.582729,-36.450546,-16.58449,151.07481
2514000000,-17.172792,13.531984,-35.332794,-4.3105168,-31.400625,-33.06385,-34.553768,-6.4479232,-35.422321,-4.4852366,-12.502748,-177.22446,-46.921024,31.279449,-39.358429,153.73134,-31.373856,-33.53067,-46.976131,31.301241,-14.310931,11.062536,-33.448673,-37.570034,-34.619396,-6.7937217,-39.224117,153.14438,-33.545818,-37.642365,-16.603146,150.58714
2514500000,-17.183134,13.327324,-35.429642,-5.1175656,-31.385132,-34.177673,-34.409809,-7.5234575,-35.523296,-5.2373748,-12.469891,-177.33585,-46.66172,30.373203,-39.484833,150.98962,-31.362177,-34.640572,-46.729446,30.383148,-14.271565,10.617028,-33.416904,-38.764843,-34.47517,-7.8735261,-39.345634,150.42046,-33.513332,-38.835953,-16.620182,150.13458
2515000000,-17.194283,13.143278,-35.538433,-5.799377,-31.373682,-35.30592,-34.272827,-8.7604637,-35.632481,-5.8737812,-12.436702,-177.44504,-46.5214,29.275806,-39.61356,148.43987,-31.350767,-35.742355,-46.600243,29.426611,-14.232218,10.185049,-33.386894,-39.993717,-34.339542,-9.1158409,-39.473198,147.78157,-33.484982,-40.056965,-16.634607,149.70271
2515500000,-17.210886,12.979568,-35.639233,-6.3998499,-31.360634,-36.438068,-34.145012,-10.123569,-35.732517,-6.4094982,-12.403104,-177.55869,-46.454025,28.342939,-39.73336,145.88806,-31.338581,-36.874905,-46.543606,28.539972,-14.192096,9.7640457,-33.360165,-41.180492,-34.214352,-10.497897,-39.593979,145.22878,-33.458164,-41.258305,-16.646269,149.29288
2516000000,-17.233269,12.851889,-35.739243,-6.9708109,-31.3536,-37.5686,-34.029758,-11.644011,-35.825596,-6.9009824,-12.367312,-177.66702,-46.463005,27.417105,-39.856236,143.27255,-31.332499,-38.003696,-46.547665,27.682964,-14.151338,9.3516579,-33.329571,-42.384056,-34.101997,-11.996348,-39.713367,142.65056,-33.429882,-42.462742,-16.65579,148.87271
2516500000,-17.257048,12.796792,-35.844273,-7.4253149,-31.349716,-38.673946,-33.935646,-13.265027,-35.921005,-7.3028708,-12.330989,-177.78618,-46.522953,26.733244,-39.99868,140.7036,-31.327009,-39.09087,-46.612061,26.967035,-14.108907,8.9367285,-33.296833,-43.634781,-34.01046,-13.592976,-39.854595,140.03636,-33.398766,-43.689556,-16.660734,148.49765
2517000000,-17.280872,12.80514,-35.934692,-7.6752057,-31.337467,-39.780998,-33.866867,-14.940564,-35.997635,-7.5189934,-12.295226,-177.92902,-46.622677,26.049278,-40.152081,138.33675,-31.316631,-40.18866,-46.719093,26.378675,-14.067978,8.5217257,-33.272282,-44.927181,-33.938545,-15.265552,-40.009392,137.61713,-33.375031,-44.987812,-16.663448,148.11374
2517500000,-17.308468,12.88075,-36.007305,-7.8993907,-31.33556,-40.865879,-33.812294,-16.659571,-36.055889,-7.7710614,-12.257081,-178.0645,-46.836533,25.967062,-40.303921,136.03238,-31.316071,-41.247997,-46.935757,26.386642,-14.026758,8.1225166,-33.25338,-46.229145,-33.88652,-16.97537,-40.163689,135.28046,-33.355648,-46.279446,-16.660803,147.72429
2518000000,-17.329569,13.041709,-36.050423,-8.0451851,-31.32111,-41.898006,-33.781097,-18.393353,-36.091885,-7.9732847,-12.219439,-178.22649,-47.041145,26.512449,-40.457169,133.856,-31.302755,-42.259964,-47.132195,27.179482,-13.985629,7.7391415,-33.237247,-47.513466,-33.855045,-18.702887,-40.327301,133.10568,-33.339886,-47.558208,-16.654305,147.33418
2518500000,-17.34337,13.27219,-36.071308,-8.2709379,-31.295504,-42.978161,-33.77351,-20.087603,-36.109421,-8.2728281,-12.182624,-178.40277,-47.191605,27.56045,-40.605007,131.80968,-31.2796,-43.312309,-47.281506,28.39488,-13.944077,7.3693514,-33.220737,-48.776791,-33.849197,-20.380266,-40.477821,131.03844,-33.320404,-48.823315,-16.642572,146.90445
2519000000,-17.346937,13.545325,-36.072609,-8.5442724,-31.269094,-44.120571,-33.783413,-21.68845,-36.113396,-8.5842543,-12.145761,-178.58315,-47.343876,28.80562,-40.743584,129.81184,-31.249371,-44.438362,-47.395832,29.766405,-13.901045,7.0125999,-33.199661,-50.061726,-33.860058,-21.969444,-40.625145,129.07381,-33.300343,-50.11729,-16.627945,146.45007
2519500000,-17.337263,13.845607,-36.063873,-8.9253149,-31.242599,-45.340538,-33.801136,-23.160206,-36.109646,-8.998745,-12.110509,-178.77707,-47.448601,30.510708,-40.879063,127.88441,-31.220161,-45.617584,-47.488464,31.607189,-13.854768,6.6627736,-33.180374,-51.402519,-33.878162,-23.438385,-40.763577,127.17255,-33.279488,-51.446758,-16.611179,145.96663
2520000000,-17.318132,14.136984,-36.050323,-9.427927,-31.221125,-46.600048,-33.817745,-24.515028,-36.102581,-9.5276365,-12.077313,-178.98982,-47.481678,32.478325,-41.018597,126.00657,-31.194817,-46.879593,-47.495152,33.663113,-13.806113,6.3182287,-33.163185,-52.771381,-33.893147,-24.79863,-40.902508,125.36896,-33.259968,-52.83519,-16.595097,145.45132
2520500000,-17.288713,14.421407,-36.045055,-9.9903669,-31.205935,-47.873875,-33.821201,-25.859087,-36.104012,-10.106217,-12.043788,-179.19641,-47.439301,34.478863,-41.156322,124.28259,-31.176985,-48.161312,-47.435772,35.704216,-13.754992,5.9616594,-33.155499,-54.173519,-33.895962,-26.110754,-41.028412,123.69621,-33.253075,-54.220821,-16.580406,144.90576
2521000000,-17.25322,14.684504,-36.037815,-10.56136,-31.195164,-49.164234,-33.822083,-27.199427,-36.108433,-10.663039,-12.01527,-179.43336,-47.34465,36.417267,-41.282642,122.66536,-31.163698,-49.474945,-47.325085,37.642574,-13.701596,5.5894032,-33.151585,-55.568138,-33.893814,-27.444433,-41.148846,122.12228,-33.245255,-55.601635,-16.56739,144.34158
2521500000,-17.20476,14.933254,-36.035324,-11.156031,-31.185614,-50.452019,-33.811958,-28.533791,-36.111263,-11.218492,-11.986779,-179.66791,-47.213268,38.207359,-41.398201,121.23101,-31.151297,-50.784698,-47.183449,39.305351,-13.647842,5.1926908,-33.147335,-56.986248,-33.883965,-28.770382,-41.254475,120.68178,-33.241482,-57.008018,-16.55908,143.75352
2522000000,-17.149086,15.149805,-36.029091,-11.742186,-31.17487,-51.768833,-33.797558,-29.957409,-36.110909,-11.756265,-11.959606,-179.91068,-47.055096,39.952862,-41.487572,119.95009,-31.14003,-52.129509,-47.005371,40.93309,-13.593782,4.7834048,-33.148472,-58.441051,-33.866615,-30.200275,-41.338776,119.33573,-33.244549,-58.47868,-16.555077,143.14658
2522500000,-17.085491,15.343387,-36.012791,-12.370329,-31.16704,-53.113583,-33.783062,-31.464773,-36.093777,-12.31319,-11.935797,179.83694,-46.844112,41.365032,-41.535797,118.71741,-31.132721,-53.499165,-46.792961,42.343922,-13.542182,4.3514695,-33.163704,-59.895084,-33.849579,-31.715311,-41.382198,118.04142,-33.258377,-59.927246,-16.555391,142.53651
2523000000,-17.012699,15.499599,-35.999176,-13.07651,-31.157902,-54.468472,-33.775826,-33.103504,-36.078918,-12.982115,-11.914964,179.5759,-46.639317,42.51899,-41.532524,117.44357,-31.126028,-54.897125,-46.576553,43.516502,-13.490859,3.9125519,-33.18301,-61.339069,-33.840061,-33.366333,-41.37867,116.72306,-33.274544,-61.367725,-16.559532,141.9346
2523500000,-16.931482,15.620356,-35.993118,-13.820593,-31.149071,-55.898685,-33.784458,-34.866882,-36.067795,-13.679312,-11.895042,179.33041,-46.434559,43.659225,-41.499111,115.97858,-31.121391,-56.341038,-46.363346,44.70668,-13.442037,3.4660721,-33.211201,-62.774338,-33.853146,-35.110722,-41.352737,115.20473,-33.303902,-62.809124,-16.566832,141.35532
2524000000,-16.846094,15.700921,-35.998417,-14.518469,-31.14366,-57.359165,-33.822525,-36.634102,-36.064034,-14.395047,-11.879419,179.07521,-46.208996,44.775402,-41.451672,114.25401,-31.120481,-57.808624,-46.118011,45.719395,-13.396211,3.0113511,-33.246353,-64.162224,-33.886467,-36.895863,-41.309746,113.44701,-33.338825,-64.206139,-16.577482,140.76999
2524500000,-16.759274,15.730168,-35.999115,-15.165463,-31.14229,-58.875637,-33.883453,-38.374268,-36.059959,-15.056594,-11.863777,178.82632,-45.956036,45.752518,-41.414093,112.33763,-31.121952,-59.32518,-45.854969,46.52924,-13.349665,2.5602067,-33.286888,-65.498741,-33.944923,-38.658001,-41.276485,111.51836,-33.380257,-65.553589,-16.592007,140.22003
2525000000,-16.660048,15.733541,-35.994049,-15.809708,-31.144907,-60.448273,-33.95789,-40.064651,-36.050522,-15.732277,-11.850343,178.57805,-45.715729,46.503532,-41.37315,110.26441,-31.131517,-60.906681,-45.619553,47.188042,-13.304029,2.1108229,-33.326889,-66.794571,-34.021877,-40.398197,-41.245815,109.44772,-33.420002,-66.843887,-16.60964,139.69084
2525500000,-16.558777,15.661563,-35.989994,-16.47341,-31.154726,-62.063969,-34.055141,-41.761684,-36.047264,-16.441273,-11.838851,178.34212,-45.464954,47.51519,-41.350296,108.04781,-31.146286,-62.506142,-45.365318,48.090431,-13.256337,1.6398995,-33.36853,-68.073067,-34.117596,-42.102253,-41.227646,107.26722,-33.460476,-68.121475,-16.627869,139.19069
2526000000,-16.452978,15.507518,-35.977428,-17.097075,-31.174002,-63.784065,-34.172325,-43.364105,-36.034931,-17.109945,-11.829584,178.09517,-45.155098,48.172886,-41.351582,105.80126,-31.167063,-64.205292,-45.073483,48.622128,-13.214381,1.1582265,-33.413403,-69.323265,-34.23819,-43.738041,-41.235954,105.07919,-33.507858,-69.364281,-16.646225,138.7229
2526500000,-16.341179,15.274922,-35.957985,-17.798206,-31.206673,-65.530975,-34.31282,-44.881763,-36.021233,-17.866089,-11.822025,177.85364,-44.854733,48.587151,-41.367844,103.61737,-31.203592,-65.94088,-44.794464,48.973877,-13.175503,0.68202484,-33.459175,-70.541794,-34.384594,-45.280891,-41.261356,102.94042,-33.550835,-70.564156,-16.664337,138.25395
2527000000,-16.22937,14.93625,-35.944351,-18.571363,-31.255484,-67.308311,-34.477776,-46.243008,-36.018021,-18.650717,-11.817182,177.61368,-44.564144,48.846397,-41.388157,101.55873,-31.257076,-67.704765,-44.52906,49.249725,-13.13874,0.21084023,-33.508209,-71.715157,-34.554955,-46.658779,-41.285793,100.91275,-33.596306,-71.728943,-16.681278,137.81651
